name,type,start_time,duration,"ack","address","read","data"
"I2C","start",7.32113872,1.6e-07,,,,
"I2C","address",7.32114176,2.24e-05,true,0x20,false,
"I2C","data",7.3211656,2.24e-05,true,,,0x09
"I2C","data",7.3211912,2.24e-05,true,,,0x06
"I2C","data",7.32121712,2.224e-05,true,,,0x40
"I2C","data",7.32124272,2.224e-05,true,,,0x26
"I2C","data",7.32126848,2.24e-05,true,,,0x00
"I2C","data",7.32129408,2.24e-05,true,,,0x00
"I2C","data",7.32131968,2.24e-05,true,,,0x35
"I2C","data",7.3213456,2.224e-05,true,,,0x31
"I2C","stop",7.32137056,1.6e-07,,,,
"I2C","start",7.32138464,1.6e-07,,,,
"I2C","address",7.32138768,2.384e-05,true,0x20,false,
"I2C","data",7.32141312,2.224e-05,true,,,0x08
"I2C","data",7.32143872,2.224e-05,true,,,0x04
"I2C","data",7.32146464,2.224e-05,true,,,0x50
"I2C","data",7.32149024,2.224e-05,true,,,0x42
"I2C","data",7.321516,2.224e-05,true,,,0x4D
"I2C","data",7.3215416,2.224e-05,true,,,0x73
"I2C","stop",7.32156656,1.6e-07,,,,
"I2C","start",7.32158048,1.6e-07,,,,
"I2C","address",7.32158352,8.288e-05,true,0x20,false,
"I2C","data",7.321668,2.224e-05,true,,,0x08
"I2C","start",7.32169488,1.6e-07,,,,
"I2C","address",7.32169808,2.224e-05,true,0x20,true,
"I2C","data",7.32201568,2.224e-05,true,,,0x04
"I2C","data",7.32207376,2.224e-05,true,,,0x50
"I2C","data",7.32212256,2.224e-05,true,,,0x42
"I2C","data",7.32217136,2.224e-05,false,,,0x4D
"I2C","stop",7.32219632,1.6e-07,,,,
"I2C","start",7.32221056,1.6e-07,,,,
"I2C","address",7.32221376,2.224e-05,true,0x20,false,
"I2C","data",7.3222376,2.224e-05,true,,,0x08
"I2C","start",7.32226416,1.60000001e-07,,,,
"I2C","address",7.32226736,2.224e-05,true,0x20,true,
"I2C","data",7.3225568,2.224e-05,true,,,0x04
"I2C","data",7.3226056,2.224e-05,true,,,0x50
"I2C","data",7.32265424,2.24e-05,true,,,0x42
"I2C","data",7.32270304,2.224e-05,false,,,0x4D
"I2C","stop",7.322728,1.6e-07,,,,
"I2C","start",7.3227424,1.6e-07,,,,
"I2C","address",7.32274544,2.224e-05,true,0x20,false,
"I2C","data",7.32276928,2.224e-05,true,,,0x08
"I2C","start",7.322796,1.6e-07,,,,
"I2C","address",7.32279904,2.224e-05,true,0x20,true,
"I2C","data",7.3230832,2.224e-05,true,,,0x04
"I2C","data",7.323132,2.224e-05,true,,,0x50
"I2C","data",7.32318064,2.224e-05,true,,,0x42
"I2C","data",7.32322928,2.224e-05,false,,,0x4D
"I2C","stop",7.32325424,1.6e-07,,,,
"I2C","start",7.32326832,1.60000001e-07,,,,
"I2C","address",7.32327136,2.24e-05,true,0x20,false,
"I2C","data",7.32329536,2.224e-05,true,,,0x08
"I2C","start",7.32332192,1.60000001e-07,,,,
"I2C","address",7.32332512,2.224e-05,true,0x20,true,
"I2C","data",7.32348864,2.224e-05,true,,,0x04
"I2C","data",7.32353728,2.224e-05,true,,,0x50
"I2C","data",7.32358608,2.224e-05,true,,,0x42
"I2C","data",7.32363472,2.24e-05,false,,,0x4D
"I2C","stop",7.32365968,1.60000001e-07,,,,
"I2C","start",7.32367392,1.6e-07,,,,
"I2C","address",7.32367696,2.224e-05,true,0x20,false,
"I2C","data",7.3237008,2.224e-05,true,,,0x08
"I2C","start",7.32372752,1.6e-07,,,,
"I2C","address",7.32373056,2.224e-05,true,0x20,true,
"I2C","data",7.32390048,2.224e-05,true,,,0x04
"I2C","data",7.32395952,2.224e-05,true,,,0x00
"I2C","data",7.32400816,2.224e-05,true,,,0x00
"I2C","data",7.32406624,2.24e-05,false,,,0x00
"I2C","stop",7.3240912,1.6e-07,,,,
"I2C","start",7.3241056,1.60000001e-07,,,,
"I2C","address",7.32410864,2.24e-05,true,0x20,false,
"I2C","data",7.32413248,2.24e-05,true,,,0x09
"I2C","start",7.3241592,1.60000001e-07,,,,
"I2C","address",7.32416224,2.24e-05,true,0x20,true,
"I2C","data",7.3243472,2.224e-05,true,,,0x40
"I2C","data",7.3244032,2.224e-05,true,,,0x00
"I2C","data",7.32446128,2.224e-05,true,,,0x00
"I2C","data",7.32451008,2.224e-05,false,,,0x00
"I2C","stop",7.32453504,1.6e-07,,,,
"I2C","start",7.32554752,1.6e-07,,,,
"I2C","address",7.32555056,2.224e-05,true,0x35,false,
"I2C","data",7.3255744,2.224e-05,true,,,0x01
"I2C","data",7.3256,2.224e-05,true,,,0x00
"I2C","data",7.32562576,2.24e-05,true,,,0xE0
"I2C","data",7.32565152,2.224e-05,true,,,0xAC
"I2C","data",7.32567728,2.224e-05,true,,,0xFE
"I2C","data",7.32570288,2.224e-05,true,,,0xFF
"I2C","data",7.32572848,2.224e-05,true,,,0xFF
"I2C","data",7.3257544,2.224e-05,true,,,0xFF
"I2C","data",7.32578,2.224e-05,true,,,0x80
"I2C","data",7.32580576,2.224e-05,true,,,0x04
"I2C","data",7.32583136,2.224e-05,true,,,0x00
"I2C","data",7.32585696,2.224e-05,true,,,0x00
"I2C","data",7.32588288,2.224e-05,true,,,0xC0
"I2C","data",7.32590848,2.224e-05,true,,,0x21
"I2C","data",7.32593424,2.24e-05,true,,,0x00
"I2C","data",7.32595984,2.24e-05,true,,,0x00
"I2C","data",7.32598544,2.24e-05,true,,,0x73
"I2C","data",7.32601136,2.224e-05,true,,,0x4E
"I2C","data",7.32603696,2.224e-05,true,,,0xFF
"I2C","data",7.32606272,2.24e-05,true,,,0xC0
"I2C","data",7.32608832,2.24e-05,true,,,0x00
"I2C","data",7.32611392,2.24e-05,true,,,0x00
"I2C","data",7.32613984,2.224e-05,true,,,0x00
"I2C","data",7.32616544,2.224e-05,true,,,0x00
"I2C","data",7.32619136,2.224e-05,true,,,0xFF
"I2C","data",7.32621696,2.224e-05,true,,,0xFF
"I2C","data",7.32624256,2.224e-05,true,,,0xFF
"I2C","data",7.32626832,2.224e-05,true,,,0xFF
"I2C","data",7.32629392,2.224e-05,true,,,0xFF
"I2C","data",7.32631984,2.224e-05,true,,,0xFF
"I2C","data",7.32634544,2.224e-05,true,,,0xFF
"I2C","data",7.32637104,2.224e-05,true,,,0xFF
"I2C","data",7.3263968,2.24e-05,true,,,0xFF
"I2C","data",7.3264224,2.24e-05,true,,,0xFF
"I2C","data",7.32644848,2.24e-05,true,,,0xFF
"I2C","data",7.32647408,2.24e-05,true,,,0xFF
"I2C","data",7.32649968,2.24e-05,true,,,0xFF
"I2C","data",7.3265256,2.224e-05,true,,,0xFF
"I2C","data",7.3265512,2.224e-05,true,,,0xFF
"I2C","data",7.32657712,2.224e-05,true,,,0xFF
"I2C","data",7.32660272,2.224e-05,true,,,0xFF
"I2C","data",7.32662832,2.224e-05,true,,,0xFF
"I2C","data",7.32665408,2.224e-05,true,,,0xFF
"I2C","data",7.32667968,2.224e-05,true,,,0xFF
"I2C","data",7.3267056,2.224e-05,true,,,0xFF
"I2C","data",7.3267312,2.224e-05,true,,,0xFF
"I2C","data",7.3267568,2.224e-05,true,,,0xFF
"I2C","data",7.32678256,2.24e-05,true,,,0xFF
"I2C","data",7.32680816,2.24e-05,true,,,0xFF
"I2C","data",7.32683408,2.224e-05,true,,,0xFF
"I2C","data",7.32685968,2.224e-05,true,,,0xFF
"I2C","data",7.32688528,2.224e-05,true,,,0xFF
"I2C","data",7.32691104,2.24e-05,true,,,0x01
"I2C","data",7.32693664,2.24e-05,true,,,0x11
"I2C","data",7.32696256,2.224e-05,true,,,0x09
"I2C","data",7.32698816,2.224e-05,true,,,0xF8
"I2C","data",7.32701376,2.224e-05,true,,,0xFF
"I2C","data",7.32703968,2.224e-05,true,,,0xFF
"I2C","data",7.32706528,2.224e-05,true,,,0xFF
"I2C","data",7.32709104,2.224e-05,true,,,0xFF
"I2C","data",7.32711664,2.224e-05,true,,,0xFF
"I2C","data",7.32714224,2.224e-05,true,,,0xFF
"I2C","data",7.32716816,2.224e-05,true,,,0xFF
"I2C","data",7.32719376,2.224e-05,true,,,0xFF
"I2C","data",7.32721952,2.24e-05,true,,,0xFF
"I2C","data",7.32724512,2.24e-05,true,,,0xFF
"I2C","data",7.32727072,2.24e-05,true,,,0xFF
"I2C","data",7.32729664,2.224e-05,true,,,0xFF
"I2C","data",7.32732224,2.224e-05,true,,,0x00
"I2C","data",7.327348,2.24e-05,true,,,0x04
"I2C","data",7.3273736,2.24e-05,true,,,0x00
"I2C","data",7.3273992,2.24e-05,true,,,0x00
"I2C","data",7.32742512,2.224e-05,true,,,0x80
"I2C","data",7.32745104,2.224e-05,true,,,0x00
"I2C","data",7.3274768,2.224e-05,true,,,0x00
"I2C","data",7.32750288,2.24e-05,true,,,0x00
"I2C","data",7.32752848,2.24e-05,true,,,0xFF
"I2C","data",7.32755408,2.24e-05,true,,,0xFF
"I2C","data",7.32758,2.224e-05,true,,,0xFF
"I2C","data",7.3276056,2.224e-05,true,,,0xFF
"I2C","data",7.32763136,2.24e-05,true,,,0xFF
"I2C","data",7.32765696,2.24e-05,true,,,0xFF
"I2C","data",7.32768256,2.24e-05,true,,,0xFF
"I2C","data",7.32770848,2.224e-05,true,,,0xFF
"I2C","data",7.32773408,2.224e-05,true,,,0xFF
"I2C","data",7.32776,2.224e-05,true,,,0xFF
"I2C","data",7.3277856,2.224e-05,true,,,0xFF
"I2C","data",7.3278112,2.224e-05,true,,,0xFF
"I2C","data",7.32783696,2.224e-05,true,,,0xFF
"I2C","data",7.32786256,2.224e-05,true,,,0xFF
"I2C","data",7.32788848,2.224e-05,true,,,0xFF
"I2C","data",7.32791408,2.224e-05,true,,,0xFF
"I2C","data",7.32793968,2.224e-05,true,,,0xFF
"I2C","data",7.32796544,2.24e-05,true,,,0xFF
"I2C","data",7.32799104,2.24e-05,true,,,0xFF
"I2C","data",7.32801696,2.224e-05,true,,,0xFF
"I2C","data",7.32804256,2.224e-05,true,,,0xFF
"I2C","data",7.32806816,2.224e-05,true,,,0xFF
"I2C","data",7.32809392,2.24e-05,true,,,0xFF
"I2C","data",7.32811952,2.24e-05,true,,,0xFF
"I2C","data",7.32814544,2.224e-05,true,,,0xFF
"I2C","data",7.32817104,2.224e-05,true,,,0xFF
"I2C","data",7.32819664,2.224e-05,true,,,0xFF
"I2C","data",7.32822256,2.224e-05,true,,,0xFF
"I2C","data",7.32824816,2.224e-05,true,,,0xFF
"I2C","data",7.32827392,2.224e-05,true,,,0xFF
"I2C","data",7.32829952,2.224e-05,true,,,0xFF
"I2C","data",7.32832512,2.224e-05,true,,,0xFF
"I2C","data",7.32835104,2.224e-05,true,,,0xFF
"I2C","data",7.32837664,2.224e-05,true,,,0xFF
"I2C","data",7.3284024,2.24e-05,true,,,0xFF
"I2C","data",7.32843328,2.224e-05,true,,,0xFF
"I2C","data",7.3284592,2.224e-05,true,,,0xFF
"I2C","data",7.3284848,2.224e-05,true,,,0xFF
"I2C","data",7.32851056,2.224e-05,true,,,0xFF
"I2C","data",7.32853616,2.224e-05,true,,,0xFF
"I2C","data",7.32856176,2.224e-05,true,,,0xFF
"I2C","data",7.32858768,2.224e-05,true,,,0xFF
"I2C","data",7.32861328,2.224e-05,true,,,0xFF
"I2C","data",7.32863904,2.24e-05,true,,,0xFF
"I2C","data",7.32866464,2.24e-05,true,,,0xFF
"I2C","data",7.32869024,2.24e-05,true,,,0xFF
"I2C","data",7.32871616,2.224e-05,true,,,0xFF
"I2C","data",7.32874176,2.224e-05,true,,,0xFF
"I2C","data",7.32876768,2.224e-05,true,,,0xFF
"I2C","data",7.32879328,2.224e-05,true,,,0xFF
"I2C","data",7.32881888,2.224e-05,true,,,0xFF
"I2C","data",7.32884464,2.224e-05,true,,,0xFF
"I2C","data",7.32887024,2.224e-05,true,,,0x01
"I2C","data",7.32889616,2.224e-05,true,,,0x00
"I2C","data",7.32892176,2.224e-05,true,,,0x7C
"I2C","data",7.32894736,2.224e-05,true,,,0x03
"I2C","data",7.32897312,2.224e-05,true,,,0x16
"I2C","data",7.32899872,2.224e-05,true,,,0x14
"I2C","data",7.32902464,2.224e-05,true,,,0xE0
"I2C","data",7.32905024,2.224e-05,true,,,0x4B
"I2C","data",7.32907584,2.224e-05,true,,,0x00
"I2C","data",7.3291016,2.24e-05,true,,,0x00
"I2C","data",7.3291272,2.24e-05,true,,,0x00
"I2C","data",7.32915312,2.224e-05,true,,,0x00
"I2C","data",7.32917872,2.224e-05,true,,,0x00
"I2C","data",7.32920432,2.224e-05,true,,,0x00
"I2C","data",7.32923024,2.224e-05,true,,,0x00
"I2C","data",7.32925584,2.224e-05,true,,,0x00
"I2C","data",7.3292816,2.224e-05,true,,,0x30
"I2C","data",7.3293072,2.224e-05,true,,,0x78
"I2C","data",7.3293328,2.224e-05,true,,,0x31
"I2C","data",7.32935872,2.224e-05,true,,,0x20
"I2C","data",7.32938432,2.224e-05,true,,,0xFA
"I2C","data",7.32941008,2.224e-05,true,,,0xF7
"I2C","data",7.329436,2.224e-05,true,,,0x32
"I2C","data",7.3294616,2.224e-05,true,,,0x00
"I2C","data",7.32948736,2.24e-05,true,,,0x1A
"I2C","data",7.32951296,2.24e-05,true,,,0x00
"I2C","data",7.32953888,2.224e-05,true,,,0x0F
"I2C","data",7.32956448,2.224e-05,true,,,0x06
"I2C","data",7.32959008,2.224e-05,true,,,0x00
"I2C","data",7.32961584,2.24e-05,true,,,0x07
"I2C","data",7.32964144,2.24e-05,true,,,0x01
"I2C","data",7.32966736,2.224e-05,true,,,0x00
"I2C","data",7.32969296,2.224e-05,true,,,0x00
"I2C","data",7.32971856,2.224e-05,true,,,0x00
"I2C","data",7.32974448,2.224e-05,true,,,0x00
"I2C","data",7.32977008,2.224e-05,true,,,0x00
"I2C","data",7.32979584,2.224e-05,true,,,0x00
"I2C","data",7.32982144,2.224e-05,true,,,0x00
"I2C","data",7.32984704,2.224e-05,true,,,0x0F
"I2C","data",7.32987296,2.224e-05,true,,,0x97
"I2C","data",7.32989856,2.224e-05,true,,,0x00
"I2C","data",7.32992432,2.24e-05,true,,,0x04
"I2C","data",7.32994992,2.24e-05,true,,,0x0A
"I2C","data",7.32997552,2.24e-05,true,,,0x01
"I2C","data",7.33000144,2.224e-05,true,,,0x01
"I2C","data",7.33002704,2.224e-05,true,,,0x1F
"I2C","data",7.3300528,2.24e-05,true,,,0x35
"I2C","data",7.3300784,2.24e-05,true,,,0x0F
"I2C","data",7.330104,2.24e-05,true,,,0x95
"I2C","data",7.33012992,2.224e-05,true,,,0x00
"I2C","data",7.33015552,2.224e-05,true,,,0x14
"I2C","data",7.33018144,2.224e-05,true,,,0x10
"I2C","data",7.33020704,2.224e-05,true,,,0x27
"I2C","data",7.33023264,2.224e-05,true,,,0x00
"I2C","data",7.3302584,2.224e-05,true,,,0x00
"I2C","data",7.330284,2.224e-05,true,,,0xA0
"I2C","data",7.33030992,2.224e-05,true,,,0x25
"I2C","data",7.33033552,2.224e-05,true,,,0x26
"I2C","data",7.33036112,2.224e-05,true,,,0x00
"I2C","data",7.33038688,2.24e-05,true,,,0x40
"I2C","data",7.33041248,2.24e-05,true,,,0x9C
"I2C","data",7.3304384,2.224e-05,true,,,0x00
"I2C","data",7.330464,2.224e-05,true,,,0x00
"I2C","data",7.33048976,2.24e-05,true,,,0x00
"I2C","data",7.33051536,2.24e-05,true,,,0x00
"I2C","data",7.33054128,2.224e-05,true,,,0x00
"I2C","data",7.33056736,2.224e-05,true,,,0x00
"I2C","data",7.33059296,2.224e-05,true,,,0x08
"I2C","data",7.33061856,2.224e-05,true,,,0x0B
"I2C","data",7.33064448,2.224e-05,true,,,0x08
"I2C","data",7.33067008,2.224e-05,true,,,0x07
"I2C","data",7.33069584,2.24e-05,true,,,0x00
"I2C","data",7.33072144,2.24e-05,true,,,0x0F
"I2C","data",7.33074704,2.24e-05,true,,,0x16
"I2C","data",7.33077296,2.224e-05,true,,,0x00
"I2C","data",7.33079856,2.224e-05,true,,,0x0A
"I2C","data",7.33082432,2.24e-05,true,,,0x0A
"I2C","data",7.33084992,2.24e-05,true,,,0x38
"I2C","data",7.33087552,2.24e-05,true,,,0x30
"I2C","data",7.33090144,2.224e-05,true,,,0xCD
"I2C","data",7.33092704,2.224e-05,true,,,0x00
"I2C","data",7.33095296,2.224e-05,true,,,0x00
"I2C","data",7.33097856,2.224e-05,true,,,0x00
"I2C","data",7.33100416,2.224e-05,true,,,0x0F
"I2C","data",7.33102992,2.224e-05,true,,,0x00
"I2C","data",7.33105552,2.224e-05,true,,,0x00
"I2C","data",7.33108144,2.224e-05,true,,,0x03
"I2C","data",7.33110704,2.224e-05,true,,,0x0F
"I2C","data",7.33113264,2.224e-05,true,,,0x17
"I2C","data",7.3311584,2.24e-05,true,,,0x00
"I2C","data",7.331184,2.24e-05,true,,,0x0A
"I2C","data",7.33120992,2.224e-05,true,,,0x08
"I2C","data",7.33123552,2.224e-05,true,,,0x04
"I2C","data",7.33126112,2.224e-05,true,,,0x00
"I2C","data",7.33128688,2.24e-05,true,,,0x02
"I2C","data",7.33131248,2.24e-05,true,,,0x00
"I2C","data",7.3313384,2.224e-05,true,,,0x00
"I2C","data",7.331364,2.224e-05,true,,,0x00
"I2C","data",7.3313896,2.224e-05,true,,,0x00
"I2C","data",7.33141552,2.224e-05,true,,,0x00
"I2C","data",7.33144128,2.224e-05,true,,,0x00
"I2C","data",7.3314672,2.224e-05,true,,,0x00
"I2C","data",7.33149328,2.224e-05,true,,,0x0F
"I2C","data",7.33151888,2.224e-05,true,,,0x23
"I2C","data",7.33154448,2.224e-05,true,,,0x00
"I2C","data",7.33157024,2.24e-05,true,,,0x03
"I2C","data",7.33159584,2.24e-05,true,,,0x00
"I2C","data",7.33162176,2.224e-05,true,,,0xE0
"I2C","data",7.33164736,2.224e-05,true,,,0x01
"I2C","data",7.33167296,2.224e-05,true,,,0x00
"I2C","data",7.33169888,2.224e-05,true,,,0x0F
"I2C","data",7.33172448,2.224e-05,true,,,0x27
"I2C","data",7.33175024,2.224e-05,true,,,0x00
"I2C","data",7.33177584,2.224e-05,true,,,0x09
"I2C","data",7.33180144,2.224e-05,true,,,0x01
"I2C","data",7.33182736,2.224e-05,true,,,0x81
"I2C","data",7.33185296,2.224e-05,true,,,0xC1
"I2C","data",7.33187872,2.24e-05,true,,,0x8C
"I2C","data",7.33190432,2.24e-05,true,,,0x19
"I2C","data",7.33192992,2.24e-05,true,,,0x07
"I2C","data",7.33195584,2.224e-05,true,,,0x1A
"I2C","data",7.33198144,2.224e-05,true,,,0x00
"I2C","data",7.3320072,2.24e-05,true,,,0x50
"I2C","data",7.3320328,2.24e-05,true,,,0x51
"I2C","data",7.3320584,2.24e-05,true,,,0x0F
"I2C","data",7.33208432,2.224e-05,true,,,0x28
"I2C","data",7.33210992,2.224e-05,true,,,0x00
"I2C","data",7.33213584,2.224e-05,true,,,0x0F
"I2C","data",7.33216144,2.224e-05,true,,,0x01
"I2C","data",7.33218704,2.224e-05,true,,,0x48
"I2C","data",7.3322128,2.224e-05,true,,,0x23
"I2C","data",7.3322384,2.224e-05,true,,,0x00
"I2C","data",7.33226432,2.224e-05,true,,,0x00
"I2C","data",7.33228992,2.224e-05,true,,,0x00
"I2C","data",7.33231552,2.224e-05,true,,,0x00
"I2C","data",7.33234128,2.24e-05,true,,,0x00
"I2C","data",7.33236688,2.24e-05,true,,,0x00
"I2C","data",7.3323928,2.224e-05,true,,,0x00
"I2C","data",7.3324184,2.224e-05,true,,,0x00
"I2C","data",7.33244416,2.24e-05,true,,,0x00
"I2C","data",7.33247008,2.224e-05,true,,,0x00
"I2C","data",7.33249568,2.224e-05,true,,,0x00
"I2C","data",7.3325216,2.224e-05,true,,,0x00
"I2C","data",7.33254768,2.224e-05,true,,,0x00
"I2C","data",7.33257328,2.224e-05,true,,,0x0F
"I2C","data",7.33259888,2.224e-05,true,,,0x29
"I2C","data",7.33262464,2.224e-05,true,,,0x00
"I2C","data",7.33265024,2.224e-05,true,,,0x03
"I2C","data",7.33267616,2.224e-05,true,,,0x41
"I2C","data",7.33270176,2.224e-05,true,,,0xC0
"I2C","data",7.33272736,2.224e-05,true,,,0xC1
"I2C","data",7.33275312,2.24e-05,true,,,0x1B
"I2C","data",7.33277872,2.24e-05,true,,,0x0F
"I2C","data",7.33280464,2.224e-05,true,,,0x2B
"I2C","data",7.33283024,2.224e-05,true,,,0x00
"I2C","data",7.33285584,2.224e-05,true,,,0x07
"I2C","data",7.33288176,2.224e-05,true,,,0x00
"I2C","data",7.33290736,2.224e-05,true,,,0x03
"I2C","data",7.33293312,2.224e-05,true,,,0x00
"I2C","data",7.33295872,2.224e-05,true,,,0x0C
"I2C","data",7.33298432,2.224e-05,true,,,0x00
"I2C","data",7.33301024,2.224e-05,true,,,0x00
"I2C","data",7.33303584,2.224e-05,true,,,0x00
"I2C","data",7.3330616,2.224e-05,true,,,0x00
"I2C","data",7.3330872,2.224e-05,true,,,0x0F
"I2C","data",7.3331128,2.224e-05,true,,,0x32
"I2C","data",7.33313872,2.224e-05,true,,,0x00
"I2C","data",7.33316432,2.224e-05,true,,,0x3E
"I2C","data",7.33319008,2.24e-05,true,,,0x07
"I2C","data",7.33321568,2.24e-05,true,,,0xA8
"I2C","data",7.33324128,2.24e-05,true,,,0x2A
"I2C","data",7.3332672,2.224e-05,true,,,0x2C
"I2C","data",7.3332928,2.224e-05,true,,,0x91
"I2C","data",7.33331872,2.224e-05,true,,,0x01
"I2C","data",7.33334432,2.224e-05,true,,,0x26
"I2C","data",7.33336992,2.224e-05,true,,,0x2C
"I2C","data",7.33339568,2.224e-05,true,,,0xD1
"I2C","data",7.33342128,2.224e-05,true,,,0x02
"I2C","data",7.33344736,2.224e-05,true,,,0x00
"I2C","data",7.33347296,2.224e-05,true,,,0x2C
"I2C","data",7.33349856,2.224e-05,true,,,0xB1
"I2C","data",7.33352448,2.224e-05,true,,,0x04
"I2C","data",7.33355008,2.224e-05,true,,,0x00
"I2C","data",7.33357584,2.24e-05,true,,,0x2C
"I2C","data",7.33360144,2.24e-05,true,,,0x41
"I2C","data",7.33362704,2.24e-05,true,,,0x06
"I2C","data",7.33365296,2.224e-05,true,,,0x00
"I2C","data",7.33367856,2.224e-05,true,,,0x3C
"I2C","data",7.33370448,2.224e-05,true,,,0x32
"I2C","data",7.33373008,2.224e-05,true,,,0xDC
"I2C","data",7.33375568,2.224e-05,true,,,0xC0
"I2C","data",7.33378144,2.224e-05,true,,,0x3C
"I2C","data",7.33380704,2.224e-05,true,,,0x32
"I2C","data",7.33383296,2.224e-05,true,,,0x40
"I2C","data",7.33385856,2.224e-05,true,,,0xC1
"I2C","data",7.33388416,2.224e-05,true,,,0x3C
"I2C","data",7.33390992,2.224e-05,true,,,0x32
"I2C","data",7.33393552,2.224e-05,true,,,0xA4
"I2C","data",7.33396144,2.224e-05,true,,,0xC1
"I2C","data",7.33398704,2.224e-05,true,,,0x00
"I2C","data",7.33401264,2.224e-05,true,,,0x00
"I2C","data",7.3340384,2.24e-05,true,,,0x00
"I2C","data",7.334064,2.24e-05,true,,,0x00
"I2C","data",7.33408992,2.224e-05,true,,,0x00
"I2C","data",7.33411552,2.224e-05,true,,,0x00
"I2C","data",7.33414112,2.224e-05,true,,,0x00
"I2C","data",7.33416704,2.224e-05,true,,,0x00
"I2C","data",7.33419248,2.24e-05,true,,,0x00
"I2C","data",7.3342184,2.224e-05,true,,,0x00
"I2C","data",7.334244,2.224e-05,true,,,0x00
"I2C","data",7.3342696,2.224e-05,true,,,0x00
"I2C","data",7.33429552,2.224e-05,true,,,0x00
"I2C","data",7.33432112,2.224e-05,true,,,0x00
"I2C","data",7.33434688,2.224e-05,true,,,0x00
"I2C","data",7.33437248,2.224e-05,true,,,0x00
"I2C","data",7.33439808,2.224e-05,true,,,0x00
"I2C","data",7.334424,2.224e-05,true,,,0x00
"I2C","data",7.33444976,2.24e-05,true,,,0x00
"I2C","data",7.33447568,2.224e-05,true,,,0x00
"I2C","data",7.33450128,2.224e-05,true,,,0x00
"I2C","data",7.33452688,2.224e-05,true,,,0x00
"I2C","data",7.33455264,2.24e-05,true,,,0x00
"I2C","data",7.33457824,2.24e-05,true,,,0x00
"I2C","data",7.33460416,2.224e-05,true,,,0xAA
"I2C","data",7.33462976,2.224e-05,true,,,0x0A
"I2C","data",7.33465536,2.224e-05,true,,,0x00
"I2C","data",7.33468128,2.224e-05,true,,,0x00
"I2C","data",7.33470688,2.224e-05,true,,,0x00
"I2C","data",7.33473264,2.224e-05,true,,,0x00
"I2C","data",7.33475824,2.224e-05,true,,,0x00
"I2C","data",7.33478384,2.224e-05,true,,,0x00
"I2C","data",7.33480976,2.224e-05,true,,,0x0F
"I2C","data",7.33483536,2.224e-05,true,,,0x33
"I2C","data",7.33486112,2.24e-05,true,,,0x00
"I2C","data",7.33488672,2.24e-05,true,,,0x34
"I2C","data",7.33491232,2.24e-05,true,,,0x00
"I2C","data",7.33493824,2.224e-05,true,,,0x2C
"I2C","data",7.33496384,2.224e-05,true,,,0x91
"I2C","data",7.3349896,2.24e-05,true,,,0x01
"I2C","data",7.3350152,2.24e-05,true,,,0x10
"I2C","data",7.3350408,2.24e-05,true,,,0x2C
"I2C","data",7.33506672,2.224e-05,true,,,0xD1
"I2C","data",7.33509232,2.224e-05,true,,,0x02
"I2C","data",7.33511824,2.224e-05,true,,,0x00
"I2C","data",7.33514384,2.224e-05,true,,,0x2C
"I2C","data",7.33516944,2.224e-05,true,,,0xB1
"I2C","data",7.3351952,2.224e-05,true,,,0x04
"I2C","data",7.3352208,2.224e-05,true,,,0x00
"I2C","data",7.33524672,2.224e-05,true,,,0x2C
"I2C","data",7.33527232,2.224e-05,true,,,0x41
"I2C","data",7.33529792,2.224e-05,true,,,0x06
"I2C","data",7.33532368,2.24e-05,true,,,0x00
"I2C","data",7.33534928,2.24e-05,true,,,0x45
"I2C","data",7.3353752,2.224e-05,true,,,0x41
"I2C","data",7.3354008,2.224e-05,true,,,0x06
"I2C","data",7.33543472,2.224e-05,true,,,0x00
"I2C","data",7.33546016,2.24e-05,true,,,0x00
"I2C","data",7.33548608,2.224e-05,true,,,0x00
"I2C","data",7.33551168,2.224e-05,true,,,0x00
"I2C","data",7.3355376,2.224e-05,true,,,0x00
"I2C","data",7.33556368,2.224e-05,true,,,0x00
"I2C","data",7.33558928,2.224e-05,true,,,0x00
"I2C","data",7.33561488,2.224e-05,true,,,0x00
"I2C","data",7.33564064,2.24e-05,true,,,0x00
"I2C","data",7.33566624,2.24e-05,true,,,0x00
"I2C","data",7.33569216,2.224e-05,true,,,0x00
"I2C","data",7.33571776,2.224e-05,true,,,0x00
"I2C","data",7.33574336,2.224e-05,true,,,0x00
"I2C","data",7.33576912,2.24e-05,true,,,0x00
"I2C","data",7.33579472,2.24e-05,true,,,0x00
"I2C","data",7.33582064,2.224e-05,true,,,0x00
"I2C","data",7.33584624,2.224e-05,true,,,0x00
"I2C","data",7.33587184,2.224e-05,true,,,0x00
"I2C","data",7.33589776,2.224e-05,true,,,0x00
"I2C","data",7.33592336,2.224e-05,true,,,0x00
"I2C","data",7.33594912,2.224e-05,true,,,0x00
"I2C","data",7.33597472,2.224e-05,true,,,0x00
"I2C","data",7.33600032,2.224e-05,true,,,0x00
"I2C","data",7.33602624,2.224e-05,true,,,0x00
"I2C","data",7.33605184,2.224e-05,true,,,0x00
"I2C","data",7.3360776,2.24e-05,true,,,0x00
"I2C","data",7.3361032,2.24e-05,true,,,0x00
"I2C","data",7.3361288,2.24e-05,true,,,0x00
"I2C","data",7.33615472,2.224e-05,true,,,0x00
"I2C","data",7.33618032,2.224e-05,true,,,0x00
"I2C","data",7.33620608,2.24e-05,true,,,0x00
"I2C","data",7.33623168,2.24e-05,true,,,0x00
"I2C","data",7.33625728,2.24e-05,true,,,0x00
"I2C","data",7.3362832,2.224e-05,true,,,0x0F
"I2C","data",7.3363088,2.224e-05,true,,,0x37
"I2C","data",7.33633472,2.224e-05,true,,,0x00
"I2C","data",7.33636032,2.224e-05,true,,,0x17
"I2C","data",7.33638592,2.224e-05,true,,,0x3E
"I2C","data",7.33641168,2.224e-05,true,,,0x50
"I2C","data",7.3364376,2.224e-05,true,,,0x14
"I2C","data",7.33646336,2.24e-05,true,,,0x41
"I2C","data",7.33648896,2.24e-05,true,,,0x90
"I2C","data",7.33651456,2.24e-05,true,,,0x91
"I2C","data",7.33654048,2.224e-05,true,,,0x01
"I2C","data",7.33656608,2.224e-05,true,,,0x00
"I2C","data",7.33659184,2.24e-05,true,,,0x00
"I2C","data",7.33661744,2.24e-05,true,,,0x00
"I2C","data",7.33664304,2.24e-05,true,,,0x00
"I2C","data",7.33666896,2.224e-05,true,,,0x00
"I2C","data",7.33669456,2.224e-05,true,,,0x00
"I2C","data",7.33672048,2.224e-05,true,,,0x00
"I2C","data",7.33674608,2.224e-05,true,,,0x00
"I2C","data",7.33677168,2.224e-05,true,,,0x00
"I2C","data",7.33679744,2.224e-05,true,,,0x00
"I2C","data",7.33682304,2.224e-05,true,,,0x00
"I2C","data",7.33684896,2.224e-05,true,,,0x00
"I2C","data",7.33687456,2.224e-05,true,,,0x00
"I2C","data",7.33690016,2.224e-05,true,,,0x00
"I2C","data",7.33692592,2.24e-05,true,,,0x00
"I2C","data",7.33695152,2.24e-05,true,,,0x00
"I2C","data",7.33697744,2.224e-05,true,,,0x00
"I2C","data",7.33700304,2.224e-05,true,,,0x0F
"I2C","data",7.33702864,2.224e-05,true,,,0x42
"I2C","data",7.3370544,2.24e-05,true,,,0x00
"I2C","data",7.33708,2.24e-05,true,,,0x02
"I2C","data",7.33710592,2.224e-05,true,,,0x1A
"I2C","data",7.33713152,2.224e-05,true,,,0x2D
"I2C","data",7.33715712,2.224e-05,true,,,0x00
"I2C","data",7.33718304,2.224e-05,true,,,0x0F
"I2C","data",7.33720864,2.224e-05,true,,,0x43
"I2C","data",7.3372344,2.224e-05,true,,,0x00
"I2C","data",7.33726,2.224e-05,true,,,0x1B
"I2C","data",7.3372856,2.224e-05,true,,,0x19
"I2C","data",7.33731152,2.224e-05,true,,,0x19
"I2C","data",7.33733712,2.224e-05,true,,,0x19
"I2C","data",7.33736288,2.24e-05,true,,,0x19
"I2C","data",7.33738848,2.24e-05,true,,,0x19
"I2C","data",7.33741408,2.24e-05,true,,,0x19
"I2C","data",7.33743968,2.24e-05,true,,,0x32
"I2C","data",7.3374656,2.224e-05,true,,,0x19
"I2C","data",7.3374912,2.224e-05,true,,,0x22
"I2C","data",7.3375168,2.224e-05,true,,,0x02
"I2C","data",7.33754256,2.24e-05,true,,,0x00
"I2C","data",7.33756816,2.24e-05,true,,,0x19
"I2C","data",7.33759408,2.224e-05,true,,,0x0A
"I2C","data",7.33761968,2.224e-05,true,,,0x00
"I2C","data",7.33764528,2.224e-05,true,,,0x00
"I2C","data",7.3376712,2.224e-05,true,,,0x00
"I2C","data",7.3376968,2.224e-05,true,,,0x00
"I2C","data",7.33772256,2.224e-05,true,,,0x00
"I2C","data",7.33774816,2.224e-05,true,,,0x00
"I2C","data",7.33777376,2.224e-05,true,,,0x00
"I2C","data",7.33779968,2.224e-05,true,,,0x00
"I2C","data",7.33782528,2.224e-05,true,,,0x00
"I2C","data",7.33785104,2.24e-05,true,,,0x00
"I2C","data",7.33787664,2.24e-05,true,,,0x00
"I2C","data",7.33790224,2.24e-05,true,,,0x00
"I2C","data",7.33792816,2.224e-05,true,,,0x00
"I2C","data",7.33795376,2.224e-05,true,,,0x00
"I2C","data",7.33797952,2.24e-05,true,,,0x00
"I2C","data",7.33800512,2.24e-05,true,,,0x0F
"I2C","data",7.33803072,2.24e-05,true,,,0x47
"I2C","data",7.33805664,2.224e-05,true,,,0x00
"I2C","data",7.33808224,2.224e-05,true,,,0x30
"I2C","data",7.33810816,2.224e-05,true,,,0x03
"I2C","data",7.33813376,2.224e-05,true,,,0x51
"I2C","data",7.33815936,2.224e-05,true,,,0x04
"I2C","data",7.33818512,2.224e-05,true,,,0x40
"I2C","data",7.33821072,2.224e-05,true,,,0x95
"I2C","data",7.33823664,2.224e-05,true,,,0x51
"I2C","data",7.33826224,2.224e-05,true,,,0x04
"I2C","data",7.33828784,2.224e-05,true,,,0x00
"I2C","data",7.3383136,2.24e-05,true,,,0x00
"I2C","data",7.3383392,2.24e-05,true,,,0x05
"I2C","data",7.33836512,2.224e-05,true,,,0x09
"I2C","data",7.33839072,2.224e-05,true,,,0x00
"I2C","data",7.33841632,2.224e-05,true,,,0x00
"I2C","data",7.33844192,2.224e-05,true,,,0x1B
"I2C","data",7.33846768,2.24e-05,true,,,0x00
"I2C","data",7.33849392,2.224e-05,true,,,0x00
"I2C","data",7.33851952,2.224e-05,true,,,0x68
"I2C","data",7.33854512,2.224e-05,true,,,0x00
"I2C","data",7.33857088,2.224e-05,true,,,0x00
"I2C","data",7.33859648,2.224e-05,true,,,0x00
"I2C","data",7.3386224,2.224e-05,true,,,0x00
"I2C","data",7.338648,2.224e-05,true,,,0x00
"I2C","data",7.3386736,2.224e-05,true,,,0x00
"I2C","data",7.33869936,2.224e-05,true,,,0x00
"I2C","data",7.33872496,2.24e-05,true,,,0x47
"I2C","data",7.33875088,2.224e-05,true,,,0x00
"I2C","data",7.33877648,2.224e-05,true,,,0x00
"I2C","data",7.33880208,2.224e-05,true,,,0x00
"I2C","data",7.33882784,2.24e-05,true,,,0x00
"I2C","data",7.33885344,2.24e-05,true,,,0x00
"I2C","data",7.33887936,2.224e-05,true,,,0x00
"I2C","data",7.33890496,2.224e-05,true,,,0x00
"I2C","data",7.33893056,2.224e-05,true,,,0x00
"I2C","data",7.33895648,2.224e-05,true,,,0x00
"I2C","data",7.33898208,2.224e-05,true,,,0x00
"I2C","data",7.33900784,2.224e-05,true,,,0x00
"I2C","data",7.33903344,2.224e-05,true,,,0x00
"I2C","data",7.33905904,2.224e-05,true,,,0x00
"I2C","data",7.33908496,2.224e-05,true,,,0x00
"I2C","data",7.33911056,2.224e-05,true,,,0x00
"I2C","data",7.33913632,2.224e-05,true,,,0x00
"I2C","data",7.33916192,2.224e-05,true,,,0x00
"I2C","data",7.33918752,2.224e-05,true,,,0x00
"I2C","data",7.33921344,2.224e-05,true,,,0x00
"I2C","data",7.33923904,2.224e-05,true,,,0x00
"I2C","data",7.3392648,2.24e-05,true,,,0x00
"I2C","data",7.3392904,2.24e-05,true,,,0x00
"I2C","data",7.339316,2.24e-05,true,,,0x00
"I2C","data",7.33934192,2.224e-05,true,,,0x00
"I2C","data",7.33936752,2.224e-05,true,,,0x0F
"I2C","data",7.33939344,2.224e-05,true,,,0x4A
"I2C","data",7.33941904,2.224e-05,true,,,0x00
"I2C","data",7.3394448,2.224e-05,true,,,0x3E
"I2C","data",7.33947072,2.224e-05,true,,,0x00
"I2C","data",7.33949632,2.224e-05,true,,,0x00
"I2C","data",7.33952208,2.224e-05,true,,,0x51
"I2C","data",7.33954768,2.224e-05,true,,,0x04
"I2C","data",7.33957328,2.224e-05,true,,,0x00
"I2C","data",7.3395992,2.224e-05,true,,,0x00
"I2C","data",7.3396248,2.224e-05,true,,,0x00
"I2C","data",7.33965056,2.24e-05,true,,,0x00
"I2C","data",7.33967616,2.24e-05,true,,,0x01
"I2C","data",7.33970176,2.24e-05,true,,,0x01
"I2C","data",7.33972768,2.224e-05,true,,,0x01
"I2C","data",7.33975328,2.224e-05,true,,,0x01
"I2C","data",7.3397792,2.224e-05,true,,,0x00
"I2C","data",7.3398048,2.224e-05,true,,,0x00
"I2C","data",7.3398304,2.224e-05,true,,,0x00
"I2C","data",7.33985616,2.224e-05,true,,,0x00
"I2C","data",7.33988176,2.224e-05,true,,,0x00
"I2C","data",7.33990768,2.224e-05,true,,,0x00
"I2C","data",7.33993328,2.224e-05,true,,,0x00
"I2C","data",7.33995888,2.224e-05,true,,,0x00
"I2C","data",7.33998464,2.224e-05,true,,,0x01
"I2C","data",7.34001024,2.224e-05,true,,,0x00
"I2C","data",7.34003616,2.224e-05,true,,,0x00
"I2C","data",7.34006176,2.224e-05,true,,,0x00
"I2C","data",7.34008736,2.224e-05,true,,,0x00
"I2C","data",7.34011312,2.24e-05,true,,,0x00
"I2C","data",7.34013872,2.24e-05,true,,,0x00
"I2C","data",7.34016464,2.224e-05,true,,,0x00
"I2C","data",7.34019024,2.224e-05,true,,,0x00
"I2C","data",7.34021584,2.224e-05,true,,,0x00
"I2C","data",7.3402416,2.24e-05,true,,,0x00
"I2C","data",7.34026736,2.224e-05,true,,,0x00
"I2C","data",7.34029312,2.224e-05,true,,,0x00
"I2C","data",7.34031872,2.224e-05,true,,,0x00
"I2C","data",7.34034432,2.224e-05,true,,,0x00
"I2C","data",7.34037024,2.224e-05,true,,,0x00
"I2C","data",7.34039584,2.224e-05,true,,,0x00
"I2C","data",7.3404216,2.224e-05,true,,,0x00
"I2C","data",7.3404472,2.224e-05,true,,,0x00
"I2C","data",7.34047312,2.224e-05,true,,,0x00
"I2C","data",7.34049872,2.224e-05,true,,,0x00
"I2C","data",7.34052432,2.224e-05,true,,,0x00
"I2C","data",7.34055008,2.24e-05,true,,,0x00
"I2C","data",7.34057568,2.24e-05,true,,,0x00
"I2C","data",7.3406016,2.224e-05,true,,,0x00
"I2C","data",7.3406272,2.224e-05,true,,,0x00
"I2C","data",7.3406528,2.224e-05,true,,,0x00
"I2C","data",7.34067856,2.24e-05,true,,,0x00
"I2C","data",7.34070416,2.24e-05,true,,,0x00
"I2C","data",7.34073008,2.224e-05,true,,,0x00
"I2C","data",7.34075568,2.224e-05,true,,,0x00
"I2C","data",7.34078128,2.224e-05,true,,,0x00
"I2C","data",7.3408072,2.224e-05,true,,,0x00
"I2C","data",7.3408328,2.224e-05,true,,,0x00
"I2C","data",7.34085856,2.224e-05,true,,,0x00
"I2C","data",7.34088416,2.224e-05,true,,,0x00
"I2C","data",7.34090976,2.224e-05,true,,,0x00
"I2C","data",7.34093568,2.224e-05,true,,,0x00
"I2C","data",7.34096128,2.224e-05,true,,,0x00
"I2C","data",7.34098704,2.24e-05,true,,,0x00
"I2C","data",7.34101264,2.24e-05,true,,,0x00
"I2C","data",7.34103824,2.24e-05,true,,,0x00
"I2C","data",7.34106416,2.224e-05,true,,,0x00
"I2C","data",7.34108976,2.224e-05,true,,,0x0F
"I2C","data",7.34111552,2.24e-05,true,,,0x51
"I2C","data",7.34114112,2.24e-05,true,,,0x00
"I2C","data",7.34116672,2.24e-05,true,,,0x05
"I2C","data",7.34119264,2.224e-05,true,,,0x00
"I2C","data",7.34121824,2.224e-05,true,,,0x06
"I2C","data",7.34124416,2.224e-05,true,,,0x1C
"I2C","data",7.34126976,2.224e-05,true,,,0x00
"I2C","data",7.34129536,2.224e-05,true,,,0x00
"I2C","data",7.34132112,2.224e-05,true,,,0x01
"I2C","data",7.34134672,2.224e-05,true,,,0x0F
"I2C","data",7.34137264,2.224e-05,true,,,0x52
"I2C","data",7.34139824,2.224e-05,true,,,0x00
"I2C","data",7.34142384,2.224e-05,true,,,0x06
"I2C","data",7.34144944,2.224e-05,true,,,0x00
"I2C","data",7.3414752,2.24e-05,true,,,0x80
"I2C","data",7.34150128,2.24e-05,true,,,0x00
"I2C","data",7.34152688,2.24e-05,true,,,0x00
"I2C","data",7.34155248,2.24e-05,true,,,0x00
"I2C","data",7.3415784,2.224e-05,true,,,0x00
"I2C","data",7.341604,2.224e-05,true,,,0x02
"I2C","data",7.34162992,2.224e-05,true,,,0x0F
"I2C","data",7.34165552,2.224e-05,true,,,0x56
"I2C","data",7.34168112,2.224e-05,true,,,0x00
"I2C","data",7.34170688,2.224e-05,true,,,0x01
"I2C","data",7.34173248,2.224e-05,true,,,0x3F
"I2C","data",7.3417584,2.224e-05,true,,,0x80
"I2C","data",7.341784,2.224e-05,true,,,0x0F
"I2C","data",7.3418096,2.224e-05,true,,,0x5C
"I2C","data",7.34183536,2.24e-05,true,,,0x00
"I2C","data",7.34186096,2.24e-05,true,,,0x30
"I2C","data",7.34188688,2.224e-05,true,,,0xFF
"I2C","data",7.34191248,2.224e-05,true,,,0x0C
"I2C","data",7.34193808,2.224e-05,true,,,0x00
"I2C","data",7.34196384,2.24e-05,true,,,0x00
"I2C","data",7.34198944,2.24e-05,true,,,0x00
"I2C","data",7.34201536,2.224e-05,true,,,0x00
"I2C","data",7.34204096,2.224e-05,true,,,0x00
"I2C","data",7.34206656,2.224e-05,true,,,0x00
"I2C","data",7.34209248,2.224e-05,true,,,0x00
"I2C","data",7.34211808,2.224e-05,true,,,0x10
"I2C","data",7.34214384,2.224e-05,true,,,0x00
"I2C","data",7.34216944,2.224e-05,true,,,0x00
"I2C","data",7.34219504,2.224e-05,true,,,0x00
"I2C","data",7.34222096,2.224e-05,true,,,0x0C
"I2C","data",7.34224656,2.224e-05,true,,,0x00
"I2C","data",7.34227232,2.24e-05,true,,,0x00
"I2C","data",7.34229792,2.24e-05,true,,,0x30
"I2C","data",7.34232352,2.24e-05,true,,,0x0C
"I2C","data",7.34234944,2.224e-05,true,,,0x00
"I2C","data",7.34237504,2.224e-05,true,,,0x00
"I2C","data",7.3424008,2.24e-05,true,,,0x00
"I2C","data",7.34243168,2.24e-05,true,,,0x00
"I2C","data",7.3424576,2.224e-05,true,,,0x00
"I2C","data",7.3424832,2.224e-05,true,,,0x00
"I2C","data",7.34250896,2.24e-05,true,,,0x00
"I2C","data",7.3425352,2.224e-05,true,,,0x0C
"I2C","data",7.3425608,2.224e-05,true,,,0x00
"I2C","data",7.3425864,2.224e-05,true,,,0x00
"I2C","data",7.34261216,2.224e-05,true,,,0x00
"I2C","data",7.34263776,2.224e-05,true,,,0x00
"I2C","data",7.34266368,2.224e-05,true,,,0x00
"I2C","data",7.34268928,2.224e-05,true,,,0x00
"I2C","data",7.34271488,2.224e-05,true,,,0x00
"I2C","data",7.34274064,2.224e-05,true,,,0x00
"I2C","data",7.34276624,2.24e-05,true,,,0x00
"I2C","data",7.34279216,2.224e-05,true,,,0x00
"I2C","data",7.34281776,2.224e-05,true,,,0x00
"I2C","data",7.34284336,2.224e-05,true,,,0x49
"I2C","data",7.34286912,2.24e-05,true,,,0x0B
"I2C","data",7.34289472,2.24e-05,true,,,0x0C
"I2C","data",7.34292064,2.224e-05,true,,,0x00
"I2C","data",7.34294624,2.224e-05,true,,,0x00
"I2C","data",7.34297184,2.224e-05,true,,,0x15
"I2C","data",7.34299776,2.224e-05,true,,,0x03
"I2C","data",7.34302336,2.224e-05,true,,,0x00
"I2C","data",7.34304912,2.224e-05,true,,,0x00
"I2C","data",7.34307472,2.224e-05,true,,,0x00
"I2C","data",7.34310032,2.224e-05,true,,,0x00
"I2C","data",7.34312624,2.224e-05,true,,,0x00
"I2C","data",7.34315184,2.224e-05,true,,,0x0F
"I2C","data",7.3431776,2.224e-05,true,,,0x62
"I2C","data",7.3432032,2.224e-05,true,,,0x00
"I2C","data",7.3432288,2.224e-05,true,,,0x07
"I2C","data",7.34325472,2.224e-05,true,,,0x00
"I2C","data",7.34328032,2.224e-05,true,,,0x00
"I2C","data",7.34330608,2.24e-05,true,,,0x00
"I2C","data",7.34333168,2.24e-05,true,,,0x00
"I2C","data",7.34335728,2.24e-05,true,,,0x01
"I2C","data",7.3433832,2.224e-05,true,,,0x1C
"I2C","data",7.3434088,2.224e-05,true,,,0x00
"I2C","data",7.34343488,2.224e-05,true,,,0x00
"I2C","data",7.34346048,2.224e-05,true,,,0x0F
"I2C","data",7.34348608,2.224e-05,true,,,0x64
"I2C","data",7.343512,2.224e-05,true,,,0x00
"I2C","data",7.3435376,2.224e-05,true,,,0x0B
"I2C","data",7.34356336,2.224e-05,true,,,0x6B
"I2C","data",7.34358896,2.224e-05,true,,,0x00
"I2C","data",7.34361456,2.224e-05,true,,,0x00
"I2C","data",7.34364048,2.224e-05,true,,,0x00
"I2C","data",7.34366608,2.224e-05,true,,,0x00
"I2C","data",7.34369184,2.24e-05,true,,,0x00
"I2C","data",7.34371744,2.24e-05,true,,,0x00
"I2C","data",7.34374304,2.24e-05,true,,,0x00
"I2C","data",7.34376896,2.224e-05,true,,,0x00
"I2C","data",7.34379456,2.224e-05,true,,,0x00
"I2C","data",7.34382048,2.224e-05,true,,,0x00
"I2C","data",7.34384608,2.224e-05,true,,,0x6B
"I2C","data",7.34387168,2.224e-05,true,,,0x0F
"I2C","data",7.34389744,2.224e-05,true,,,0x70
"I2C","data",7.34392304,2.224e-05,true,,,0x00
"I2C","data",7.34394896,2.224e-05,true,,,0x00
"I2C","data",7.34397456,2.224e-05,true,,,0x01
"I2C","data",7.34400016,2.224e-05,true,,,0x0F
"I2C","data",7.34402592,2.224e-05,true,,,0x77
"I2C","data",7.34405152,2.224e-05,true,,,0x00
"I2C","data",7.34407744,2.224e-05,true,,,0x0E
"I2C","data",7.34410304,2.224e-05,true,,,0x00
"I2C","data",7.34412864,2.224e-05,true,,,0x00
"I2C","data",7.3441544,2.24e-05,true,,,0x00
"I2C","data",7.34418,2.24e-05,true,,,0x00
"I2C","data",7.34420592,2.224e-05,true,,,0x00
"I2C","data",7.34423152,2.224e-05,true,,,0x00
"I2C","data",7.34425712,2.224e-05,true,,,0x00
"I2C","data",7.34428304,2.224e-05,true,,,0x00
"I2C","data",7.34430864,2.224e-05,true,,,0x00
"I2C","data",7.3443344,2.224e-05,true,,,0x00
"I2C","data",7.34436,2.224e-05,true,,,0x00
"I2C","data",7.3443856,2.224e-05,true,,,0x00
"I2C","data",7.34441152,2.224e-05,true,,,0x00
"I2C","data",7.34443728,2.224e-05,true,,,0x3F
"I2C","data",7.3444632,2.224e-05,true,,,0x00
"I2C","data",7.3444888,2.224e-05,true,,,0x0F
"I2C","data",7.3445144,2.224e-05,true,,,0x7B
"I2C","data",7.34454016,2.24e-05,true,,,0x00
"I2C","data",7.34456576,2.24e-05,true,,,0x0F
"I2C","data",7.34459168,2.224e-05,true,,,0x00
"I2C","data",7.34461728,2.224e-05,true,,,0x02
"I2C","data",7.34464288,2.224e-05,true,,,0xFF
"I2C","data",7.34466864,2.24e-05,true,,,0xFF
"I2C","data",7.34469424,2.24e-05,true,,,0x00
"I2C","data",7.34472016,2.224e-05,true,,,0x00
"I2C","data",7.34474576,2.224e-05,true,,,0x00
"I2C","data",7.34477136,2.224e-05,true,,,0x00
"I2C","data",7.34479728,2.224e-05,true,,,0x00
"I2C","data",7.34482288,2.224e-05,true,,,0x00
"I2C","data",7.34484864,2.224e-05,true,,,0x00
"I2C","data",7.34487424,2.224e-05,true,,,0x00
"I2C","data",7.34489984,2.224e-05,true,,,0x00
"I2C","data",7.34492576,2.224e-05,true,,,0x00
"I2C","data",7.34495136,2.224e-05,true,,,0x00
"I2C","data",7.34497712,2.24e-05,true,,,0x00
"I2C","data",7.34500272,2.24e-05,true,,,0x0F
"I2C","data",7.34502832,2.24e-05,true,,,0x7E
"I2C","data",7.34505424,2.224e-05,true,,,0x00
"I2C","data",7.34507984,2.224e-05,true,,,0x0D
"I2C","data",7.3451056,2.24e-05,true,,,0x01
"I2C","data",7.3451312,2.24e-05,true,,,0x00
"I2C","data",7.3451568,2.24e-05,true,,,0x00
"I2C","data",7.34518272,2.224e-05,true,,,0x00
"I2C","data",7.34520832,2.224e-05,true,,,0x01
"I2C","data",7.34523424,2.224e-05,true,,,0x01
"I2C","data",7.34525984,2.224e-05,true,,,0x01
"I2C","data",7.34528544,2.224e-05,true,,,0x0B
"I2C","data",7.3453112,2.224e-05,true,,,0x07
"I2C","data",7.3453368,2.224e-05,true,,,0x2D
"I2C","data",7.34536272,2.224e-05,true,,,0x41
"I2C","data",7.34538832,2.224e-05,true,,,0x41
"I2C","data",7.34541392,2.224e-05,true,,,0x41
"I2C","data",7.34543968,2.24e-05,true,,,0x41
"I2C","data",7.34546528,2.24e-05,true,,,0x64
"I2C","data",7.3454912,2.224e-05,true,,,0x00
"I2C","data",7.3455168,2.224e-05,true,,,0x64
"I2C","data",7.34554256,2.24e-05,true,,,0x00
"I2C","data",7.3455688,2.224e-05,true,,,0x69
"I2C","data",7.3455944,2.224e-05,true,,,0x00
"I2C","data",7.34562,2.224e-05,true,,,0x6E
"I2C","data",7.34564576,2.224e-05,true,,,0x00
"I2C","data",7.34567136,2.224e-05,true,,,0x73
"I2C","data",7.34569728,2.224e-05,true,,,0x00
"I2C","data",7.34572288,2.224e-05,true,,,0x78
"I2C","data",7.34574848,2.224e-05,true,,,0x00
"I2C","data",7.34577424,2.24e-05,true,,,0x7D
"I2C","data",7.34579984,2.24e-05,true,,,0x00
"I2C","data",7.34582576,2.224e-05,true,,,0x82
"I2C","data",7.34585136,2.224e-05,true,,,0x00
"I2C","data",7.34587696,2.224e-05,true,,,0x88
"I2C","data",7.34590272,2.24e-05,true,,,0x00
"I2C","data",7.34592832,2.24e-05,true,,,0x8E
"I2C","data",7.34595424,2.224e-05,true,,,0x00
"I2C","data",7.34597984,2.224e-05,true,,,0x93
"I2C","data",7.34600544,2.224e-05,true,,,0x00
"I2C","data",7.34603136,2.224e-05,true,,,0x98
"I2C","data",7.34605696,2.224e-05,true,,,0x00
"I2C","data",7.34608272,2.224e-05,true,,,0x9D
"I2C","data",7.34610832,2.224e-05,true,,,0x00
"I2C","data",7.34613392,2.224e-05,true,,,0xA2
"I2C","data",7.34615984,2.224e-05,true,,,0x00
"I2C","data",7.34618544,2.224e-05,true,,,0xA7
"I2C","data",7.3462112,2.24e-05,true,,,0x00
"I2C","data",7.3462368,2.24e-05,true,,,0xAC
"I2C","data",7.3462624,2.24e-05,true,,,0x00
"I2C","data",7.34628832,2.224e-05,true,,,0xB2
"I2C","data",7.34631392,2.224e-05,true,,,0x00
"I2C","data",7.34633968,2.24e-05,true,,,0xB8
"I2C","data",7.34636528,2.24e-05,true,,,0x00
"I2C","data",7.34639088,2.24e-05,true,,,0xBD
"I2C","data",7.3464168,2.224e-05,true,,,0x00
"I2C","data",7.34644272,2.224e-05,true,,,0xC2
"I2C","data",7.34646848,2.224e-05,true,,,0x00
"I2C","data",7.34649408,2.224e-05,true,,,0xC7
"I2C","data",7.34651968,2.224e-05,true,,,0x00
"I2C","data",7.3465456,2.224e-05,true,,,0xCC
"I2C","data",7.3465712,2.224e-05,true,,,0x00
"I2C","data",7.34659696,2.24e-05,true,,,0xD1
"I2C","data",7.34662256,2.24e-05,true,,,0x00
"I2C","data",7.34664816,2.24e-05,true,,,0xD6
"I2C","data",7.34667408,2.224e-05,true,,,0x00
"I2C","data",7.34669968,2.224e-05,true,,,0xDC
"I2C","data",7.34672544,2.24e-05,true,,,0x00
"I2C","data",7.34675104,2.24e-05,true,,,0xE2
"I2C","data",7.34677664,2.24e-05,true,,,0x00
"I2C","data",7.34680256,2.224e-05,true,,,0xE7
"I2C","data",7.34682816,2.224e-05,true,,,0x00
"I2C","data",7.34685408,2.224e-05,true,,,0xED
"I2C","data",7.34687968,2.224e-05,true,,,0x00
"I2C","data",7.34690528,2.224e-05,true,,,0xF2
"I2C","data",7.34693104,2.224e-05,true,,,0x00
"I2C","data",7.34695664,2.224e-05,true,,,0xF7
"I2C","data",7.34698256,2.224e-05,true,,,0x00
"I2C","data",7.34700816,2.224e-05,true,,,0xF7
"I2C","data",7.34703376,2.224e-05,true,,,0x00
"I2C","data",7.34705952,2.24e-05,true,,,0xF7
"I2C","data",7.34708512,2.24e-05,true,,,0x00
"I2C","data",7.34711104,2.224e-05,true,,,0xF7
"I2C","data",7.34713664,2.224e-05,true,,,0x00
"I2C","data",7.34716224,2.224e-05,true,,,0xF7
"I2C","data",7.347188,2.24e-05,true,,,0x00
"I2C","data",7.3472136,2.24e-05,true,,,0xF7
"I2C","data",7.34723952,2.224e-05,true,,,0x00
"I2C","data",7.34726512,2.224e-05,true,,,0xF7
"I2C","data",7.34729072,2.224e-05,true,,,0x00
"I2C","data",7.34731664,2.224e-05,true,,,0xF7
"I2C","data",7.34734224,2.224e-05,true,,,0x00
"I2C","data",7.347368,2.224e-05,true,,,0xF7
"I2C","data",7.3473936,2.224e-05,true,,,0x00
"I2C","data",7.3474192,2.224e-05,true,,,0xF7
"I2C","data",7.3474448,2.224e-05,true,,,0x00
"I2C","data",7.34747072,2.224e-05,true,,,0xF7
"I2C","data",7.3474968,2.224e-05,true,,,0x00
"I2C","data",7.3475224,2.224e-05,true,,,0xF7
"I2C","data",7.347548,2.224e-05,true,,,0x00
"I2C","data",7.34757376,2.24e-05,true,,,0xF7
"I2C","data",7.34759936,2.24e-05,true,,,0x00
"I2C","data",7.34762528,2.224e-05,true,,,0xF7
"I2C","data",7.34765088,2.224e-05,true,,,0x00
"I2C","data",7.34767648,2.224e-05,true,,,0xF7
"I2C","data",7.3477024,2.224e-05,true,,,0x00
"I2C","data",7.347728,2.224e-05,true,,,0xF7
"I2C","data",7.34775376,2.224e-05,true,,,0x00
"I2C","data",7.34777936,2.224e-05,true,,,0xF7
"I2C","data",7.34780496,2.224e-05,true,,,0x00
"I2C","data",7.34783088,2.224e-05,true,,,0xF7
"I2C","data",7.34785648,2.224e-05,true,,,0x00
"I2C","data",7.34788224,2.24e-05,true,,,0xF7
"I2C","data",7.34790784,2.24e-05,true,,,0x00
"I2C","data",7.34793344,2.24e-05,true,,,0xF7
"I2C","data",7.34795936,2.224e-05,true,,,0x00
"I2C","data",7.34798496,2.224e-05,true,,,0xF7
"I2C","data",7.34801072,2.24e-05,true,,,0x00
"I2C","data",7.34803632,2.24e-05,true,,,0x23
"I2C","data",7.34806192,2.24e-05,true,,,0x02
"I2C","data",7.34808784,2.224e-05,true,,,0x00
"I2C","data",7.34811344,2.224e-05,true,,,0x10
"I2C","data",7.34813936,2.224e-05,true,,,0x00
"I2C","data",7.34816496,2.224e-05,true,,,0x23
"I2C","data",7.34819056,2.224e-05,true,,,0x02
"I2C","data",7.34821632,2.224e-05,true,,,0x00
"I2C","data",7.34824192,2.224e-05,true,,,0x14
"I2C","data",7.34826784,2.224e-05,true,,,0x1C
"I2C","data",7.34829344,2.224e-05,true,,,0x23
"I2C","data",7.34831904,2.224e-05,true,,,0x02
"I2C","data",7.3483448,2.24e-05,true,,,0x00
"I2C","data",7.3483704,2.24e-05,true,,,0x11
"I2C","data",7.34839632,2.224e-05,true,,,0x00
"I2C","data",7.34842192,2.224e-05,true,,,0x23
"I2C","data",7.34844768,2.24e-05,true,,,0x02
"I2C","data",7.3484736,2.224e-05,true,,,0x00
"I2C","data",7.3484992,2.224e-05,true,,,0x12
"I2C","data",7.34852512,2.224e-05,true,,,0xC0
"I2C","data",7.3485512,2.224e-05,true,,,0x23
"I2C","data",7.3485768,2.224e-05,true,,,0x02
"I2C","data",7.3486024,2.224e-05,true,,,0x00
"I2C","data",7.34862816,2.224e-05,true,,,0x08
"I2C","data",7.34865376,2.224e-05,true,,,0x05
"I2C","data",7.34867968,2.224e-05,true,,,0x23
"I2C","data",7.34870528,2.224e-05,true,,,0x02
"I2C","data",7.34873088,2.224e-05,true,,,0x00
"I2C","data",7.34875664,2.24e-05,true,,,0x09
"I2C","data",7.34878224,2.24e-05,true,,,0x01
"I2C","data",7.34880816,2.224e-05,true,,,0x23
"I2C","data",7.34883376,2.224e-05,true,,,0x03
"I2C","data",7.34885936,2.224e-05,true,,,0x00
"I2C","data",7.34888528,2.224e-05,true,,,0x01
"I2C","data",7.34891088,2.224e-05,true,,,0x04
"I2C","data",7.34893664,2.224e-05,true,,,0xEC
"I2C","data",7.34896224,2.224e-05,true,,,0x23
"I2C","data",7.34898784,2.224e-05,true,,,0x03
"I2C","data",7.34901376,2.224e-05,true,,,0x00
"I2C","data",7.34903936,2.224e-05,true,,,0x03
"I2C","data",7.34906512,2.224e-05,true,,,0x00
"I2C","data",7.34909072,2.224e-05,true,,,0x64
"I2C","data",7.34911632,2.224e-05,true,,,0x25
"I2C","data",7.34914224,2.224e-05,true,,,0x02
"I2C","data",7.34916784,2.224e-05,true,,,0x00
"I2C","data",7.3491936,2.24e-05,true,,,0x10
"I2C","data",7.3492192,2.24e-05,true,,,0x00
"I2C","data",7.3492448,2.24e-05,true,,,0x25
"I2C","data",7.34927072,2.224e-05,true,,,0x02
"I2C","data",7.34929632,2.224e-05,true,,,0x00
"I2C","data",7.34932224,2.224e-05,true,,,0x14
"I2C","data",7.34934784,2.224e-05,true,,,0x1C
"I2C","data",7.34937344,2.224e-05,true,,,0x25
"I2C","data",7.3493992,2.224e-05,true,,,0x02
"I2C","data",7.3494248,2.224e-05,true,,,0x00
"I2C","data",7.34945088,2.224e-05,true,,,0x11
"I2C","data",7.34947696,2.24e-05,true,,,0x00
"I2C","data",7.34950256,2.24e-05,true,,,0x25
"I2C","data",7.34952816,2.24e-05,true,,,0x02
"I2C","data",7.34955408,2.224e-05,true,,,0x00
"I2C","data",7.34957968,2.224e-05,true,,,0x12
"I2C","data",7.34960544,2.24e-05,true,,,0xC0
"I2C","data",7.34963104,2.24e-05,true,,,0x25
"I2C","data",7.34965664,2.24e-05,true,,,0x02
"I2C","data",7.34968256,2.224e-05,true,,,0x00
"I2C","data",7.34970816,2.224e-05,true,,,0x08
"I2C","data",7.34973408,2.224e-05,true,,,0x05
"I2C","data",7.34975968,2.224e-05,true,,,0x25
"I2C","data",7.34978528,2.224e-05,true,,,0x02
"I2C","data",7.34981104,2.224e-05,true,,,0x00
"I2C","data",7.34983664,2.224e-05,true,,,0x09
"I2C","data",7.34986256,2.224e-05,true,,,0x01
"I2C","data",7.34988816,2.224e-05,true,,,0x25
"I2C","data",7.34991376,2.224e-05,true,,,0x03
"I2C","data",7.34993952,2.24e-05,true,,,0x00
"I2C","data",7.34996512,2.24e-05,true,,,0x01
"I2C","data",7.34999104,2.224e-05,true,,,0x04
"I2C","data",7.35001664,2.224e-05,true,,,0xEC
"I2C","data",7.35004224,2.224e-05,true,,,0x25
"I2C","data",7.350068,2.24e-05,true,,,0x03
"I2C","data",7.3500936,2.24e-05,true,,,0x00
"I2C","data",7.35011952,2.224e-05,true,,,0x03
"I2C","data",7.35014512,2.224e-05,true,,,0x00
"I2C","data",7.35017072,2.224e-05,true,,,0x64
"I2C","data",7.35019664,2.224e-05,true,,,0x24
"I2C","data",7.35022224,2.224e-05,true,,,0x02
"I2C","data",7.350248,2.224e-05,true,,,0x00
"I2C","data",7.3502736,2.224e-05,true,,,0x10
"I2C","data",7.3502992,2.224e-05,true,,,0x00
"I2C","data",7.35032512,2.224e-05,true,,,0x24
"I2C","data",7.35035072,2.224e-05,true,,,0x02
"I2C","data",7.35037648,2.24e-05,true,,,0x00
"I2C","data",7.35040208,2.24e-05,true,,,0x14
"I2C","data",7.350436,2.224e-05,true,,,0x1C
"I2C","data",7.3504616,2.224e-05,true,,,0x24
"I2C","data",7.35048736,2.24e-05,true,,,0x02
"I2C","data",7.35051296,2.24e-05,true,,,0x00
"I2C","data",7.35053856,2.24e-05,true,,,0x11
"I2C","data",7.35056448,2.224e-05,true,,,0x00
"I2C","data",7.35059008,2.224e-05,true,,,0x24
"I2C","data",7.350616,2.224e-05,true,,,0x02
"I2C","data",7.3506416,2.224e-05,true,,,0x00
"I2C","data",7.3506672,2.224e-05,true,,,0x12
"I2C","data",7.35069296,2.224e-05,true,,,0xC0
"I2C","data",7.35071856,2.224e-05,true,,,0x24
"I2C","data",7.35074448,2.224e-05,true,,,0x02
"I2C","data",7.35077008,2.224e-05,true,,,0x00
"I2C","data",7.35079568,2.224e-05,true,,,0x08
"I2C","data",7.35082144,2.24e-05,true,,,0x05
"I2C","data",7.35084704,2.24e-05,true,,,0x24
"I2C","data",7.35087296,2.224e-05,true,,,0x02
"I2C","data",7.35089856,2.224e-05,true,,,0x00
"I2C","data",7.35092416,2.224e-05,true,,,0x09
"I2C","data",7.35094992,2.24e-05,true,,,0x01
"I2C","data",7.35097552,2.24e-05,true,,,0x24
"I2C","data",7.35100144,2.224e-05,true,,,0x03
"I2C","data",7.35102704,2.224e-05,true,,,0x00
"I2C","data",7.35105264,2.224e-05,true,,,0x01
"I2C","data",7.35107856,2.224e-05,true,,,0x04
"I2C","data",7.35110416,2.224e-05,true,,,0xEC
"I2C","data",7.35112992,2.224e-05,true,,,0x24
"I2C","data",7.35115552,2.224e-05,true,,,0x03
"I2C","data",7.35118112,2.224e-05,true,,,0x00
"I2C","data",7.35120704,2.224e-05,true,,,0x03
"I2C","data",7.35123264,2.224e-05,true,,,0x00
"I2C","data",7.3512584,2.24e-05,true,,,0x64
"I2C","data",7.351284,2.24e-05,true,,,0x7E
"I2C","data",7.3513096,2.24e-05,true,,,0x02
"I2C","data",7.35133552,2.224e-05,true,,,0x00
"I2C","data",7.35136112,2.224e-05,true,,,0x14
"I2C","data",7.35138688,2.24e-05,true,,,0x1C
"I2C","data",7.35141248,2.24e-05,true,,,0x7F
"I2C","data",7.3514384,2.224e-05,true,,,0x03
"I2C","data",7.35146432,2.224e-05,true,,,0x00
"I2C","data",7.35148992,2.224e-05,true,,,0x0B
"I2C","data",7.35151568,2.224e-05,true,,,0x00
"I2C","data",7.35154128,2.224e-05,true,,,0x00
"I2C","data",7.35156688,2.224e-05,true,,,0x82
"I2C","data",7.3515928,2.224e-05,true,,,0x02
"I2C","data",7.3516184,2.224e-05,true,,,0x00
"I2C","data",7.35164416,2.24e-05,true,,,0x0D
"I2C","data",7.35166976,2.24e-05,true,,,0x00
"I2C","data",7.35169536,2.24e-05,true,,,0x83
"I2C","data",7.35172128,2.224e-05,true,,,0x02
"I2C","data",7.35174688,2.224e-05,true,,,0x00
"I2C","data",7.35177264,2.24e-05,true,,,0x12
"I2C","data",7.35179824,2.24e-05,true,,,0xC0
"I2C","data",7.35182384,2.24e-05,true,,,0x00
"I2C","data",7.35184976,2.224e-05,true,,,0x00
"I2C","data",7.35187536,2.224e-05,true,,,0x00
"I2C","data",7.35190128,2.224e-05,true,,,0x00
"I2C","data",7.35192688,2.224e-05,true,,,0x00
"I2C","data",7.35195248,2.224e-05,true,,,0x00
"I2C","data",7.35197824,2.224e-05,true,,,0x00
"I2C","data",7.35200384,2.224e-05,true,,,0x00
"I2C","data",7.35202976,2.224e-05,true,,,0x00
"I2C","data",7.35205536,2.224e-05,true,,,0x00
"I2C","data",7.35208096,2.224e-05,true,,,0x00
"I2C","data",7.35210672,2.24e-05,true,,,0x00
"I2C","data",7.35213232,2.24e-05,true,,,0x00
"I2C","data",7.35215824,2.224e-05,true,,,0x00
"I2C","data",7.35218384,2.224e-05,true,,,0x00
"I2C","data",7.35220944,2.224e-05,true,,,0x00
"I2C","data",7.3522352,2.24e-05,true,,,0x00
"I2C","data",7.3522608,2.24e-05,true,,,0x00
"I2C","data",7.35228672,2.224e-05,true,,,0x00
"I2C","data",7.35231232,2.224e-05,true,,,0x00
"I2C","data",7.35233792,2.224e-05,true,,,0x00
"I2C","data",7.35236384,2.224e-05,true,,,0x00
"I2C","data",7.35238944,2.224e-05,true,,,0x00
"I2C","data",7.3524152,2.224e-05,true,,,0x00
"I2C","data",7.35244112,2.224e-05,true,,,0x00
"I2C","data",7.35246672,2.224e-05,true,,,0x00
"I2C","data",7.35249248,2.24e-05,true,,,0x00
"I2C","data",7.35251808,2.24e-05,true,,,0x00
"I2C","data",7.352544,2.224e-05,true,,,0x00
"I2C","data",7.3525696,2.224e-05,true,,,0x00
"I2C","data",7.3525952,2.224e-05,true,,,0x00
"I2C","data",7.35262096,2.24e-05,true,,,0x00
"I2C","data",7.35264656,2.24e-05,true,,,0x00
"I2C","data",7.35267248,2.224e-05,true,,,0x00
"I2C","data",7.35269808,2.224e-05,true,,,0x00
"I2C","data",7.35272368,2.224e-05,true,,,0x00
"I2C","data",7.3527496,2.224e-05,true,,,0x00
"I2C","data",7.3527752,2.224e-05,true,,,0x00
"I2C","data",7.35280096,2.224e-05,true,,,0x00
"I2C","data",7.35282656,2.224e-05,true,,,0x00
"I2C","data",7.35285216,2.224e-05,true,,,0x00
"I2C","data",7.35287808,2.224e-05,true,,,0x00
"I2C","data",7.35290368,2.224e-05,true,,,0x00
"I2C","data",7.35292944,2.24e-05,true,,,0x00
"I2C","data",7.35295504,2.24e-05,true,,,0x00
"I2C","data",7.35298064,2.24e-05,true,,,0x00
"I2C","data",7.35300656,2.224e-05,true,,,0x00
"I2C","data",7.35303216,2.224e-05,true,,,0x00
"I2C","data",7.35305792,2.24e-05,true,,,0x00
"I2C","data",7.35308352,2.24e-05,true,,,0x00
"I2C","data",7.35310912,2.24e-05,true,,,0x00
"I2C","data",7.35313504,2.224e-05,true,,,0x00
"I2C","data",7.35316064,2.224e-05,true,,,0x00
"I2C","data",7.35318656,2.224e-05,true,,,0x00
"I2C","data",7.35321216,2.224e-05,true,,,0x00
"I2C","data",7.35323776,2.224e-05,true,,,0x00
"I2C","data",7.35326352,2.224e-05,true,,,0x00
"I2C","data",7.35328912,2.224e-05,true,,,0x00
"I2C","data",7.35331504,2.224e-05,true,,,0x00
"I2C","data",7.35334064,2.224e-05,true,,,0x00
"I2C","data",7.35336624,2.224e-05,true,,,0x00
"I2C","data",7.353392,2.24e-05,true,,,0x00
"I2C","data",7.3534176,2.24e-05,true,,,0x00
"I2C","data",7.35344368,2.24e-05,true,,,0x00
"I2C","data",7.35346928,2.24e-05,true,,,0x00
"I2C","data",7.35349488,2.24e-05,true,,,0x00
"I2C","data",7.3535208,2.224e-05,true,,,0x00
"I2C","data",7.3535464,2.224e-05,true,,,0x00
"I2C","data",7.35357232,2.224e-05,true,,,0x00
"I2C","data",7.35359792,2.224e-05,true,,,0x00
"I2C","data",7.35362352,2.224e-05,true,,,0x00
"I2C","data",7.35364928,2.224e-05,true,,,0x00
"I2C","data",7.35367488,2.224e-05,true,,,0x00
"I2C","data",7.3537008,2.224e-05,true,,,0x00
"I2C","data",7.3537264,2.224e-05,true,,,0x00
"I2C","data",7.353752,2.224e-05,true,,,0x00
"I2C","data",7.35377776,2.224e-05,true,,,0x00
"I2C","data",7.35380336,2.224e-05,true,,,0x00
"I2C","data",7.35382928,2.224e-05,true,,,0x00
"I2C","data",7.35385488,2.224e-05,true,,,0x00
"I2C","data",7.35388048,2.224e-05,true,,,0x00
"I2C","data",7.35390624,2.24e-05,true,,,0x00
"I2C","data",7.35393184,2.24e-05,true,,,0x00
"I2C","data",7.35395776,2.224e-05,true,,,0x00
"I2C","data",7.35398336,2.224e-05,true,,,0x00
"I2C","data",7.35400896,2.224e-05,true,,,0x00
"I2C","data",7.35403488,2.224e-05,true,,,0x00
"I2C","data",7.35406048,2.224e-05,true,,,0x00
"I2C","data",7.35408624,2.224e-05,true,,,0x00
"I2C","data",7.35411184,2.224e-05,true,,,0x00
"I2C","data",7.35413744,2.224e-05,true,,,0x00
"I2C","data",7.35416336,2.224e-05,true,,,0x00
"I2C","data",7.35418896,2.224e-05,true,,,0x00
"I2C","data",7.35421472,2.224e-05,true,,,0x00
"I2C","data",7.35424032,2.224e-05,true,,,0x00
"I2C","data",7.35426592,2.224e-05,true,,,0x00
"I2C","data",7.35429184,2.224e-05,true,,,0x00
"I2C","data",7.35431744,2.224e-05,true,,,0x00
"I2C","data",7.3543432,2.24e-05,true,,,0x00
"I2C","data",7.3543688,2.24e-05,true,,,0x00
"I2C","data",7.3543944,2.24e-05,true,,,0x00
"I2C","data",7.35442032,2.224e-05,true,,,0x00
"I2C","data",7.35444624,2.224e-05,true,,,0x00
"I2C","data",7.354472,2.224e-05,true,,,0x00
"I2C","data",7.3544976,2.224e-05,true,,,0x00
"I2C","data",7.3545232,2.224e-05,true,,,0x00
"I2C","data",7.35454912,2.224e-05,true,,,0x00
"I2C","data",7.35457472,2.224e-05,true,,,0x00
"I2C","data",7.35460048,2.224e-05,true,,,0x00
"I2C","data",7.35462608,2.224e-05,true,,,0x00
"I2C","data",7.35465168,2.224e-05,true,,,0x00
"I2C","data",7.3546776,2.224e-05,true,,,0x00
"I2C","data",7.3547032,2.224e-05,true,,,0x00
"I2C","data",7.35472896,2.24e-05,true,,,0x00
"I2C","data",7.35475456,2.24e-05,true,,,0x00
"I2C","data",7.35478016,2.24e-05,true,,,0x00
"I2C","data",7.35480608,2.224e-05,true,,,0x00
"I2C","data",7.35483168,2.224e-05,true,,,0x00
"I2C","data",7.3548576,2.224e-05,true,,,0x00
"I2C","data",7.3548832,2.224e-05,true,,,0x00
"I2C","data",7.3549088,2.224e-05,true,,,0x00
"I2C","data",7.35493456,2.224e-05,true,,,0x00
"I2C","data",7.35496016,2.224e-05,true,,,0x00
"I2C","data",7.35498608,2.224e-05,true,,,0x00
"I2C","data",7.35501168,2.224e-05,true,,,0x00
"I2C","data",7.35503728,2.224e-05,true,,,0x00
"I2C","data",7.35506304,2.224e-05,true,,,0x00
"I2C","data",7.35508864,2.224e-05,true,,,0x00
"I2C","data",7.35511456,2.224e-05,true,,,0x00
"I2C","data",7.35514016,2.224e-05,true,,,0x00
"I2C","data",7.35516576,2.224e-05,true,,,0x00
"I2C","data",7.35519152,2.24e-05,true,,,0x00
"I2C","data",7.35521712,2.24e-05,true,,,0xCA
"I2C","data",7.35524304,2.224e-05,true,,,0x20
"I2C","data",7.35526864,2.224e-05,true,,,0x08
"I2C","data",7.35529424,2.224e-05,true,,,0x00
"I2C","data",7.35532,2.24e-05,true,,,0x3C
"I2C","data",7.3553456,2.24e-05,true,,,0x00
"I2C","data",7.35537152,2.224e-05,true,,,0x00
"I2C","data",7.35539712,2.224e-05,true,,,0x00
"I2C","data",7.35542272,2.224e-05,true,,,0x4C
"I2C","data",7.35544864,2.224e-05,true,,,0x4C
"I2C","data",7.35547424,2.224e-05,true,,,0x04
"I2C","data",7.3555,2.224e-05,true,,,0x20
"I2C","data",7.3555256,2.224e-05,true,,,0x44
"I2C","data",7.35555152,2.224e-05,true,,,0x4C
"I2C","data",7.35557712,2.224e-05,true,,,0x04
"I2C","data",7.35560272,2.224e-05,true,,,0x20
"I2C","data",7.35562848,2.24e-05,true,,,0x4C
"I2C","data",7.35565408,2.24e-05,true,,,0x4C
"I2C","data",7.35568,2.224e-05,true,,,0x04
"I2C","data",7.3557056,2.224e-05,true,,,0x20
"I2C","data",7.3557312,2.224e-05,true,,,0x79
"I2C","data",7.35575696,2.24e-05,true,,,0x2B
"I2C","data",7.35578256,2.24e-05,true,,,0x04
"I2C","data",7.35580848,2.224e-05,true,,,0x20
"I2C","data",7.35583408,2.224e-05,true,,,0x05
"I2C","data",7.35585968,2.224e-05,true,,,0xB1
"I2C","data",7.3558856,2.224e-05,true,,,0x01
"I2C","data",7.3559112,2.224e-05,true,,,0x00
"I2C","data",7.35593696,2.224e-05,true,,,0x00
"I2C","data",7.35596256,2.224e-05,true,,,0x11
"I2C","data",7.35598816,2.224e-05,true,,,0x09
"I2C","data",7.35601408,2.224e-05,true,,,0xF8
"I2C","data",7.35603968,2.224e-05,true,,,0xED
"I2C","data",7.35606544,2.24e-05,true,,,0xFB
"I2C","data",7.35609104,2.24e-05,true,,,0xE5
"I2C","data",7.35611664,2.24e-05,true,,,0xA0
"I2C","data",7.35614256,2.224e-05,true,,,0xAD
"I2C","data",7.35616816,2.224e-05,true,,,0x06
"I2C","data",7.35619392,2.24e-05,true,,,0x34
"I2C","data",7.35621952,2.24e-05,true,,,0x02
"I2C","data",7.35624512,2.24e-05,true,,,0x00
"I2C","data",7.35627104,2.224e-05,true,,,0x00
"I2C","data",7.35629664,2.224e-05,true,,,0x00
"I2C","data",7.35632256,2.224e-05,true,,,0x00
"I2C","data",7.35634816,2.224e-05,true,,,0xC0
"I2C","data",7.35637376,2.224e-05,true,,,0x21
"I2C","data",7.35639952,2.224e-05,true,,,0x04
"I2C","data",7.35643072,2.224e-05,true,,,0x20
"I2C","data",7.35645632,2.224e-05,true,,,0x00
"I2C","data",7.35648192,2.224e-05,true,,,0x00
"I2C","data",7.35650768,2.224e-05,true,,,0x00
"I2C","data",7.35653328,2.224e-05,true,,,0x00
"I2C","data",7.3565592,2.224e-05,true,,,0x00
"I2C","data",7.3565848,2.224e-05,true,,,0x00
"I2C","data",7.3566104,2.224e-05,true,,,0x00
"I2C","data",7.35663616,2.24e-05,true,,,0x00
"I2C","data",7.35666176,2.24e-05,true,,,0x00
"I2C","data",7.35668768,2.224e-05,true,,,0x00
"I2C","data",7.35671328,2.224e-05,true,,,0x00
"I2C","data",7.35673888,2.224e-05,true,,,0x00
"I2C","data",7.35676464,2.24e-05,true,,,0x62
"I2C","data",7.35679024,2.24e-05,true,,,0xB0
"I2C","data",7.35681616,2.224e-05,true,,,0x07
"I2C","data",7.35684176,2.224e-05,true,,,0x91
"I2C","data",7.35686736,2.224e-05,true,,,0xF8
"I2C","data",7.35689328,2.224e-05,true,,,0xB5
"I2C","data",7.35691888,2.224e-05,true,,,0x53
"I2C","data",7.35694464,2.224e-05,true,,,0x4C
"I2C","data",7.35697024,2.224e-05,true,,,0x53
"I2C","data",7.35699584,2.224e-05,true,,,0x4B
"I2C","data",7.35702176,2.224e-05,true,,,0x00
"I2C","data",7.35704736,2.224e-05,true,,,0x20
"I2C","data",7.35707312,2.24e-05,true,,,0xD9
"I2C","data",7.35709872,2.24e-05,true,,,0x79
"I2C","data",7.35712432,2.24e-05,true,,,0x3C
"I2C","data",7.35715024,2.224e-05,true,,,0x25
"I2C","data",7.35717584,2.224e-05,true,,,0x8A
"I2C","data",7.3572016,2.24e-05,true,,,0x06
"I2C","data",7.3572272,2.24e-05,true,,,0xD2
"I2C","data",7.3572528,2.24e-05,true,,,0x0F
"I2C","data",7.35727872,2.224e-05,true,,,0x45
"I2C","data",7.35730432,2.224e-05,true,,,0x43
"I2C","data",7.35733024,2.224e-05,true,,,0x62
"I2C","data",7.35735584,2.224e-05,true,,,0x55
"I2C","data",7.35738144,2.224e-05,true,,,0x00
"I2C","data",7.3574072,2.224e-05,true,,,0x2A
"I2C","data",7.35743312,2.224e-05,true,,,0x06
"I2C","data",7.35745888,2.24e-05,true,,,0xD0
"I2C","data",7.35748448,2.24e-05,true,,,0xCA
"I2C","data",7.3575104,2.224e-05,true,,,0x06
"I2C","data",7.35753648,2.224e-05,true,,,0x49
"I2C","data",7.35756208,2.224e-05,true,,,0x06
"I2C","data",7.35758768,2.224e-05,true,,,0xD2
"I2C","data",7.3576136,2.224e-05,true,,,0x0E
"I2C","data",7.3576392,2.224e-05,true,,,0x89
"I2C","data",7.35766496,2.224e-05,true,,,0x0F
"I2C","data",7.35769056,2.224e-05,true,,,0x49
"I2C","data",7.35771616,2.224e-05,true,,,0x01
"I2C","data",7.35774208,2.224e-05,true,,,0x0A
"I2C","data",7.35776768,2.224e-05,true,,,0x43
"I2C","data",7.35779344,2.224e-05,true,,,0xDA
"I2C","data",7.35781904,2.224e-05,true,,,0x71
"I2C","data",7.35784464,2.224e-05,true,,,0x40
"I2C","data",7.35787056,2.224e-05,true,,,0x1C
"I2C","data",7.35789616,2.224e-05,true,,,0x00
"I2C","data",7.35792192,2.24e-05,true,,,0x06
"I2C","data",7.35794752,2.24e-05,true,,,0x00
"I2C","data",7.35797312,2.24e-05,true,,,0x0E
"I2C","data",7.35799904,2.224e-05,true,,,0xEC
"I2C","data",7.35802464,2.224e-05,true,,,0xD0
"I2C","data",7.35805056,2.224e-05,true,,,0x4B
"I2C","data",7.35807616,2.224e-05,true,,,0x48
"I2C","data",7.35810176,2.224e-05,true,,,0x49
"I2C","data",7.35812752,2.224e-05,true,,,0x49
"I2C","data",7.35815312,2.224e-05,true,,,0xC1
"I2C","data",7.35817904,2.224e-05,true,,,0x61
"I2C","data",7.35820464,2.224e-05,true,,,0x4B
"I2C","data",7.35823024,2.224e-05,true,,,0x49
"I2C","data",7.358256,2.224e-05,true,,,0x4A
"I2C","data",7.3582816,2.224e-05,true,,,0x48
"I2C","data",7.35830752,2.224e-05,true,,,0x08
"I2C","data",7.35833312,2.224e-05,true,,,0x60
"I2C","data",7.35835872,2.224e-05,true,,,0x4C
"I2C","data",7.35838448,2.24e-05,true,,,0x4A
"I2C","data",7.35841008,2.24e-05,true,,,0x4A
"I2C","data",7.35843632,2.224e-05,true,,,0x48
"I2C","data",7.35846192,2.224e-05,true,,,0x50
"I2C","data",7.35848752,2.224e-05,true,,,0x63
"I2C","data",7.35851328,2.224e-05,true,,,0x4C
"I2C","data",7.35853888,2.224e-05,true,,,0x49
"I2C","data",7.3585648,2.224e-05,true,,,0x4B
"I2C","data",7.3585904,2.224e-05,true,,,0x48
"I2C","data",7.358616,2.224e-05,true,,,0x88
"I2C","data",7.35864176,2.224e-05,true,,,0x61
"I2C","data",7.35866736,2.224e-05,true,,,0x4D
"I2C","data",7.35869328,2.224e-05,true,,,0x49
"I2C","data",7.35871888,2.224e-05,true,,,0x4B
"I2C","data",7.35874448,2.224e-05,true,,,0x48
"I2C","data",7.35877024,2.24e-05,true,,,0x48
"I2C","data",7.35879584,2.24e-05,true,,,0x63
"I2C","data",7.35882176,2.224e-05,true,,,0x4D
"I2C","data",7.35884736,2.224e-05,true,,,0x48
"I2C","data",7.35887296,2.224e-05,true,,,0x4C
"I2C","data",7.35889888,2.224e-05,true,,,0x4B
"I2C","data",7.35892448,2.224e-05,true,,,0x43
"I2C","data",7.35895024,2.224e-05,true,,,0x61
"I2C","data",7.35897584,2.224e-05,true,,,0x4D
"I2C","data",7.35900144,2.224e-05,true,,,0x4B
"I2C","data",7.35902736,2.224e-05,true,,,0xC3
"I2C","data",7.35905296,2.224e-05,true,,,0x61
"I2C","data",7.35907872,2.224e-05,true,,,0x4D
"I2C","data",7.35910432,2.224e-05,true,,,0x4B
"I2C","data",7.35912992,2.224e-05,true,,,0x8B
"I2C","data",7.35915584,2.224e-05,true,,,0x62
"I2C","data",7.35918144,2.224e-05,true,,,0x4E
"I2C","data",7.3592072,2.24e-05,true,,,0x4D
"I2C","data",7.3592328,2.24e-05,true,,,0x4C
"I2C","data",7.3592584,2.24e-05,true,,,0x4B
"I2C","data",7.35928432,2.224e-05,true,,,0xEB
"I2C","data",7.35930992,2.224e-05,true,,,0x63
"I2C","data",7.35933568,2.24e-05,true,,,0x0D
"I2C","data",7.35936128,2.24e-05,true,,,0x46
"I2C","data",7.35938688,2.24e-05,true,,,0x4D
"I2C","data",7.3594128,2.224e-05,true,,,0x4B
"I2C","data",7.35943872,2.224e-05,true,,,0xC0
"I2C","data",7.35946448,2.224e-05,true,,,0x3D
"I2C","data",7.35949008,2.224e-05,true,,,0x6B
"I2C","data",7.35951568,2.224e-05,true,,,0x63
"I2C","data",7.3595416,2.224e-05,true,,,0x4D
"I2C","data",7.3595672,2.224e-05,true,,,0x4D
"I2C","data",7.35959296,2.24e-05,true,,,0x4C
"I2C","data",7.35961856,2.24e-05,true,,,0x4B
"I2C","data",7.35964416,2.24e-05,true,,,0xEB
"I2C","data",7.35967008,2.224e-05,true,,,0x67
"I2C","data",7.35969568,2.224e-05,true,,,0x4D
"I2C","data",7.35972144,2.24e-05,true,,,0x4B
"I2C","data",7.35974704,2.24e-05,true,,,0x2B
"I2C","data",7.35977264,2.24e-05,true,,,0x67
"I2C","data",7.35979856,2.224e-05,true,,,0x4E
"I2C","data",7.35982416,2.224e-05,true,,,0x4D
"I2C","data",7.35985008,2.224e-05,true,,,0x4C
"I2C","data",7.35987568,2.224e-05,true,,,0x4B
"I2C","data",7.35990128,2.224e-05,true,,,0xAB
"I2C","data",7.35992704,2.224e-05,true,,,0x63
"I2C","data",7.35995264,2.224e-05,true,,,0x4E
"I2C","data",7.35997856,2.224e-05,true,,,0x4B
"I2C","data",7.36000416,2.224e-05,true,,,0x4D
"I2C","data",7.36002976,2.224e-05,true,,,0x4D
"I2C","data",7.36005552,2.24e-05,true,,,0x1D
"I2C","data",7.36008112,2.24e-05,true,,,0x63
"I2C","data",7.36010704,2.224e-05,true,,,0x4E
"I2C","data",7.36013264,2.224e-05,true,,,0x4D
"I2C","data",7.36015824,2.224e-05,true,,,0x05
"I2C","data",7.360184,2.24e-05,true,,,0x61
"I2C","data",7.3602096,2.24e-05,true,,,0x10
"I2C","data",7.36023552,2.224e-05,true,,,0x46
"I2C","data",7.36026112,2.224e-05,true,,,0x4D
"I2C","data",7.36028672,2.224e-05,true,,,0x4D
"I2C","data",7.36031264,2.224e-05,true,,,0xC0
"I2C","data",7.36033824,2.224e-05,true,,,0x38
"I2C","data",7.360364,2.224e-05,true,,,0x3E
"I2C","data",7.3603896,2.224e-05,true,,,0x4E
"I2C","data",7.3604152,2.224e-05,true,,,0xC5
"I2C","data",7.36044112,2.224e-05,true,,,0x62
"I2C","data",7.36046672,2.224e-05,true,,,0x4C
"I2C","data",7.36049248,2.24e-05,true,,,0x4D
"I2C","data",7.36051808,2.24e-05,true,,,0x80
"I2C","data",7.360544,2.224e-05,true,,,0x36
"I2C","data",7.3605696,2.224e-05,true,,,0x35
"I2C","data",7.3605952,2.224e-05,true,,,0x63
"I2C","data",7.36062096,2.24e-05,true,,,0x4C
"I2C","data",7.36064656,2.24e-05,true,,,0x4D
"I2C","data",7.36067248,2.224e-05,true,,,0xC5
"I2C","data",7.36069808,2.224e-05,true,,,0x63
"I2C","data",7.36072368,2.224e-05,true,,,0x1D
"I2C","data",7.3607496,2.224e-05,true,,,0x46
"I2C","data",7.3607752,2.224e-05,true,,,0x4B
"I2C","data",7.36080096,2.224e-05,true,,,0x48
"I2C","data",7.36082656,2.224e-05,true,,,0xC0
"I2C","data",7.36085216,2.224e-05,true,,,0x3D
"I2C","data",7.36087808,2.224e-05,true,,,0x28
"I2C","data",7.36090368,2.224e-05,true,,,0x62
"I2C","data",7.36092944,2.24e-05,true,,,0x4B
"I2C","data",7.36095504,2.24e-05,true,,,0x48
"I2C","data",7.36098064,2.24e-05,true,,,0x98
"I2C","data",7.36100656,2.224e-05,true,,,0x62
"I2C","data",7.36103216,2.224e-05,true,,,0x4B
"I2C","data",7.36105792,2.24e-05,true,,,0x48
"I2C","data",7.36108352,2.24e-05,true,,,0x90
"I2C","data",7.36110912,2.24e-05,true,,,0x62
"I2C","data",7.36113504,2.224e-05,true,,,0x32
"I2C","data",7.36116064,2.224e-05,true,,,0x46
"I2C","data",7.36118656,2.224e-05,true,,,0x4A
"I2C","data",7.36121216,2.224e-05,true,,,0x48
"I2C","data",7.36123776,2.224e-05,true,,,0xC0
"I2C","data",7.36126352,2.224e-05,true,,,0x3A
"I2C","data",7.36128912,2.224e-05,true,,,0x90
"I2C","data",7.36131504,2.224e-05,true,,,0x60
"I2C","data",7.36134064,2.224e-05,true,,,0x4A
"I2C","data",7.36136624,2.224e-05,true,,,0x48
"I2C","data",7.361392,2.24e-05,true,,,0xC0
"I2C","data",7.3614176,2.24e-05,true,,,0x3A
"I2C","data",7.36144368,2.24e-05,true,,,0x10
"I2C","data",7.36146928,2.24e-05,true,,,0x60
"I2C","data",7.36149488,2.24e-05,true,,,0xF2
"I2C","data",7.3615208,2.224e-05,true,,,0x1D
"I2C","data",7.3615464,2.224e-05,true,,,0xF9
"I2C","data",7.36157232,2.224e-05,true,,,0x32
"I2C","data",7.36159792,2.224e-05,true,,,0x48
"I2C","data",7.36162352,2.224e-05,true,,,0x48
"I2C","data",7.36164928,2.224e-05,true,,,0x10
"I2C","data",7.36167488,2.224e-05,true,,,0x61
"I2C","data",7.3617008,2.224e-05,true,,,0x13
"I2C","data",7.3617264,2.224e-05,true,,,0x46
"I2C","data",7.361752,2.224e-05,true,,,0x48
"I2C","data",7.36177776,2.24e-05,true,,,0x48
"I2C","data",7.36180336,2.24e-05,true,,,0x80
"I2C","data",7.36182928,2.224e-05,true,,,0x33
"I2C","data",7.36185488,2.224e-05,true,,,0x58
"I2C","data",7.36188048,2.224e-05,true,,,0x61
"I2C","data",7.36190624,2.24e-05,true,,,0x36
"I2C","data",7.36193184,2.24e-05,true,,,0x4B
"I2C","data",7.36195776,2.224e-05,true,,,0x47
"I2C","data",7.36198336,2.224e-05,true,,,0x48
"I2C","data",7.36200896,2.224e-05,true,,,0xD8
"I2C","data",7.36203488,2.224e-05,true,,,0x64
"I2C","data",7.36206048,2.224e-05,true,,,0x48
"I2C","data",7.36208624,2.224e-05,true,,,0x48
"I2C","data",7.36211184,2.224e-05,true,,,0x46
"I2C","data",7.36213744,2.224e-05,true,,,0x4B
"I2C","data",7.36216336,2.224e-05,true,,,0x83
"I2C","data",7.36218896,2.224e-05,true,,,0x60
"I2C","data",7.36221472,2.24e-05,true,,,0x47
"I2C","data",7.36224032,2.24e-05,true,,,0x4B
"I2C","data",7.36226592,2.24e-05,true,,,0xC3
"I2C","data",7.36229184,2.224e-05,true,,,0x60
"I2C","data",7.36231744,2.224e-05,true,,,0x47
"I2C","data",7.3623432,2.24e-05,true,,,0x4B
"I2C","data",7.3623688,2.24e-05,true,,,0x03
"I2C","data",7.3623944,2.24e-05,true,,,0x61
"I2C","data",7.36242032,2.224e-05,true,,,0x47
"I2C","data",7.36244624,2.224e-05,true,,,0x4B
"I2C","data",7.362472,2.224e-05,true,,,0x43
"I2C","data",7.3624976,2.224e-05,true,,,0x61
"I2C","data",7.3625232,2.224e-05,true,,,0x33
"I2C","data",7.36254912,2.224e-05,true,,,0x4B
"I2C","data",7.36257472,2.224e-05,true,,,0x47
"I2C","data",7.36260048,2.24e-05,true,,,0x48
"I2C","data",7.36262608,2.24e-05,true,,,0x40
"I2C","data",7.36265168,2.24e-05,true,,,0x33
"I2C","data",7.3626776,2.224e-05,true,,,0xD8
"I2C","data",7.3627032,2.224e-05,true,,,0x62
"I2C","data",7.36272896,2.24e-05,true,,,0x46
"I2C","data",7.36275456,2.24e-05,true,,,0x48
"I2C","data",7.36278016,2.24e-05,true,,,0xD0
"I2C","data",7.36280608,2.224e-05,true,,,0x60
"I2C","data",7.36283168,2.224e-05,true,,,0x22
"I2C","data",7.3628576,2.224e-05,true,,,0x48
"I2C","data",7.3628832,2.224e-05,true,,,0x46
"I2C","data",7.3629088,2.224e-05,true,,,0x4A
"I2C","data",7.36293456,2.224e-05,true,,,0x80
"I2C","data",7.36296016,2.224e-05,true,,,0x30
"I2C","data",7.36298608,2.224e-05,true,,,0x02
"I2C","data",7.36301168,2.224e-05,true,,,0x61
"I2C","data",7.36303728,2.224e-05,true,,,0x0B
"I2C","data",7.36306304,2.24e-05,true,,,0x46
"I2C","data",7.36308864,2.24e-05,true,,,0x45
"I2C","data",7.36311456,2.224e-05,true,,,0x4A
"I2C","data",7.36314016,2.224e-05,true,,,0x40
"I2C","data",7.36316576,2.224e-05,true,,,0x3B
"I2C","data",7.36319152,2.24e-05,true,,,0xDA
"I2C","data",7.36321712,2.24e-05,true,,,0x63
"I2C","data",7.36324304,2.224e-05,true,,,0x44
"I2C","data",7.36326864,2.224e-05,true,,,0x4A
"I2C","data",7.36329424,2.224e-05,true,,,0xC2
"I2C","data",7.36332016,2.224e-05,true,,,0x60
"I2C","data",7.36334576,2.224e-05,true,,,0x44
"I2C","data",7.36337152,2.224e-05,true,,,0x48
"I2C","data",7.36339712,2.224e-05,true,,,0xC8
"I2C","data",7.36342272,2.224e-05,true,,,0x62
"I2C","data",7.36344832,2.224e-05,true,,,0x44
"I2C","data",7.36347424,2.224e-05,true,,,0x48
"I2C","data",7.36349984,2.224e-05,true,,,0xC0
"I2C","data",7.36352544,2.224e-05,true,,,0x31
"I2C","data",7.3635512,2.24e-05,true,,,0x08
"I2C","data",7.3635768,2.24e-05,true,,,0x60
"I2C","data",7.36360272,2.224e-05,true,,,0xFF
"I2C","data",7.36362832,2.224e-05,true,,,0x31
"I2C","data",7.36365392,2.224e-05,true,,,0x43
"I2C","data",7.36367968,2.24e-05,true,,,0x48
"I2C","data",7.36370528,2.24e-05,true,,,0x41
"I2C","data",7.3637312,2.224e-05,true,,,0x31
"I2C","data",7.3637568,2.224e-05,true,,,0x48
"I2C","data",7.3637824,2.224e-05,true,,,0x63
"I2C","data",7.36380832,2.224e-05,true,,,0x43
"I2C","data",7.36383392,2.224e-05,true,,,0x48
"I2C","data",7.36385968,2.224e-05,true,,,0x43
"I2C","data",7.36388528,2.224e-05,true,,,0x4D
"I2C","data",7.36391088,2.224e-05,true,,,0x80
"I2C","data",7.3639368,2.224e-05,true,,,0x78
"I2C","data",7.3639624,2.224e-05,true,,,0x00
"I2C","data",7.36398816,2.24e-05,true,,,0x28
"I2C","data",7.36401376,2.24e-05,true,,,0x08
"I2C","data",7.36403936,2.24e-05,true,,,0xD0
"I2C","data",7.36406528,2.224e-05,true,,,0xE8
"I2C","data",7.36409088,2.224e-05,true,,,0x68
"I2C","data",7.36411664,2.24e-05,true,,,0x00
"I2C","data",7.36414224,2.24e-05,true,,,0x28
"I2C","data",7.36416784,2.24e-05,true,,,0x02
"I2C","data",7.36419376,2.224e-05,true,,,0xD0
"I2C","data",7.36421936,2.224e-05,true,,,0xA8
"I2C","data",7.36424528,2.224e-05,true,,,0x68
"I2C","data",7.36427088,2.224e-05,true,,,0x01
"I2C","data",7.36429648,2.224e-05,true,,,0xF0
"I2C","data",7.36432224,2.224e-05,true,,,0xA6
"I2C","data",7.36434784,2.224e-05,true,,,0xFD
"I2C","data",7.36437376,2.224e-05,true,,,0x3F
"I2C","data",7.36439936,2.224e-05,true,,,0x49
"I2C","data",7.36442496,2.224e-05,true,,,0x07
"I2C","data",7.36445056,2.224e-05,true,,,0x20
"I2C","data",7.36447632,2.24e-05,true,,,0x08
"I2C","data",7.3645024,2.24e-05,true,,,0x70
"I2C","data",7.364528,2.24e-05,true,,,0xA8
"I2C","data",7.3645536,2.24e-05,true,,,0x68
"I2C","data",7.36457952,2.224e-05,true,,,0x0C
"I2C","data",7.36460512,2.224e-05,true,,,0x30
"I2C","data",7.36463104,2.224e-05,true,,,0x01
"I2C","data",7.36465664,2.224e-05,true,,,0xF0
"I2C","data",7.36468224,2.224e-05,true,,,0xA5
"I2C","data",7.364708,2.224e-05,true,,,0xFD
"I2C","data",7.3647336,2.224e-05,true,,,0x08
"I2C","data",7.36475952,2.224e-05,true,,,0x49
"I2C","data",7.36478512,2.224e-05,true,,,0x20
"I2C","data",7.36481072,2.224e-05,true,,,0x39
"I2C","data",7.36483648,2.224e-05,true,,,0x08
"I2C","data",7.36486208,2.224e-05,true,,,0x61
"I2C","data",7.364888,2.224e-05,true,,,0x00
"I2C","data",7.3649136,2.224e-05,true,,,0x21
"I2C","data",7.3649392,2.224e-05,true,,,0x3C
"I2C","data",7.36496496,2.24e-05,true,,,0x22
"I2C","data",7.36499056,2.24e-05,true,,,0x4A
"I2C","data",7.36501648,2.224e-05,true,,,0x43
"I2C","data",7.36504208,2.224e-05,true,,,0x12
"I2C","data",7.36506768,2.224e-05,true,,,0x19
"I2C","data",7.3650936,2.224e-05,true,,,0x49
"I2C","data",7.3651192,2.224e-05,true,,,0x1C
"I2C","data",7.36514496,2.224e-05,true,,,0x09
"I2C","data",7.36517056,2.224e-05,true,,,0x06
"I2C","data",7.36519616,2.224e-05,true,,,0x90
"I2C","data",7.36522208,2.224e-05,true,,,0x62
"I2C","data",7.36524768,2.224e-05,true,,,0x09
"I2C","data",7.36527344,2.224e-05,true,,,0x0E
"I2C","data",7.36529904,2.224e-05,true,,,0xF7
"I2C","data",7.36532464,2.224e-05,true,,,0xD0
"I2C","data",7.36535056,2.224e-05,true,,,0x01
"I2C","data",7.36537616,2.224e-05,true,,,0xF0
"I2C","data",7.36540192,2.24e-05,true,,,0x9D
"I2C","data",7.36543584,2.224e-05,true,,,0xFD
"I2C","data",7.36546192,2.224e-05,true,,,0xF8
"I2C","data",7.36548752,2.224e-05,true,,,0xBD
"I2C","data",7.36551312,2.224e-05,true,,,0x4C
"I2C","data",7.36553904,2.224e-05,true,,,0x4C
"I2C","data",7.36556464,2.224e-05,true,,,0x04
"I2C","data",7.3655904,2.224e-05,true,,,0x20
"I2C","data",7.365616,2.224e-05,true,,,0x90
"I2C","data",7.3656416,2.224e-05,true,,,0x1D
"I2C","data",7.36566752,2.224e-05,true,,,0x04
"I2C","data",7.36569312,2.224e-05,true,,,0x20
"I2C","data",7.36571888,2.24e-05,true,,,0x05
"I2C","data",7.36574448,2.24e-05,true,,,0x30
"I2C","data",7.36577008,2.24e-05,true,,,0x04
"I2C","data",7.365796,2.224e-05,true,,,0x20
"I2C","data",7.3658216,2.224e-05,true,,,0xF8
"I2C","data",7.36584736,2.24e-05,true,,,0x05
"I2C","data",7.36587296,2.24e-05,true,,,0x04
"I2C","data",7.36589856,2.24e-05,true,,,0x20
"I2C","data",7.36592448,2.224e-05,true,,,0xFF
"I2C","data",7.36595008,2.224e-05,true,,,0x1F
"I2C","data",7.365976,2.224e-05,true,,,0x00
"I2C","data",7.3660016,2.224e-05,true,,,0x00
"I2C","data",7.3660272,2.224e-05,true,,,0x60
"I2C","data",7.36605296,2.224e-05,true,,,0x12
"I2C","data",7.36607856,2.224e-05,true,,,0x04
"I2C","data",7.36610448,2.224e-05,true,,,0x20
"I2C","data",7.36613008,2.224e-05,true,,,0xA1
"I2C","data",7.36615568,2.224e-05,true,,,0x2D
"I2C","data",7.36618144,2.24e-05,true,,,0x04
"I2C","data",7.36620704,2.24e-05,true,,,0x20
"I2C","data",7.36623296,2.224e-05,true,,,0xF8
"I2C","data",7.36625856,2.224e-05,true,,,0x11
"I2C","data",7.36628416,2.224e-05,true,,,0x04
"I2C","data",7.36630992,2.24e-05,true,,,0x20
"I2C","data",7.36633552,2.24e-05,true,,,0x99
"I2C","data",7.36636144,2.224e-05,true,,,0x34
"I2C","data",7.36638704,2.224e-05,true,,,0x04
"I2C","data",7.36641264,2.224e-05,true,,,0x20
"I2C","data",7.36643824,2.224e-05,true,,,0x78
"I2C","data",7.36646416,2.224e-05,true,,,0x09
"I2C","data",7.36649024,2.224e-05,true,,,0x04
"I2C","data",7.36651584,2.224e-05,true,,,0x20
"I2C","data",7.36654144,2.224e-05,true,,,0x89
"I2C","data",7.3665672,2.24e-05,true,,,0x41
"I2C","data",7.3665928,2.24e-05,true,,,0x04
"I2C","data",7.36661872,2.224e-05,true,,,0x20
"I2C","data",7.36664432,2.224e-05,true,,,0xB8
"I2C","data",7.36666992,2.224e-05,true,,,0x0C
"I2C","data",7.36669568,2.24e-05,true,,,0x04
"I2C","data",7.36672128,2.24e-05,true,,,0x20
"I2C","data",7.3667472,2.224e-05,true,,,0x71
"I2C","data",7.3667728,2.224e-05,true,,,0x30
"I2C","data",7.3667984,2.224e-05,true,,,0x04
"I2C","data",7.36682432,2.224e-05,true,,,0x20
"I2C","data",7.36684992,2.224e-05,true,,,0x38
"I2C","data",7.36687568,2.224e-05,true,,,0x08
"I2C","data",7.36690128,2.224e-05,true,,,0x04
"I2C","data",7.36692688,2.224e-05,true,,,0x20
"I2C","data",7.3669528,2.224e-05,true,,,0x89
"I2C","data",7.3669784,2.224e-05,true,,,0x30
"I2C","data",7.36700416,2.24e-05,true,,,0x04
"I2C","data",7.36702976,2.24e-05,true,,,0x20
"I2C","data",7.36705536,2.24e-05,true,,,0x2D
"I2C","data",7.36708128,2.224e-05,true,,,0x43
"I2C","data",7.36710688,2.224e-05,true,,,0x04
"I2C","data",7.36713264,2.24e-05,true,,,0x20
"I2C","data",7.36715824,2.24e-05,true,,,0xD1
"I2C","data",7.36718384,2.24e-05,true,,,0x2E
"I2C","data",7.36720976,2.224e-05,true,,,0x04
"I2C","data",7.36723536,2.224e-05,true,,,0x20
"I2C","data",7.36726128,2.224e-05,true,,,0xF8
"I2C","data",7.36728688,2.224e-05,true,,,0x04
"I2C","data",7.36731248,2.224e-05,true,,,0x04
"I2C","data",7.36733824,2.224e-05,true,,,0x20
"I2C","data",7.36736384,2.224e-05,true,,,0xB9
"I2C","data",7.36738976,2.224e-05,true,,,0x3E
"I2C","data",7.36741536,2.224e-05,true,,,0x04
"I2C","data",7.36744112,2.24e-05,true,,,0x20
"I2C","data",7.36746704,2.224e-05,true,,,0xE1
"I2C","data",7.36749264,2.224e-05,true,,,0x34
"I2C","data",7.3675184,2.24e-05,true,,,0x04
"I2C","data",7.367544,2.24e-05,true,,,0x20
"I2C","data",7.3675696,2.24e-05,true,,,0xA8
"I2C","data",7.36759552,2.224e-05,true,,,0x00
"I2C","data",7.36762112,2.224e-05,true,,,0x04
"I2C","data",7.36764704,2.224e-05,true,,,0x20
"I2C","data",7.36767264,2.224e-05,true,,,0x17
"I2C","data",7.36769824,2.224e-05,true,,,0x35
"I2C","data",7.367724,2.224e-05,true,,,0x04
"I2C","data",7.3677496,2.224e-05,true,,,0x20
"I2C","data",7.36777552,2.224e-05,true,,,0x91
"I2C","data",7.36780112,2.224e-05,true,,,0x35
"I2C","data",7.36782672,2.224e-05,true,,,0x04
"I2C","data",7.36785248,2.24e-05,true,,,0x20
"I2C","data",7.36787808,2.24e-05,true,,,0xF8
"I2C","data",7.367904,2.224e-05,true,,,0x0A
"I2C","data",7.3679296,2.224e-05,true,,,0x04
"I2C","data",7.3679552,2.224e-05,true,,,0x20
"I2C","data",7.36798096,2.24e-05,true,,,0xE5
"I2C","data",7.36800656,2.24e-05,true,,,0x45
"I2C","data",7.36803248,2.224e-05,true,,,0x04
"I2C","data",7.36805808,2.224e-05,true,,,0x20
"I2C","data",7.36808368,2.224e-05,true,,,0xB8
"I2C","data",7.3681096,2.224e-05,true,,,0x0F
"I2C","data",7.3681352,2.224e-05,true,,,0x04
"I2C","data",7.36816096,2.224e-05,true,,,0x20
"I2C","data",7.36818656,2.224e-05,true,,,0xAF
"I2C","data",7.36821216,2.224e-05,true,,,0x30
"I2C","data",7.36823808,2.224e-05,true,,,0x04
"I2C","data",7.36826368,2.224e-05,true,,,0x20
"I2C","data",7.36828944,2.24e-05,true,,,0x19
"I2C","data",7.36831504,2.24e-05,true,,,0x36
"I2C","data",7.36834064,2.24e-05,true,,,0x04
"I2C","data",7.36836656,2.224e-05,true,,,0x20
"I2C","data",7.36839216,2.224e-05,true,,,0x79
"I2C","data",7.36841792,2.24e-05,true,,,0x37
"I2C","data",7.36844384,2.224e-05,true,,,0x04
"I2C","data",7.36846944,2.224e-05,true,,,0x20
"I2C","data",7.36849536,2.224e-05,true,,,0xA1
"I2C","data",7.36852096,2.224e-05,true,,,0x37
"I2C","data",7.36854672,2.224e-05,true,,,0x04
"I2C","data",7.36857232,2.224e-05,true,,,0x20
"I2C","data",7.36859792,2.224e-05,true,,,0x35
"I2C","data",7.36862384,2.224e-05,true,,,0x45
"I2C","data",7.36864944,2.224e-05,true,,,0x04
"I2C","data",7.3686752,2.24e-05,true,,,0x20
"I2C","data",7.3687008,2.24e-05,true,,,0x07
"I2C","data",7.3687264,2.24e-05,true,,,0x46
"I2C","data",7.36875232,2.224e-05,true,,,0x04
"I2C","data",7.36877792,2.224e-05,true,,,0x20
"I2C","data",7.36880368,2.24e-05,true,,,0x7F
"I2C","data",7.36882928,2.24e-05,true,,,0x2E
"I2C","data",7.36885488,2.24e-05,true,,,0x04
"I2C","data",7.3688808,2.224e-05,true,,,0x20
"I2C","data",7.3689064,2.224e-05,true,,,0x49
"I2C","data",7.36893232,2.224e-05,true,,,0x30
"I2C","data",7.36895792,2.224e-05,true,,,0x04
"I2C","data",7.36898352,2.224e-05,true,,,0x20
"I2C","data",7.36900928,2.224e-05,true,,,0x29
"I2C","data",7.36903488,2.224e-05,true,,,0x30
"I2C","data",7.3690608,2.224e-05,true,,,0x04
"I2C","data",7.3690864,2.224e-05,true,,,0x20
"I2C","data",7.369112,2.224e-05,true,,,0x2D
"I2C","data",7.36913776,2.24e-05,true,,,0x38
"I2C","data",7.36916336,2.24e-05,true,,,0x04
"I2C","data",7.36918928,2.224e-05,true,,,0x20
"I2C","data",7.36921488,2.224e-05,true,,,0x5F
"I2C","data",7.36924048,2.224e-05,true,,,0x38
"I2C","data",7.36926624,2.24e-05,true,,,0x04
"I2C","data",7.36929184,2.24e-05,true,,,0x20
"I2C","data",7.36931776,2.224e-05,true,,,0xC7
"I2C","data",7.36934336,2.224e-05,true,,,0x38
"I2C","data",7.36936896,2.224e-05,true,,,0x04
"I2C","data",7.36939488,2.224e-05,true,,,0x20
"I2C","data",7.36942048,2.224e-05,true,,,0x0F
"I2C","data",7.36944656,2.224e-05,true,,,0x3D
"I2C","data",7.36947216,2.224e-05,true,,,0x04
"I2C","data",7.36949776,2.224e-05,true,,,0x20
"I2C","data",7.36952352,2.24e-05,true,,,0x68
"I2C","data",7.36954912,2.24e-05,true,,,0x03
"I2C","data",7.36957504,2.224e-05,true,,,0x04
"I2C","data",7.36960064,2.224e-05,true,,,0x20
"I2C","data",7.36962624,2.224e-05,true,,,0x33
"I2C","data",7.369652,2.24e-05,true,,,0x3D
"I2C","data",7.3696776,2.24e-05,true,,,0x04
"I2C","data",7.36970352,2.224e-05,true,,,0x20
"I2C","data",7.36972912,2.224e-05,true,,,0x57
"I2C","data",7.36975472,2.224e-05,true,,,0x3D
"I2C","data",7.36978064,2.224e-05,true,,,0x04
"I2C","data",7.36980624,2.224e-05,true,,,0x20
"I2C","data",7.369832,2.224e-05,true,,,0x7B
"I2C","data",7.3698576,2.224e-05,true,,,0x3D
"I2C","data",7.3698832,2.224e-05,true,,,0x04
"I2C","data",7.36990912,2.224e-05,true,,,0x20
"I2C","data",7.36993472,2.224e-05,true,,,0xEF
"I2C","data",7.36996048,2.24e-05,true,,,0x38
"I2C","data",7.36998608,2.24e-05,true,,,0x04
"I2C","data",7.37001168,2.24e-05,true,,,0x20
"I2C","data",7.3700376,2.224e-05,true,,,0xC1
"I2C","data",7.3700632,2.224e-05,true,,,0x3D
"I2C","data",7.37008896,2.24e-05,true,,,0x04
"I2C","data",7.37011456,2.24e-05,true,,,0x20
"I2C","data",7.37014016,2.24e-05,true,,,0x09
"I2C","data",7.37016608,2.224e-05,true,,,0x3E
"I2C","data",7.37019168,2.224e-05,true,,,0x04
"I2C","data",7.3702176,2.224e-05,true,,,0x20
"I2C","data",7.3702432,2.224e-05,true,,,0x05
"I2C","data",7.3702688,2.224e-05,true,,,0x3F
"I2C","data",7.37029456,2.224e-05,true,,,0x04
"I2C","data",7.37032016,2.224e-05,true,,,0x20
"I2C","data",7.37034608,2.224e-05,true,,,0x37
"I2C","data",7.37037168,2.224e-05,true,,,0x3E
"I2C","data",7.37039728,2.224e-05,true,,,0x04
"I2C","data",7.37042304,2.224e-05,true,,,0x20
"I2C","data",7.37044864,2.224e-05,true,,,0x81
"I2C","data",7.37047456,2.224e-05,true,,,0x43
"I2C","data",7.37050016,2.224e-05,true,,,0x04
"I2C","data",7.37052592,2.24e-05,true,,,0x20
"I2C","data",7.37055152,2.24e-05,true,,,0xD9
"I2C","data",7.37057712,2.24e-05,true,,,0x44
"I2C","data",7.37060304,2.224e-05,true,,,0x04
"I2C","data",7.37062864,2.224e-05,true,,,0x20
"I2C","data",7.37065456,2.224e-05,true,,,0x7B
"I2C","data",7.37068016,2.224e-05,true,,,0x45
"I2C","data",7.37070576,2.224e-05,true,,,0x04
"I2C","data",7.37073152,2.224e-05,true,,,0x20
"I2C","data",7.37075712,2.224e-05,true,,,0x44
"I2C","data",7.37078304,2.224e-05,true,,,0x2A
"I2C","data",7.37080864,2.224e-05,true,,,0x04
"I2C","data",7.37083424,2.224e-05,true,,,0x20
"I2C","data",7.37086,2.224e-05,true,,,0x1C
"I2C","data",7.3708856,2.224e-05,true,,,0x2B
"I2C","data",7.37091152,2.224e-05,true,,,0x04
"I2C","data",7.37093712,2.224e-05,true,,,0x20
"I2C","data",7.37096272,2.224e-05,true,,,0x60
"I2C","data",7.37098848,2.24e-05,true,,,0x2A
"I2C","data",7.37101408,2.24e-05,true,,,0x04
"I2C","data",7.37104,2.224e-05,true,,,0x20
"I2C","data",7.3710656,2.224e-05,true,,,0xFF
"I2C","data",7.3710912,2.224e-05,true,,,0xB5
"I2C","data",7.37111712,2.224e-05,true,,,0x8B
"I2C","data",7.37114272,2.224e-05,true,,,0xB0
"I2C","data",7.37116848,2.224e-05,true,,,0x0F
"I2C","data",7.37119408,2.224e-05,true,,,0x46
"I2C","data",7.37121968,2.224e-05,true,,,0x00
"I2C","data",7.3712456,2.224e-05,true,,,0x20
"I2C","data",7.3712712,2.224e-05,true,,,0x69
"I2C","data",7.37129696,2.224e-05,true,,,0x46
"I2C","data",7.37132256,2.224e-05,true,,,0x08
"I2C","data",7.37134816,2.224e-05,true,,,0x85
"I2C","data",7.37137408,2.224e-05,true,,,0x05
"I2C","data",7.37139968,2.224e-05,true,,,0x46
"I2C","data",7.37143072,2.224e-05,true,,,0x0B
"I2C","data",7.37145632,2.224e-05,true,,,0x98
"I2C","data",7.37148224,2.224e-05,true,,,0xA8
"I2C","data",7.37150784,2.224e-05,true,,,0x42
"I2C","data",7.3715336,2.24e-05,true,,,0x01
"I2C","data",7.37155968,2.24e-05,true,,,0xD0
"I2C","data",7.37158528,2.24e-05,true,,,0x02
"I2C","data",7.37161088,2.24e-05,true,,,0x2D
"I2C","data",7.3716368,2.224e-05,true,,,0x5C
"I2C","data",7.3716624,2.224e-05,true,,,0xD1
"I2C","data",7.37168832,2.224e-05,true,,,0x09
"I2C","data",7.37171392,2.224e-05,true,,,0xAA
"I2C","data",7.37173952,2.224e-05,true,,,0x02
"I2C","data",7.37176528,2.224e-05,true,,,0xA9
"I2C","data",7.37179088,2.224e-05,true,,,0x28
"I2C","data",7.3718168,2.224e-05,true,,,0x46
"I2C","data",7.3718424,2.224e-05,true,,,0x01
"I2C","data",7.371868,2.224e-05,true,,,0xF0
"I2C","data",7.37189376,2.24e-05,true,,,0x25
"I2C","data",7.37191936,2.24e-05,true,,,0xFD
"I2C","data",7.37194528,2.224e-05,true,,,0x68
"I2C","data",7.37197088,2.224e-05,true,,,0x46
"I2C","data",7.37199648,2.224e-05,true,,,0x06
"I2C","data",7.37202224,2.24e-05,true,,,0x7A
"I2C","data",7.37204784,2.24e-05,true,,,0x50
"I2C","data",7.37207376,2.224e-05,true,,,0xE0
"I2C","data",7.37209936,2.224e-05,true,,,0x0A
"I2C","data",7.37212496,2.224e-05,true,,,0xA9
"I2C","data",7.37215088,2.224e-05,true,,,0x30
"I2C","data",7.37217648,2.224e-05,true,,,0x46
"I2C","data",7.37220224,2.224e-05,true,,,0x01
"I2C","data",7.37222784,2.224e-05,true,,,0xF0
"I2C","data",7.37225344,2.224e-05,true,,,0x24
"I2C","data",7.37227936,2.224e-05,true,,,0xFD
"I2C","data",7.37230496,2.224e-05,true,,,0x04
"I2C","data",7.37233072,2.24e-05,true,,,0x00
"I2C","data",7.37235632,2.24e-05,true,,,0x48
"I2C","data",7.37238192,2.24e-05,true,,,0xD0
"I2C","data",7.37240784,2.224e-05,true,,,0x20
"I2C","data",7.3724336,2.24e-05,true,,,0x78
"I2C","data",7.37245952,2.224e-05,true,,,0xB8
"I2C","data",7.3724856,2.224e-05,true,,,0x42
"I2C","data",7.3725112,2.224e-05,true,,,0x45
"I2C","data",7.3725368,2.224e-05,true,,,0xD1
"I2C","data",7.37256272,2.224e-05,true,,,0x68
"I2C","data",7.37258832,2.224e-05,true,,,0x46
"I2C","data",7.37261408,2.24e-05,true,,,0x0B
"I2C","data",7.37263968,2.24e-05,true,,,0x99
"I2C","data",7.37266528,2.24e-05,true,,,0x01
"I2C","data",7.3726912,2.224e-05,true,,,0x73
"I2C","data",7.3727168,2.224e-05,true,,,0x47
"I2C","data",7.37274256,2.24e-05,true,,,0x73
"I2C","data",7.37276816,2.24e-05,true,,,0x00
"I2C","data",7.37279376,2.24e-05,true,,,0x20
"I2C","data",7.37281968,2.224e-05,true,,,0x08
"I2C","data",7.37284528,2.224e-05,true,,,0x90
"I2C","data",7.3728712,2.224e-05,true,,,0x61
"I2C","data",7.3728968,2.224e-05,true,,,0x78
"I2C","data",7.3729224,2.224e-05,true,,,0x68
"I2C","data",7.37294816,2.224e-05,true,,,0x46
"I2C","data",7.37297376,2.224e-05,true,,,0x01
"I2C","data",7.37299968,2.224e-05,true,,,0x70
"I2C","data",7.37302528,2.224e-05,true,,,0xA1
"I2C","data",7.37305088,2.224e-05,true,,,0x78
"I2C","data",7.37307664,2.24e-05,true,,,0x41
"I2C","data",7.37310224,2.24e-05,true,,,0x70
"I2C","data",7.37312816,2.224e-05,true,,,0x00
"I2C","data",7.37315376,2.224e-05,true,,,0x88
"I2C","data",7.37317936,2.224e-05,true,,,0x00
"I2C","data",7.37320512,2.24e-05,true,,,0x90
"I2C","data",7.37323072,2.24e-05,true,,,0xC0
"I2C","data",7.37325664,2.224e-05,true,,,0x05
"I2C","data",7.37328224,2.224e-05,true,,,0x01
"I2C","data",7.37330784,2.224e-05,true,,,0x0F
"I2C","data",7.37333376,2.224e-05,true,,,0x0B
"I2C","data",7.37335936,2.224e-05,true,,,0x98
"I2C","data",7.37338512,2.224e-05,true,,,0x01
"I2C","data",7.37341072,2.224e-05,true,,,0xF0
"I2C","data",7.37343664,2.224e-05,true,,,0x13
"I2C","data",7.3734624,2.224e-05,true,,,0xFD
"I2C","data",7.373488,2.24e-05,true,,,0x01
"I2C","data",7.37351392,2.224e-05,true,,,0x46
"I2C","data",7.37353952,2.224e-05,true,,,0x68
"I2C","data",7.37356512,2.224e-05,true,,,0x46
"I2C","data",7.37359088,2.24e-05,true,,,0xC1
"I2C","data",7.37361648,2.24e-05,true,,,0x73
"I2C","data",7.3736424,2.224e-05,true,,,0x00
"I2C","data",7.373668,2.224e-05,true,,,0x98
"I2C","data",7.3736936,2.224e-05,true,,,0xE1
"I2C","data",7.37371952,2.224e-05,true,,,0x1C
"I2C","data",7.37374512,2.224e-05,true,,,0xC2
"I2C","data",7.37377088,2.224e-05,true,,,0x06
"I2C","data",7.37379648,2.224e-05,true,,,0xD2
"I2C","data",7.37382208,2.224e-05,true,,,0x0E
"I2C","data",7.373848,2.224e-05,true,,,0x68
"I2C","data",7.3738736,2.224e-05,true,,,0x46
"I2C","data",7.37389936,2.224e-05,true,,,0x02
"I2C","data",7.37392496,2.224e-05,true,,,0x74
"I2C","data",7.37395056,2.224e-05,true,,,0x03
"I2C","data",7.37397648,2.224e-05,true,,,0xAC
"I2C","data",7.37400208,2.224e-05,true,,,0x11
"I2C","data",7.37402784,2.24e-05,true,,,0x30
"I2C","data",7.37405344,2.24e-05,true,,,0x01
"I2C","data",7.37407904,2.24e-05,true,,,0xF0
"I2C","data",7.37410496,2.224e-05,true,,,0x0C
"I2C","data",7.37413056,2.224e-05,true,,,0xFD
"I2C","data",7.37415648,2.224e-05,true,,,0x14
"I2C","data",7.37418208,2.224e-05,true,,,0x99
"I2C","data",7.37420768,2.224e-05,true,,,0x0E
"I2C","data",7.37423344,2.224e-05,true,,,0x98
"I2C","data",7.37425904,2.224e-05,true,,,0x01
"I2C","data",7.37428496,2.224e-05,true,,,0x91
"I2C","data",7.37431056,2.224e-05,true,,,0x00
"I2C","data",7.37433616,2.224e-05,true,,,0x90
"I2C","data",7.37436192,2.224e-05,true,,,0x68
"I2C","data",7.37438752,2.224e-05,true,,,0x46
"I2C","data",7.37441344,2.224e-05,true,,,0x02
"I2C","data",7.3744392,2.24e-05,true,,,0x7C
"I2C","data",7.3744648,2.24e-05,true,,,0x61
"I2C","data",7.37449072,2.224e-05,true,,,0x1D
"I2C","data",7.37451632,2.224e-05,true,,,0x0D
"I2C","data",7.37454224,2.224e-05,true,,,0x9B
"I2C","data",7.37456784,2.224e-05,true,,,0x0B
"I2C","data",7.37459344,2.224e-05,true,,,0x98
"I2C","data",7.3746192,2.224e-05,true,,,0x01
"I2C","data",7.3746448,2.224e-05,true,,,0xF0
"I2C","data",7.37467072,2.224e-05,true,,,0x07
"I2C","data",7.37469632,2.224e-05,true,,,0xFD
"I2C","data",7.37472192,2.224e-05,true,,,0x68
"I2C","data",7.37474768,2.224e-05,true,,,0x46
"I2C","data",7.37477328,2.224e-05,true,,,0x00
"I2C","data",7.3747992,2.224e-05,true,,,0x7C
"I2C","data",7.3748248,2.224e-05,true,,,0x03
"I2C","data",7.3748504,2.224e-05,true,,,0x28
"I2C","data",7.37487616,2.24e-05,true,,,0x04
"I2C","data",7.37490176,2.24e-05,true,,,0xD1
"I2C","data",7.37492768,2.224e-05,true,,,0x6A
"I2C","data",7.37495328,2.224e-05,true,,,0x46
"I2C","data",7.37497888,2.224e-05,true,,,0x90
"I2C","data",7.37500464,2.24e-05,true,,,0x7C
"I2C","data",7.3750304,2.224e-05,true,,,0xD1
"I2C","data",7.37505616,2.224e-05,true,,,0x7C
"I2C","data",7.37508176,2.224e-05,true,,,0x91
"I2C","data",7.37510736,2.224e-05,true,,,0x74
"I2C","data",7.37513328,2.224e-05,true,,,0xD0
"I2C","data",7.37515888,2.224e-05,true,,,0x74
"I2C","data",7.37518464,2.224e-05,true,,,0xEF
"I2C","data",7.37521024,2.224e-05,true,,,0xF3
"I2C","data",7.37523584,2.224e-05,true,,,0x10
"I2C","data",7.37526176,2.224e-05,true,,,0x80
"I2C","data",7.37528736,2.224e-05,true,,,0xC4
"I2C","data",7.37531312,2.24e-05,true,,,0x07
"I2C","data",7.37533872,2.24e-05,true,,,0xE4
"I2C","data",7.37536432,2.24e-05,true,,,0x0F
"I2C","data",7.37539024,2.224e-05,true,,,0x72
"I2C","data",7.37541584,2.224e-05,true,,,0xB6
"I2C","data",7.3754416,2.24e-05,true,,,0x03
"I2C","data",7.3754672,2.24e-05,true,,,0xA8
"I2C","data",7.37549312,2.224e-05,true,,,0x01
"I2C","data",7.37551872,2.224e-05,true,,,0xF0
"I2C","data",7.37554432,2.224e-05,true,,,0xFC
"I2C","data",7.37557024,2.224e-05,true,,,0xFC
"I2C","data",7.37559584,2.224e-05,true,,,0x00
"I2C","data",7.3756216,2.224e-05,true,,,0x2C
"I2C","data",7.3756472,2.224e-05,true,,,0x00
"I2C","data",7.3756728,2.224e-05,true,,,0xD1
"I2C","data",7.37569872,2.224e-05,true,,,0x62
"I2C","data",7.37572432,2.224e-05,true,,,0xB6
"I2C","data",7.37575008,2.24e-05,true,,,0x1C
"I2C","data",7.37577568,2.24e-05,true,,,0x48
"I2C","data",7.37580128,2.24e-05,true,,,0x01
"I2C","data",7.3758272,2.224e-05,true,,,0x78
"I2C","data",7.3758528,2.224e-05,true,,,0x00
"I2C","data",7.37587856,2.24e-05,true,,,0x29
"I2C","data",7.37590416,2.24e-05,true,,,0x03
"I2C","data",7.37592976,2.24e-05,true,,,0xD1
"I2C","data",7.37595568,2.224e-05,true,,,0x01
"I2C","data",7.37598128,2.224e-05,true,,,0x21
"I2C","data",7.3760072,2.224e-05,true,,,0x01
"I2C","data",7.3760328,2.224e-05,true,,,0x70
"I2C","data",7.3760584,2.224e-05,true,,,0x01
"I2C","data",7.37608416,2.224e-05,true,,,0xF0
"I2C","data",7.37610976,2.224e-05,true,,,0xF7
"I2C","data",7.37613568,2.224e-05,true,,,0xFC
"I2C","data",7.37616128,2.224e-05,true,,,0x76
"I2C","data",7.37618688,2.224e-05,true,,,0x1C
"I2C","data",7.37621264,2.24e-05,true,,,0xF6
"I2C","data",7.37623824,2.24e-05,true,,,0xB2
"I2C","data",7.37626416,2.224e-05,true,,,0x08
"I2C","data",7.37628976,2.224e-05,true,,,0xA8
"I2C","data",7.37631536,2.224e-05,true,,,0x00
"I2C","data",7.37634112,2.24e-05,true,,,0x79
"I2C","data",7.37636672,2.24e-05,true,,,0x86
"I2C","data",7.37639264,2.224e-05,true,,,0x42
"I2C","data",7.37641824,2.224e-05,true,,,0xAA
"I2C","data",7.37644416,2.224e-05,true,,,0xD3
"I2C","data",7.37646992,2.224e-05,true,,,0x6D
"I2C","data",7.37649552,2.224e-05,true,,,0x1C
"I2C","data",7.37652144,2.224e-05,true,,,0xED
"I2C","data",7.37654704,2.224e-05,true,,,0xB2
"I2C","data",7.37657264,2.224e-05,true,,,0x03
"I2C","data",7.3765984,2.24e-05,true,,,0x2D
"I2C","data",7.376624,2.24e-05,true,,,0x99
"I2C","data",7.37664992,2.224e-05,true,,,0xD3
"I2C","data",7.37667552,2.224e-05,true,,,0x0F
"I2C","data",7.37670112,2.224e-05,true,,,0xB0
"I2C","data",7.37672688,2.24e-05,true,,,0xF0
"I2C","data",7.37675248,2.24e-05,true,,,0xBD
"I2C","data",7.3767784,2.224e-05,true,,,0x70
"I2C","data",7.376804,2.224e-05,true,,,0xB5
"I2C","data",7.3768296,2.224e-05,true,,,0x04
"I2C","data",7.37685552,2.224e-05,true,,,0x46
"I2C","data",7.37688112,2.224e-05,true,,,0x0D
"I2C","data",7.37690688,2.224e-05,true,,,0x46
"I2C","data",7.37693248,2.224e-05,true,,,0xC5
"I2C","data",7.37695808,2.224e-05,true,,,0x20
"I2C","data",7.376984,2.224e-05,true,,,0xC0
"I2C","data",7.3770096,2.224e-05,true,,,0x00
"I2C","data",7.37703536,2.24e-05,true,,,0x10
"I2C","data",7.37706096,2.24e-05,true,,,0x49
"I2C","data",7.37708656,2.24e-05,true,,,0x60
"I2C","data",7.37711248,2.224e-05,true,,,0x43
"I2C","data",7.37713808,2.224e-05,true,,,0x42
"I2C","data",7.37716384,2.24e-05,true,,,0x18
"I2C","data",7.37718944,2.24e-05,true,,,0x09
"I2C","data",7.37721504,2.24e-05,true,,,0x20
"I2C","data",7.37724096,2.224e-05,true,,,0x80
"I2C","data",7.37726656,2.224e-05,true,,,0x01
"I2C","data",7.37729248,2.224e-05,true,,,0x10
"I2C","data",7.37731808,2.224e-05,true,,,0x18
"I2C","data",7.37734368,2.224e-05,true,,,0x00
"I2C","data",7.37736944,2.224e-05,true,,,0x7F
"I2C","data",7.37739504,2.224e-05,true,,,0x01
"I2C","data",7.37742096,2.224e-05,true,,,0x28
"I2C","data",7.37744672,2.24e-05,true,,,0x10
"I2C","data",7.37747232,2.24e-05,true,,,0xD0
"I2C","data",7.37749824,2.224e-05,true,,,0x13
"I2C","data",7.37752384,2.224e-05,true,,,0x20
"I2C","data",7.3775496,2.24e-05,true,,,0x40
"I2C","data",7.3775752,2.24e-05,true,,,0x01
"I2C","data",7.3776008,2.24e-05,true,,,0x10
"I2C","data",7.37762672,2.224e-05,true,,,0x18
"I2C","data",7.37765232,2.224e-05,true,,,0xC0
"I2C","data",7.37767824,2.224e-05,true,,,0x7D
"I2C","data",7.37770384,2.224e-05,true,,,0x01
"I2C","data",7.37772944,2.224e-05,true,,,0x28
"I2C","data",7.3777552,2.224e-05,true,,,0x0A
"I2C","data",7.3777808,2.224e-05,true,,,0xD0
"I2C","data",7.37780672,2.224e-05,true,,,0x00
"I2C","data",7.37783232,2.224e-05,true,,,0x2D
"I2C","data",7.37785792,2.224e-05,true,,,0x23
"I2C","data",7.37788368,2.24e-05,true,,,0x46
"I2C","data",7.37790928,2.24e-05,true,,,0x02
"I2C","data",7.3779352,2.224e-05,true,,,0xD0
"I2C","data",7.3779608,2.224e-05,true,,,0x01
"I2C","data",7.3779864,2.224e-05,true,,,0x22
"I2C","data",7.37801216,2.24e-05,true,,,0x11
"I2C","data",7.37803776,2.24e-05,true,,,0x46
"I2C","data",7.37806368,2.224e-05,true,,,0x01
"I2C","data",7.37808928,2.224e-05,true,,,0xE0
"I2C","data",7.37811488,2.224e-05,true,,,0x01
"I2C","data",7.3781408,2.224e-05,true,,,0x22
"I2C","data",7.3781664,2.224e-05,true,,,0x00
"I2C","data",7.37819216,2.224e-05,true,,,0x21
"I2C","data",7.37821776,2.224e-05,true,,,0x8E
"I2C","data",7.37824368,2.224e-05,true,,,0x20
"I2C","stop",7.37826864,1.6e-07,,,,
"I2C","start",7.37926112,1.6e-07,,,,
"I2C","address",7.37926416,2.224e-05,true,0x35,false,
"I2C","data",7.379288,2.224e-05,true,,,0x01
"I2C","data",7.3793136,2.224e-05,true,,,0xF0
"I2C","data",7.37933952,2.224e-05,true,,,0xD2
"I2C","data",7.37936512,2.224e-05,true,,,0xFC
"I2C","data",7.37939088,2.24e-05,true,,,0x29
"I2C","data",7.37941648,2.24e-05,true,,,0x46
"I2C","data",7.3794424,2.224e-05,true,,,0x20
"I2C","data",7.37946816,2.24e-05,true,,,0x46
"I2C","data",7.37949376,2.24e-05,true,,,0x01
"I2C","data",7.37951968,2.224e-05,true,,,0xF0
"I2C","data",7.37954528,2.224e-05,true,,,0xD4
"I2C","data",7.37957088,2.224e-05,true,,,0xFC
"I2C","data",7.3795968,2.224e-05,true,,,0x70
"I2C","data",7.3796224,2.224e-05,true,,,0xBD
"I2C","data",7.37964816,2.224e-05,true,,,0x00
"I2C","data",7.37967376,2.224e-05,true,,,0x00
"I2C","data",7.37969936,2.224e-05,true,,,0x51
"I2C","data",7.37972528,2.224e-05,true,,,0x24
"I2C","data",7.37975088,2.224e-05,true,,,0x04
"I2C","data",7.37977664,2.24e-05,true,,,0x20
"I2C","data",7.37980224,2.24e-05,true,,,0x90
"I2C","data",7.37982784,2.24e-05,true,,,0x12
"I2C","data",7.37985376,2.224e-05,true,,,0x04
"I2C","data",7.37987936,2.224e-05,true,,,0x20
"I2C","data",7.37990512,2.24e-05,true,,,0xF0
"I2C","data",7.37993072,2.24e-05,true,,,0xB5
"I2C","data",7.37995632,2.24e-05,true,,,0x85
"I2C","data",7.37998224,2.224e-05,true,,,0xB0
"I2C","data",7.38000784,2.224e-05,true,,,0x02
"I2C","data",7.38003376,2.224e-05,true,,,0x20
"I2C","data",7.38005936,2.224e-05,true,,,0x01
"I2C","data",7.38008496,2.224e-05,true,,,0xF0
"I2C","data",7.38011072,2.224e-05,true,,,0xCF
"I2C","data",7.38013632,2.224e-05,true,,,0xFC
"I2C","data",7.38016224,2.224e-05,true,,,0x02
"I2C","data",7.38018784,2.224e-05,true,,,0x28
"I2C","data",7.38021344,2.224e-05,true,,,0x08
"I2C","data",7.3802392,2.24e-05,true,,,0xD0
"I2C","data",7.3802648,2.24e-05,true,,,0x03
"I2C","data",7.38029072,2.224e-05,true,,,0x20
"I2C","data",7.38031632,2.224e-05,true,,,0x01
"I2C","data",7.38034192,2.224e-05,true,,,0xF0
"I2C","data",7.38036768,2.24e-05,true,,,0xCA
"I2C","data",7.38039328,2.24e-05,true,,,0xFC
"I2C","data",7.3804192,2.224e-05,true,,,0x02
"I2C","data",7.3804448,2.224e-05,true,,,0x28
"I2C","data",7.38047072,2.224e-05,true,,,0x03
"I2C","data",7.38049632,2.224e-05,true,,,0xD0
"I2C","data",7.38052192,2.224e-05,true,,,0x01
"I2C","data",7.38054768,2.224e-05,true,,,0xF0
"I2C","data",7.38057328,2.224e-05,true,,,0xCC
"I2C","data",7.3805992,2.224e-05,true,,,0xFC
"I2C","data",7.3806248,2.224e-05,true,,,0x05
"I2C","data",7.3806504,2.224e-05,true,,,0xB0
"I2C","data",7.38067616,2.24e-05,true,,,0xF0
"I2C","data",7.38070176,2.24e-05,true,,,0xBD
"I2C","data",7.38072768,2.224e-05,true,,,0x00
"I2C","data",7.38075328,2.224e-05,true,,,0x24
"I2C","data",7.38077888,2.224e-05,true,,,0x3C
"I2C","data",7.38080464,2.24e-05,true,,,0x20
"I2C","data",7.38083024,2.24e-05,true,,,0x21
"I2C","data",7.38085616,2.224e-05,true,,,0x46
"I2C","data",7.38088176,2.224e-05,true,,,0x41
"I2C","data",7.38090736,2.224e-05,true,,,0x43
"I2C","data",7.38093328,2.224e-05,true,,,0x37
"I2C","data",7.38095888,2.224e-05,true,,,0x48
"I2C","data",7.38098464,2.224e-05,true,,,0x0D
"I2C","data",7.38101024,2.224e-05,true,,,0x18
"I2C","data",7.38103584,2.224e-05,true,,,0x69
"I2C","data",7.38106176,2.224e-05,true,,,0x79
"I2C","data",7.38108736,2.224e-05,true,,,0x08
"I2C","data",7.38111312,2.24e-05,true,,,0x07
"I2C","data",7.38113872,2.24e-05,true,,,0x64
"I2C","data",7.38116432,2.24e-05,true,,,0xD5
"I2C","data",7.38119024,2.224e-05,true,,,0xE8
"I2C","data",7.38121584,2.224e-05,true,,,0x78
"I2C","data",7.3812416,2.24e-05,true,,,0x0A
"I2C","data",7.3812672,2.24e-05,true,,,0x23
"I2C","data",7.3812928,2.24e-05,true,,,0xC2
"I2C","data",7.38131872,2.224e-05,true,,,0x08
"I2C","data",7.38134432,2.224e-05,true,,,0x5A
"I2C","data",7.38137024,2.224e-05,true,,,0x43
"I2C","data",7.38139584,2.224e-05,true,,,0x0A
"I2C","data",7.38142144,2.224e-05,true,,,0x32
"I2C","data",7.38144704,2.224e-05,true,,,0x40
"I2C","data",7.3814728,2.224e-05,true,,,0x07
"I2C","data",7.38149888,2.24e-05,true,,,0x40
"I2C","data",7.38152448,2.24e-05,true,,,0x0F
"I2C","data",7.38155008,2.24e-05,true,,,0x03
"I2C","data",7.381576,2.224e-05,true,,,0x92
"I2C","data",7.3816016,2.224e-05,true,,,0x82
"I2C","data",7.38162736,2.24e-05,true,,,0x00
"I2C","data",7.38165296,2.24e-05,true,,,0x80
"I2C","data",7.38167856,2.24e-05,true,,,0x18
"I2C","data",7.38170448,2.224e-05,true,,,0x64
"I2C","data",7.38173008,2.224e-05,true,,,0x30
"I2C","data",7.381756,2.224e-05,true,,,0x02
"I2C","data",7.3817816,2.224e-05,true,,,0x90
"I2C","data",7.3818072,2.224e-05,true,,,0xA8
"I2C","data",7.38183296,2.224e-05,true,,,0x88
"I2C","data",7.38185856,2.224e-05,true,,,0x64
"I2C","data",7.38188448,2.224e-05,true,,,0x22
"I2C","data",7.38191008,2.224e-05,true,,,0x86
"I2C","data",7.38193568,2.224e-05,true,,,0x05
"I2C","data",7.38196144,2.24e-05,true,,,0xA8
"I2C","data",7.38198704,2.24e-05,true,,,0x78
"I2C","data",7.38201296,2.224e-05,true,,,0xB6
"I2C","data",7.38203856,2.224e-05,true,,,0x0D
"I2C","data",7.38206416,2.224e-05,true,,,0xC0
"I2C","data",7.38208992,2.24e-05,true,,,0x08
"I2C","data",7.38211552,2.24e-05,true,,,0x50
"I2C","data",7.38214144,2.224e-05,true,,,0x43
"I2C","data",7.38216704,2.224e-05,true,,,0x2C
"I2C","data",7.38219264,2.224e-05,true,,,0x4A
"I2C","data",7.38221856,2.224e-05,true,,,0x76
"I2C","data",7.38224416,2.224e-05,true,,,0x1C
"I2C","data",7.38226992,2.224e-05,true,,,0x80
"I2C","data",7.38229552,2.224e-05,true,,,0x18
"I2C","data",7.38232112,2.224e-05,true,,,0x01
"I2C","data",7.38234704,2.224e-05,true,,,0x90
"I2C","data",7.38237264,2.224e-05,true,,,0xC5
"I2C","data",7.3823984,2.24e-05,true,,,0x20
"I2C","data",7.382424,2.24e-05,true,,,0xC0
"I2C","data",7.38245008,2.24e-05,true,,,0x00
"I2C","data",7.38247632,2.224e-05,true,,,0x22
"I2C","data",7.38250192,2.224e-05,true,,,0x46
"I2C","data",7.38252752,2.224e-05,true,,,0x42
"I2C","data",7.38255328,2.224e-05,true,,,0x43
"I2C","data",7.38257888,2.224e-05,true,,,0x29
"I2C","data",7.3826048,2.224e-05,true,,,0x48
"I2C","data",7.3826304,2.224e-05,true,,,0x10
"I2C","data",7.382656,2.224e-05,true,,,0x18
"I2C","data",7.38268176,2.224e-05,true,,,0x0F
"I2C","data",7.38270736,2.224e-05,true,,,0x22
"I2C","data",7.38273328,2.224e-05,true,,,0x92
"I2C","data",7.38275888,2.224e-05,true,,,0x01
"I2C","data",7.38278448,2.224e-05,true,,,0x82
"I2C","data",7.38281024,2.24e-05,true,,,0x18
"I2C","data",7.38283584,2.24e-05,true,,,0x12
"I2C","data",7.38286176,2.224e-05,true,,,0x79
"I2C","data",7.38288736,2.224e-05,true,,,0x60
"I2C","data",7.38291296,2.224e-05,true,,,0x2A
"I2C","data",7.38293888,2.224e-05,true,,,0x41
"I2C","data",7.38296448,2.224e-05,true,,,0xD1
"I2C","data",7.38299024,2.224e-05,true,,,0x80
"I2C","data",7.38301584,2.224e-05,true,,,0x30
"I2C","data",7.38304144,2.224e-05,true,,,0xC0
"I2C","data",7.38306736,2.224e-05,true,,,0x69
"I2C","data",7.38309296,2.224e-05,true,,,0xC0
"I2C","data",7.38311872,2.224e-05,true,,,0x02
"I2C","data",7.38314432,2.224e-05,true,,,0x3D
"I2C","data",7.38316992,2.224e-05,true,,,0xD5
"I2C","data",7.38319584,2.224e-05,true,,,0x48
"I2C","data",7.38322144,2.224e-05,true,,,0x07
"I2C","data",7.3832472,2.24e-05,true,,,0x01
"I2C","data",7.3832728,2.24e-05,true,,,0xD4
"I2C","data",7.3832984,2.24e-05,true,,,0x07
"I2C","data",7.38332432,2.224e-05,true,,,0x20
"I2C","data",7.38334992,2.224e-05,true,,,0x00
"I2C","data",7.38337584,2.224e-05,true,,,0xE0
"I2C","data",7.38340144,2.224e-05,true,,,0x08
"I2C","data",7.38343248,2.224e-05,true,,,0x20
"I2C","data",7.38345808,2.224e-05,true,,,0x01
"I2C","data",7.38348384,2.24e-05,true,,,0xF0
"I2C","data",7.38350944,2.24e-05,true,,,0x99
"I2C","data",7.38353504,2.24e-05,true,,,0xFC
"I2C","data",7.38356096,2.224e-05,true,,,0xA9
"I2C","data",7.38358656,2.224e-05,true,,,0x78
"I2C","data",7.38361248,2.224e-05,true,,,0xC2
"I2C","data",7.38363808,2.224e-05,true,,,0x01
"I2C","data",7.38366368,2.224e-05,true,,,0x20
"I2C","data",7.38368944,2.224e-05,true,,,0x4F
"I2C","data",7.38371504,2.224e-05,true,,,0x4B
"I2C","data",7.38374096,2.224e-05,true,,,0x07
"I2C","data",7.38376656,2.224e-05,true,,,0xA5
"I2C","data",7.38379216,2.224e-05,true,,,0x00
"I2C","data",7.38381792,2.24e-05,true,,,0x00
"I2C","data",7.38384352,2.24e-05,true,,,0x92
"I2C","data",7.38386944,2.224e-05,true,,,0x79
"I2C","data",7.38389504,2.224e-05,true,,,0x59
"I2C","data",7.38392064,2.224e-05,true,,,0x5B
"I2C","data",7.3839464,2.24e-05,true,,,0x0F
"I2C","data",7.383972,2.24e-05,true,,,0x8A
"I2C","data",7.38399792,2.224e-05,true,,,0x1A
"I2C","data",7.38402352,2.224e-05,true,,,0x1A
"I2C","data",7.38404912,2.224e-05,true,,,0x41
"I2C","data",7.38407504,2.224e-05,true,,,0x89
"I2C","data",7.38410064,2.224e-05,true,,,0x1A
"I2C","data",7.3841264,2.224e-05,true,,,0x79
"I2C","data",7.384152,2.224e-05,true,,,0x51
"I2C","data",7.3841776,2.224e-05,true,,,0x1C
"I2C","data",7.38420352,2.224e-05,true,,,0x49
"I2C","data",7.38422912,2.224e-05,true,,,0x6A
"I2C","data",7.38425488,2.24e-05,true,,,0x18
"I2C","data",7.38428048,2.24e-05,true,,,0x69
"I2C","data",7.38430608,2.24e-05,true,,,0x46
"I2C","data",7.384332,2.224e-05,true,,,0x01
"I2C","data",7.3843576,2.224e-05,true,,,0xF0
"I2C","data",7.38438336,2.24e-05,true,,,0x8E
"I2C","data",7.38440896,2.24e-05,true,,,0xFC
"I2C","data",7.3844352,2.224e-05,true,,,0x78
"I2C","data",7.38446128,2.224e-05,true,,,0x5B
"I2C","data",7.38448688,2.224e-05,true,,,0x1A
"I2C","data",7.38451248,2.224e-05,true,,,0x49
"I2C","data",7.38453824,2.24e-05,true,,,0x40
"I2C","data",7.38456384,2.24e-05,true,,,0x04
"I2C","data",7.38458976,2.224e-05,true,,,0x00
"I2C","data",7.38461536,2.224e-05,true,,,0x0E
"I2C","data",7.38464096,2.224e-05,true,,,0x08
"I2C","data",7.38466672,2.24e-05,true,,,0x55
"I2C","data",7.38469232,2.24e-05,true,,,0x17
"I2C","data",7.38471824,2.224e-05,true,,,0x49
"I2C","data",7.38474384,2.224e-05,true,,,0x18
"I2C","data",7.38476944,2.224e-05,true,,,0x4A
"I2C","data",7.38479536,2.224e-05,true,,,0x49
"I2C","data",7.38482096,2.224e-05,true,,,0x5B
"I2C","data",7.38484672,2.224e-05,true,,,0x18
"I2C","data",7.38487232,2.224e-05,true,,,0x4B
"I2C","data",7.38489792,2.224e-05,true,,,0x49
"I2C","data",7.38492384,2.224e-05,true,,,0x04
"I2C","data",7.38494944,2.224e-05,true,,,0x09
"I2C","data",7.3849752,2.24e-05,true,,,0x0E
"I2C","data",7.3850008,2.24e-05,true,,,0x11
"I2C","data",7.3850264,2.24e-05,true,,,0x55
"I2C","data",7.38505232,2.224e-05,true,,,0x01
"I2C","data",7.38507792,2.224e-05,true,,,0x9A
"I2C","data",7.38510368,2.24e-05,true,,,0x59
"I2C","data",7.38512928,2.24e-05,true,,,0x43
"I2C","data",7.38515488,2.24e-05,true,,,0x72
"I2C","data",7.3851808,2.224e-05,true,,,0x43
"I2C","data",7.3852064,2.224e-05,true,,,0x91
"I2C","data",7.38523232,2.224e-05,true,,,0x42
"I2C","data",7.38525792,2.224e-05,true,,,0x09
"I2C","data",7.38528352,2.224e-05,true,,,0xD8
"I2C","data",7.38530928,2.224e-05,true,,,0x15
"I2C","data",7.38533488,2.224e-05,true,,,0x4A
"I2C","data",7.3853608,2.224e-05,true,,,0x61
"I2C","data",7.3853864,2.224e-05,true,,,0x00
"I2C","data",7.385412,2.224e-05,true,,,0x51
"I2C","data",7.38543776,2.24e-05,true,,,0x5A
"I2C","data",7.38546336,2.24e-05,true,,,0x02
"I2C","data",7.38548928,2.224e-05,true,,,0x9A
"I2C","data",7.38551488,2.224e-05,true,,,0x72
"I2C","data",7.38554064,2.24e-05,true,,,0x43
"I2C","data",7.38556624,2.24e-05,true,,,0x51
"I2C","data",7.38559184,2.24e-05,true,,,0x43
"I2C","data",7.38561776,2.224e-05,true,,,0x13
"I2C","data",7.38564336,2.224e-05,true,,,0x4A
"I2C","data",7.38566928,2.224e-05,true,,,0x50
"I2C","data",7.38569488,2.224e-05,true,,,0x43
"I2C","data",7.38572048,2.224e-05,true,,,0x88
"I2C","data",7.38574624,2.224e-05,true,,,0x42
"I2C","data",7.38577184,2.224e-05,true,,,0x04
"I2C","data",7.38579776,2.224e-05,true,,,0xD9
"I2C","data",7.38582336,2.224e-05,true,,,0x2A
"I2C","data",7.38584896,2.224e-05,true,,,0x21
"I2C","data",7.38587472,2.24e-05,true,,,0x20
"I2C","data",7.38590032,2.24e-05,true,,,0x46
"I2C","data",7.38592624,2.224e-05,true,,,0x01
"I2C","data",7.38595184,2.224e-05,true,,,0xF0
"I2C","data",7.38597744,2.224e-05,true,,,0x75
"I2C","data",7.3860032,2.24e-05,true,,,0xFC
"I2C","data",7.3860288,2.24e-05,true,,,0x95
"I2C","data",7.38605472,2.224e-05,true,,,0xE7
"I2C","data",7.38608032,2.224e-05,true,,,0x03
"I2C","data",7.38610592,2.224e-05,true,,,0x98
"I2C","data",7.38613184,2.224e-05,true,,,0x0F
"I2C","data",7.38615744,2.224e-05,true,,,0x4A
"I2C","data",7.3861832,2.224e-05,true,,,0x81
"I2C","data",7.3862088,2.224e-05,true,,,0x00
"I2C","data",7.3862344,2.224e-05,true,,,0x09
"I2C","data",7.38626032,2.224e-05,true,,,0x20
"I2C","data",7.38628592,2.224e-05,true,,,0x01
"I2C","data",7.38631168,2.224e-05,true,,,0xF0
"I2C","data",7.38633728,2.24e-05,true,,,0x74
"I2C","data",7.38636288,2.24e-05,true,,,0xFC
"I2C","data",7.3863888,2.224e-05,true,,,0x64
"I2C","data",7.3864144,2.224e-05,true,,,0x1C
"I2C","data",7.38644048,2.224e-05,true,,,0x24
"I2C","data",7.38646656,2.224e-05,true,,,0x06
"I2C","data",7.38649216,2.224e-05,true,,,0x24
"I2C","data",7.38651776,2.224e-05,true,,,0x0E
"I2C","data",7.38654368,2.224e-05,true,,,0x8E
"I2C","data",7.38656928,2.224e-05,true,,,0xD0
"I2C","data",7.38659504,2.224e-05,true,,,0x8A
"I2C","data",7.38662064,2.224e-05,true,,,0xE7
"I2C","data",7.38664624,2.224e-05,true,,,0x00
"I2C","data",7.38667216,2.224e-05,true,,,0x00
"I2C","data",7.38669776,2.224e-05,true,,,0x4C
"I2C","data",7.38672352,2.24e-05,true,,,0x4C
"I2C","data",7.38674912,2.24e-05,true,,,0x04
"I2C","data",7.38677472,2.24e-05,true,,,0x20
"I2C","data",7.38680064,2.224e-05,true,,,0x88
"I2C","data",7.38682624,2.224e-05,true,,,0x13
"I2C","data",7.386852,2.24e-05,true,,,0x00
"I2C","data",7.38687776,2.224e-05,true,,,0x00
"I2C","data",7.38690336,2.224e-05,true,,,0x90
"I2C","data",7.38692912,2.224e-05,true,,,0x12
"I2C","data",7.38695472,2.224e-05,true,,,0x04
"I2C","data",7.38698064,2.224e-05,true,,,0x20
"I2C","data",7.38700624,2.224e-05,true,,,0x88
"I2C","data",7.38703184,2.224e-05,true,,,0x21
"I2C","data",7.3870576,2.224e-05,true,,,0x04
"I2C","data",7.3870832,2.224e-05,true,,,0x20
"I2C","data",7.38710912,2.224e-05,true,,,0x84
"I2C","data",7.38713472,2.224e-05,true,,,0x21
"I2C","data",7.38716032,2.224e-05,true,,,0x04
"I2C","data",7.38718608,2.24e-05,true,,,0x20
"I2C","data",7.38721168,2.24e-05,true,,,0x80
"I2C","data",7.3872376,2.224e-05,true,,,0x21
"I2C","data",7.3872632,2.224e-05,true,,,0x04
"I2C","data",7.3872888,2.224e-05,true,,,0x20
"I2C","data",7.38731456,2.24e-05,true,,,0x7F
"I2C","data",7.38734016,2.24e-05,true,,,0x21
"I2C","data",7.38736608,2.224e-05,true,,,0x04
"I2C","data",7.38739168,2.224e-05,true,,,0x20
"I2C","data",7.38741728,2.224e-05,true,,,0xB0
"I2C","data",7.38744288,2.224e-05,true,,,0x36
"I2C","data",7.3874688,2.224e-05,true,,,0x00
"I2C","data",7.38749488,2.224e-05,true,,,0x00
"I2C","data",7.38752048,2.224e-05,true,,,0x44
"I2C","data",7.38754608,2.224e-05,true,,,0x4C
"I2C","data",7.38757184,2.24e-05,true,,,0x04
"I2C","data",7.38759744,2.24e-05,true,,,0x20
"I2C","data",7.38762336,2.224e-05,true,,,0xC0
"I2C","data",7.38764896,2.224e-05,true,,,0x5C
"I2C","data",7.38767456,2.224e-05,true,,,0x15
"I2C","data",7.38770032,2.24e-05,true,,,0x00
"I2C","data",7.38772592,2.24e-05,true,,,0x73
"I2C","data",7.38775184,2.224e-05,true,,,0x24
"I2C","data",7.38777744,2.224e-05,true,,,0x02
"I2C","data",7.38780304,2.224e-05,true,,,0x00
"I2C","data",7.38782896,2.224e-05,true,,,0x10
"I2C","data",7.38785456,2.224e-05,true,,,0xB5
"I2C","data",7.38788032,2.224e-05,true,,,0x01
"I2C","data",7.38790592,2.224e-05,true,,,0xF0
"I2C","data",7.38793152,2.224e-05,true,,,0x5B
"I2C","data",7.38795744,2.224e-05,true,,,0xFC
"I2C","data",7.38798304,2.224e-05,true,,,0x05
"I2C","data",7.3880088,2.24e-05,true,,,0x48
"I2C","data",7.3880344,2.24e-05,true,,,0x01
"I2C","data",7.38806,2.24e-05,true,,,0x68
"I2C","data",7.38808592,2.224e-05,true,,,0xC0
"I2C","data",7.38811152,2.224e-05,true,,,0x22
"I2C","data",7.38813728,2.24e-05,true,,,0x91
"I2C","data",7.38816288,2.24e-05,true,,,0x43
"I2C","data",7.38818848,2.24e-05,true,,,0x01
"I2C","data",7.3882144,2.224e-05,true,,,0x60
"I2C","data",7.38824,2.224e-05,true,,,0x03
"I2C","data",7.38826592,2.224e-05,true,,,0x48
"I2C","data",7.38829152,2.224e-05,true,,,0x41
"I2C","data",7.38831712,2.224e-05,true,,,0x6A
"I2C","data",7.38834288,2.224e-05,true,,,0x40
"I2C","data",7.38836848,2.224e-05,true,,,0x22
"I2C","data",7.3883944,2.224e-05,true,,,0x91
"I2C","data",7.38842,2.224e-05,true,,,0x43
"I2C","data",7.38844576,2.24e-05,true,,,0x41
"I2C","data",7.38847168,2.224e-05,true,,,0x62
"I2C","data",7.38849728,2.224e-05,true,,,0x10
"I2C","data",7.38852304,2.24e-05,true,,,0xBD
"I2C","data",7.38854864,2.24e-05,true,,,0x00
"I2C","data",7.38857424,2.24e-05,true,,,0x05
"I2C","data",7.38860016,2.224e-05,true,,,0x06
"I2C","data",7.38862576,2.224e-05,true,,,0x40
"I2C","data",7.38865168,2.224e-05,true,,,0x00
"I2C","data",7.38867728,2.224e-05,true,,,0x41
"I2C","data",7.38870288,2.224e-05,true,,,0x09
"I2C","data",7.38872864,2.224e-05,true,,,0x40
"I2C","data",7.38875424,2.224e-05,true,,,0x10
"I2C","data",7.38878016,2.224e-05,true,,,0xB5
"I2C","data",7.38880576,2.224e-05,true,,,0x04
"I2C","data",7.38883136,2.224e-05,true,,,0x46
"I2C","data",7.38885712,2.24e-05,true,,,0x01
"I2C","data",7.38888272,2.24e-05,true,,,0xF0
"I2C","data",7.38890864,2.224e-05,true,,,0x4E
"I2C","data",7.38893424,2.224e-05,true,,,0xFC
"I2C","data",7.38895984,2.224e-05,true,,,0x3C
"I2C","data",7.3889856,2.24e-05,true,,,0x20
"I2C","data",7.3890112,2.24e-05,true,,,0x44
"I2C","data",7.38903712,2.224e-05,true,,,0x43
"I2C","data",7.38906272,2.224e-05,true,,,0x03
"I2C","data",7.38908832,2.224e-05,true,,,0x48
"I2C","data",7.38911424,2.224e-05,true,,,0x02
"I2C","data",7.38913984,2.224e-05,true,,,0x49
"I2C","data",7.3891656,2.224e-05,true,,,0x20
"I2C","data",7.3891912,2.224e-05,true,,,0x18
"I2C","data",7.3892168,2.224e-05,true,,,0x81
"I2C","data",7.38924272,2.224e-05,true,,,0x85
"I2C","data",7.38926832,2.224e-05,true,,,0x10
"I2C","data",7.38929408,2.24e-05,true,,,0xBD
"I2C","data",7.38931968,2.24e-05,true,,,0x00
"I2C","data",7.38934528,2.24e-05,true,,,0x00
"I2C","data",7.3893712,2.224e-05,true,,,0x11
"I2C","data",7.3893968,2.224e-05,true,,,0x09
"I2C","data",7.38942256,2.24e-05,true,,,0xF8
"I2C","data",7.38944848,2.224e-05,true,,,0x00
"I2C","data",7.38947408,2.224e-05,true,,,0x4C
"I2C","data",7.3895,2.224e-05,true,,,0x4C
"I2C","data",7.3895256,2.224e-05,true,,,0x04
"I2C","data",7.38955136,2.224e-05,true,,,0x20
"I2C","data",7.38957696,2.224e-05,true,,,0xC5
"I2C","data",7.38960256,2.224e-05,true,,,0x21
"I2C","data",7.38962848,2.224e-05,true,,,0xC9
"I2C","data",7.38965408,2.224e-05,true,,,0x00
"I2C","data",7.38967984,2.24e-05,true,,,0x07
"I2C","data",7.38970544,2.24e-05,true,,,0x4A
"I2C","data",7.38973104,2.24e-05,true,,,0x41
"I2C","data",7.38975696,2.224e-05,true,,,0x43
"I2C","data",7.38978256,2.224e-05,true,,,0x10
"I2C","data",7.38980832,2.24e-05,true,,,0xB5
"I2C","data",7.38983392,2.24e-05,true,,,0x89
"I2C","data",7.38985952,2.24e-05,true,,,0x18
"I2C","data",7.38988544,2.224e-05,true,,,0xA0
"I2C","data",7.38991104,2.224e-05,true,,,0x31
"I2C","data",7.38993696,2.224e-05,true,,,0x09
"I2C","data",7.38996256,2.224e-05,true,,,0x7B
"I2C","data",7.38998816,2.224e-05,true,,,0x89
"I2C","data",7.39001392,2.224e-05,true,,,0x06
"I2C","data",7.39003952,2.224e-05,true,,,0x49
"I2C","data",7.39006544,2.224e-05,true,,,0x0F
"I2C","data",7.39009104,2.224e-05,true,,,0x04
"I2C","data",7.39011664,2.224e-05,true,,,0x29
"I2C","data",7.3901424,2.24e-05,true,,,0x03
"I2C","data",7.390168,2.24e-05,true,,,0xD0
"I2C","data",7.39019392,2.224e-05,true,,,0x01
"I2C","data",7.39021952,2.224e-05,true,,,0x21
"I2C","data",7.39024512,2.224e-05,true,,,0x01
"I2C","data",7.39027088,2.24e-05,true,,,0xF0
"I2C","data",7.39029648,2.24e-05,true,,,0x39
"I2C","data",7.3903224,2.224e-05,true,,,0xFC
"I2C","data",7.390348,2.224e-05,true,,,0x10
"I2C","data",7.3903736,2.224e-05,true,,,0xBD
"I2C","data",7.39039952,2.224e-05,true,,,0x03
"I2C","data",7.39043328,2.224e-05,true,,,0x21
"I2C","data",7.39045888,2.224e-05,true,,,0xFA
"I2C","data",7.39048448,2.224e-05,true,,,0xE7
"I2C","data",7.3905104,2.224e-05,true,,,0x90
"I2C","data",7.390536,2.224e-05,true,,,0x12
"I2C","data",7.39056176,2.24e-05,true,,,0x04
"I2C","data",7.39058736,2.24e-05,true,,,0x20
"I2C","data",7.39061296,2.24e-05,true,,,0x70
"I2C","data",7.39063888,2.224e-05,true,,,0xB5
"I2C","data",7.39066448,2.224e-05,true,,,0x3C
"I2C","data",7.39069024,2.24e-05,true,,,0x22
"I2C","data",7.39071584,2.24e-05,true,,,0xF8
"I2C","data",7.39074144,2.24e-05,true,,,0x4B
"I2C","data",7.39076736,2.224e-05,true,,,0x42
"I2C","data",7.39079296,2.224e-05,true,,,0x43
"I2C","data",7.39081888,2.224e-05,true,,,0x01
"I2C","data",7.39084448,2.224e-05,true,,,0x25
"I2C","data",7.39087008,2.224e-05,true,,,0xD4
"I2C","data",7.39089584,2.224e-05,true,,,0x18
"I2C","data",7.39092144,2.224e-05,true,,,0x65
"I2C","data",7.39094736,2.224e-05,true,,,0x70
"I2C","data",7.39097296,2.224e-05,true,,,0x01
"I2C","data",7.39099856,2.224e-05,true,,,0xF0
"I2C","data",7.39102432,2.24e-05,true,,,0x31
"I2C","data",7.39104992,2.24e-05,true,,,0xFC
"I2C","data",7.39107584,2.224e-05,true,,,0x00
"I2C","data",7.39110144,2.224e-05,true,,,0x20
"I2C","data",7.39112704,2.224e-05,true,,,0x60
"I2C","data",7.3911528,2.24e-05,true,,,0x70
"I2C","data",7.3911784,2.24e-05,true,,,0x70
"I2C","data",7.39120432,2.224e-05,true,,,0xBD
"I2C","data",7.39122992,2.224e-05,true,,,0x70
"I2C","data",7.39125552,2.224e-05,true,,,0xB5
"I2C","data",7.39128144,2.224e-05,true,,,0x3C
"I2C","data",7.39130704,2.224e-05,true,,,0x24
"I2C","data",7.3913328,2.224e-05,true,,,0xF2
"I2C","data",7.3913584,2.224e-05,true,,,0x4D
"I2C","data",7.391384,2.224e-05,true,,,0x5C
"I2C","data",7.39140992,2.224e-05,true,,,0x43
"I2C","data",7.39143568,2.24e-05,true,,,0x66
"I2C","data",7.3914616,2.224e-05,true,,,0x19
"I2C","data",7.3914872,2.224e-05,true,,,0x76
"I2C","data",7.3915128,2.224e-05,true,,,0x78
"I2C","data",7.39153856,2.24e-05,true,,,0x01
"I2C","data",7.39156416,2.24e-05,true,,,0x2E
"I2C","data",7.39159008,2.224e-05,true,,,0x07
"I2C","data",7.39161568,2.224e-05,true,,,0xD1
"I2C","data",7.39164128,2.224e-05,true,,,0x2C
"I2C","data",7.3916672,2.224e-05,true,,,0x5D
"I2C","data",7.3916928,2.224e-05,true,,,0x00
"I2C","data",7.39171856,2.224e-05,true,,,0x2C
"I2C","data",7.39174416,2.224e-05,true,,,0x04
"I2C","data",7.39176976,2.224e-05,true,,,0xD0
"I2C","data",7.39179568,2.224e-05,true,,,0x32
"I2C","data",7.39182128,2.224e-05,true,,,0x28
"I2C","data",7.39184704,2.224e-05,true,,,0x02
"I2C","data",7.39187264,2.224e-05,true,,,0xD1
"I2C","data",7.39189824,2.24e-05,true,,,0x00
"I2C","data",7.39192416,2.224e-05,true,,,0x29
"I2C","data",7.39194976,2.224e-05,true,,,0x00
"I2C","data",7.39197552,2.24e-05,true,,,0xD1
"I2C","data",7.39200112,2.24e-05,true,,,0x01
"I2C","data",7.39202672,2.24e-05,true,,,0x21
"I2C","data",7.39205264,2.224e-05,true,,,0x01
"I2C","data",7.39207824,2.224e-05,true,,,0xF0
"I2C","data",7.39210416,2.224e-05,true,,,0x22
"I2C","data",7.39212976,2.224e-05,true,,,0xFC
"I2C","data",7.39215536,2.224e-05,true,,,0x70
"I2C","data",7.39218112,2.224e-05,true,,,0xBD
"I2C","data",7.39220672,2.224e-05,true,,,0xF1
"I2C","data",7.39223264,2.224e-05,true,,,0xB5
"I2C","data",7.39225824,2.224e-05,true,,,0x92
"I2C","data",7.39228384,2.224e-05,true,,,0xB0
"I2C","data",7.3923096,2.224e-05,true,,,0x00
"I2C","data",7.3923352,2.224e-05,true,,,0x20
"I2C","data",7.39236112,2.224e-05,true,,,0x0A
"I2C","data",7.39238672,2.224e-05,true,,,0x90
"I2C","data",7.39241232,2.224e-05,true,,,0x0F
"I2C","data",7.39243792,2.224e-05,true,,,0x90
"I2C","data",7.39246368,2.24e-05,true,,,0x06
"I2C","data",7.39248992,2.224e-05,true,,,0x90
"I2C","data",7.39251552,2.224e-05,true,,,0x08
"I2C","data",7.39254112,2.224e-05,true,,,0x90
"I2C","data",7.39256688,2.224e-05,true,,,0x05
"I2C","data",7.39259248,2.224e-05,true,,,0x90
"I2C","data",7.3926184,2.224e-05,true,,,0x04
"I2C","data",7.392644,2.224e-05,true,,,0x90
"I2C","data",7.3926696,2.224e-05,true,,,0xEF
"I2C","data",7.39269536,2.224e-05,true,,,0xF3
"I2C","data",7.39272096,2.224e-05,true,,,0x10
"I2C","data",7.39274688,2.224e-05,true,,,0x80
"I2C","data",7.39277248,2.224e-05,true,,,0xC5
"I2C","data",7.39279808,2.224e-05,true,,,0x07
"I2C","data",7.39282384,2.24e-05,true,,,0xED
"I2C","data",7.39284944,2.24e-05,true,,,0x0F
"I2C","data",7.39287536,2.224e-05,true,,,0x72
"I2C","data",7.39290096,2.224e-05,true,,,0xB6
"I2C","data",7.39292656,2.224e-05,true,,,0xC5
"I2C","data",7.39295248,2.224e-05,true,,,0x21
"I2C","data",7.39297808,2.224e-05,true,,,0x12
"I2C","data",7.39300384,2.224e-05,true,,,0x98
"I2C","data",7.39302944,2.224e-05,true,,,0xC9
"I2C","data",7.39305504,2.224e-05,true,,,0x00
"I2C","data",7.39308096,2.224e-05,true,,,0x48
"I2C","data",7.39310656,2.224e-05,true,,,0x43
"I2C","data",7.39313232,2.224e-05,true,,,0xE2
"I2C","data",7.39315792,2.224e-05,true,,,0x49
"I2C","data",7.39318352,2.224e-05,true,,,0x06
"I2C","data",7.39320944,2.224e-05,true,,,0x22
"I2C","data",7.39323504,2.224e-05,true,,,0x44
"I2C","data",7.3932608,2.24e-05,true,,,0x18
"I2C","data",7.3932864,2.24e-05,true,,,0x6F
"I2C","data",7.393312,2.24e-05,true,,,0x20
"I2C","data",7.39333792,2.224e-05,true,,,0xC0
"I2C","data",7.39336352,2.224e-05,true,,,0x00
"I2C","data",7.39338928,2.24e-05,true,,,0x20
"I2C","data",7.39341488,2.24e-05,true,,,0x18
"I2C","data",7.3934408,2.224e-05,true,,,0x03
"I2C","data",7.39346672,2.224e-05,true,,,0xC8
"I2C","data",7.39349232,2.224e-05,true,,,0x02
"I2C","data",7.39351808,2.224e-05,true,,,0x90
"I2C","data",7.39354368,2.224e-05,true,,,0xDF
"I2C","data",7.39356928,2.224e-05,true,,,0x48
"I2C","data",7.3935952,2.224e-05,true,,,0x03
"I2C","data",7.3936208,2.224e-05,true,,,0x91
"I2C","data",7.39364656,2.24e-05,true,,,0x21
"I2C","data",7.39367216,2.24e-05,true,,,0x18
"I2C","data",7.39369776,2.24e-05,true,,,0x68
"I2C","data",7.39372368,2.224e-05,true,,,0x46
"I2C","data",7.39374928,2.224e-05,true,,,0x10
"I2C","data",7.39377504,2.24e-05,true,,,0x91
"I2C","data",7.39380064,2.24e-05,true,,,0x01
"I2C","data",7.39382624,2.24e-05,true,,,0xF0
"I2C","data",7.39385216,2.224e-05,true,,,0xA0
"I2C","data",7.39387776,2.224e-05,true,,,0xFB
"I2C","data",7.39390368,2.224e-05,true,,,0x68
"I2C","data",7.39392928,2.224e-05,true,,,0x46
"I2C","data",7.39395488,2.224e-05,true,,,0x00
"I2C","data",7.39398064,2.224e-05,true,,,0x7A
"I2C","data",7.39400624,2.224e-05,true,,,0x39
"I2C","data",7.39403216,2.224e-05,true,,,0x22
"I2C","data",7.39405776,2.224e-05,true,,,0x10
"I2C","data",7.39408336,2.224e-05,true,,,0x42
"I2C","data",7.39410912,2.24e-05,true,,,0x01
"I2C","data",7.39413472,2.24e-05,true,,,0xD0
"I2C","data",7.39416064,2.224e-05,true,,,0x01
"I2C","data",7.39418624,2.224e-05,true,,,0x21
"I2C","data",7.39421184,2.224e-05,true,,,0x00
"I2C","data",7.3942376,2.24e-05,true,,,0xE0
"I2C","data",7.3942632,2.24e-05,true,,,0x00
"I2C","data",7.39428912,2.224e-05,true,,,0x21
"I2C","data",7.39431472,2.224e-05,true,,,0x0F
"I2C","data",7.39434032,2.224e-05,true,,,0x20
"I2C","data",7.39436624,2.224e-05,true,,,0x80
"I2C","data",7.39439184,2.224e-05,true,,,0x01
"I2C","data",7.3944176,2.224e-05,true,,,0x20
"I2C","data",7.39444352,2.224e-05,true,,,0x18
"I2C","data",7.39446912,2.224e-05,true,,,0x0B
"I2C","data",7.39449488,2.24e-05,true,,,0x90
"I2C","data",7.39452048,2.24e-05,true,,,0x01
"I2C","data",7.3945464,2.224e-05,true,,,0x77
"I2C","data",7.394572,2.224e-05,true,,,0x68
"I2C","data",7.3945976,2.224e-05,true,,,0x46
"I2C","data",7.39462336,2.24e-05,true,,,0x00
"I2C","data",7.39464896,2.24e-05,true,,,0x78
"I2C","data",7.39467488,2.224e-05,true,,,0x39
"I2C","data",7.39470048,2.224e-05,true,,,0x21
"I2C","data",7.39472608,2.224e-05,true,,,0x08
"I2C","data",7.394752,2.224e-05,true,,,0x40
"I2C","data",7.3947776,2.224e-05,true,,,0x00
"I2C","data",7.39480336,2.224e-05,true,,,0xD0
"I2C","data",7.39482896,2.224e-05,true,,,0x01
"I2C","data",7.39485456,2.224e-05,true,,,0x20
"I2C","data",7.39488048,2.224e-05,true,,,0x0B
"I2C","data",7.39490608,2.224e-05,true,,,0x99
"I2C","data",7.39493184,2.24e-05,true,,,0xFB
"I2C","data",7.39495744,2.24e-05,true,,,0x26
"I2C","data",7.39498304,2.24e-05,true,,,0x48
"I2C","data",7.39500896,2.224e-05,true,,,0x77
"I2C","data",7.39503456,2.224e-05,true,,,0x1B
"I2C","data",7.39506032,2.24e-05,true,,,0x20
"I2C","data",7.39508592,2.24e-05,true,,,0x40
"I2C","data",7.39511152,2.24e-05,true,,,0x01
"I2C","data",7.39513744,2.224e-05,true,,,0x20
"I2C","data",7.39516304,2.224e-05,true,,,0x18
"I2C","data",7.39518896,2.224e-05,true,,,0x07
"I2C","data",7.39521456,2.224e-05,true,,,0x90
"I2C","data",7.39524016,2.224e-05,true,,,0x01
"I2C","data",7.39526592,2.224e-05,true,,,0x7E
"I2C","data",7.39529152,2.224e-05,true,,,0x42
"I2C","data",7.39531744,2.224e-05,true,,,0x7E
"I2C","data",7.39534304,2.224e-05,true,,,0xDF
"I2C","data",7.39536864,2.224e-05,true,,,0x20
"I2C","data",7.3953944,2.24e-05,true,,,0x02
"I2C","data",7.39542,2.24e-05,true,,,0x40
"I2C","data",7.39544592,2.224e-05,true,,,0x07
"I2C","data",7.39547152,2.224e-05,true,,,0x98
"I2C","data",7.39549728,2.24e-05,true,,,0x31
"I2C","data",7.39552288,2.24e-05,true,,,0x40
"I2C","data",7.3955488,2.224e-05,true,,,0x42
"I2C","data",7.39557488,2.224e-05,true,,,0x76
"I2C","data",7.39560048,2.224e-05,true,,,0x49
"I2C","data",7.39562608,2.224e-05,true,,,0x06
"I2C","data",7.395652,2.224e-05,true,,,0x49
"I2C","data",7.3956776,2.224e-05,true,,,0x0E
"I2C","data",7.39570336,2.24e-05,true,,,0x07
"I2C","data",7.39572896,2.24e-05,true,,,0x98
"I2C","data",7.39575456,2.24e-05,true,,,0x00
"I2C","data",7.39578048,2.224e-05,true,,,0x2D
"I2C","data",7.39580608,2.224e-05,true,,,0x01
"I2C","data",7.39583184,2.24e-05,true,,,0x76
"I2C","data",7.39585744,2.24e-05,true,,,0x00
"I2C","data",7.39588304,2.24e-05,true,,,0xD1
"I2C","data",7.39590896,2.224e-05,true,,,0x62
"I2C","data",7.39593456,2.224e-05,true,,,0xB6
"I2C","data",7.39596048,2.224e-05,true,,,0x02
"I2C","data",7.39598608,2.224e-05,true,,,0x98
"I2C","data",7.39601168,2.224e-05,true,,,0x00
"I2C","data",7.39603744,2.224e-05,true,,,0x99
"I2C","data",7.39606304,2.224e-05,true,,,0x88
"I2C","data",7.39608896,2.224e-05,true,,,0x42
"I2C","data",7.39611456,2.224e-05,true,,,0x32
"I2C","data",7.39614016,2.224e-05,true,,,0xD0
"I2C","data",7.39616592,2.24e-05,true,,,0x03
"I2C","data",7.39619152,2.24e-05,true,,,0x22
"I2C","data",7.39621744,2.224e-05,true,,,0x05
"I2C","data",7.39624304,2.224e-05,true,,,0x21
"I2C","data",7.39626864,2.224e-05,true,,,0x12
"I2C","data",7.3962944,2.24e-05,true,,,0x98
"I2C","data",7.39632,2.24e-05,true,,,0x01
"I2C","data",7.39634592,2.224e-05,true,,,0xF0
"I2C","data",7.39637152,2.224e-05,true,,,0xD5
"I2C","data",7.39639712,2.224e-05,true,,,0xFB
"I2C","data",7.39642304,2.224e-05,true,,,0x68
"I2C","data",7.3964488,2.224e-05,true,,,0x46
"I2C","data",7.39647472,2.224e-05,true,,,0x00
"I2C","data",7.39650032,2.224e-05,true,,,0x7A
"I2C","data",7.39652608,2.24e-05,true,,,0x41
"I2C","data",7.39655216,2.24e-05,true,,,0x07
"I2C","data",7.39657776,2.24e-05,true,,,0x22
"I2C","data",7.39660336,2.24e-05,true,,,0xD5
"I2C","data",7.39662928,2.224e-05,true,,,0x30
"I2C","data",7.39665488,2.224e-05,true,,,0x40
"I2C","data",7.3966808,2.224e-05,true,,,0x69
"I2C","data",7.3967064,2.224e-05,true,,,0x46
"I2C","data",7.396732,2.224e-05,true,,,0x08
"I2C","data",7.39675776,2.224e-05,true,,,0x72
"I2C","data",7.39678336,2.224e-05,true,,,0xFF
"I2C","data",7.39680928,2.224e-05,true,,,0x22
"I2C","data",7.39683488,2.224e-05,true,,,0x01
"I2C","data",7.39686048,2.224e-05,true,,,0x21
"I2C","data",7.39688624,2.224e-05,true,,,0x09
"I2C","data",7.39691184,2.24e-05,true,,,0xA8
"I2C","data",7.39693776,2.224e-05,true,,,0x01
"I2C","data",7.39696336,2.224e-05,true,,,0xF0
"I2C","data",7.39698896,2.224e-05,true,,,0xCF
"I2C","data",7.39701472,2.24e-05,true,,,0xFB
"I2C","data",7.39704032,2.24e-05,true,,,0xFF
"I2C","data",7.39706624,2.224e-05,true,,,0x22
"I2C","data",7.39709184,2.224e-05,true,,,0x0A
"I2C","data",7.39711744,2.224e-05,true,,,0x21
"I2C","data",7.39714336,2.224e-05,true,,,0x0C
"I2C","data",7.39716896,2.224e-05,true,,,0xA8
"I2C","data",7.39719472,2.224e-05,true,,,0x01
"I2C","data",7.39722032,2.224e-05,true,,,0xF0
"I2C","data",7.39724592,2.224e-05,true,,,0xCA
"I2C","data",7.39727184,2.224e-05,true,,,0xFB
"I2C","data",7.39729744,2.224e-05,true,,,0x0C
"I2C","data",7.3973232,2.224e-05,true,,,0xAB
"I2C","data",7.3973488,2.224e-05,true,,,0x09
"I2C","data",7.3973744,2.224e-05,true,,,0xAA
"I2C","data",7.39740032,2.224e-05,true,,,0x01
"I2C","data",7.39743136,2.224e-05,true,,,0x21
"I2C","data",7.39745696,2.224e-05,true,,,0x12
"I2C","data",7.39748256,2.224e-05,true,,,0x98
"I2C","data",7.39750848,2.224e-05,true,,,0x01
"I2C","data",7.39753408,2.224e-05,true,,,0xF0
"I2C","data",7.39755984,2.24e-05,true,,,0xCA
"I2C","data",7.39758544,2.24e-05,true,,,0xFB
"I2C","data",7.39761104,2.24e-05,true,,,0xB8
"I2C","data",7.39763696,2.224e-05,true,,,0x48
"I2C","data",7.39766256,2.224e-05,true,,,0x00
"I2C","data",7.39768832,2.24e-05,true,,,0x7E
"I2C","data",7.39771392,2.24e-05,true,,,0xC0
"I2C","data",7.39773952,2.24e-05,true,,,0x06
"I2C","data",7.39776544,2.224e-05,true,,,0x40
"I2C","data",7.39779104,2.224e-05,true,,,0x0F
"I2C","data",7.39781696,2.224e-05,true,,,0x03
"I2C","data",7.39784256,2.224e-05,true,,,0x28
"I2C","data",7.39786816,2.224e-05,true,,,0x09
"I2C","data",7.39789392,2.224e-05,true,,,0xD1
"I2C","data",7.39791952,2.224e-05,true,,,0x20
"I2C","data",7.39794544,2.224e-05,true,,,0x46
"I2C","data",7.39797104,2.224e-05,true,,,0xA0
"I2C","data",7.39799664,2.224e-05,true,,,0x30
"I2C","data",7.3980224,2.24e-05,true,,,0xC1
"I2C","data",7.398048,2.24e-05,true,,,0x7E
"I2C","data",7.39807392,2.224e-05,true,,,0xBF
"I2C","data",7.39809952,2.224e-05,true,,,0x22
"I2C","data",7.39812512,2.224e-05,true,,,0x11
"I2C","data",7.39815088,2.24e-05,true,,,0x40
"I2C","data",7.39817648,2.24e-05,true,,,0xC1
"I2C","data",7.3982024,2.224e-05,true,,,0x76
"I2C","data",7.398228,2.224e-05,true,,,0x18
"I2C","data",7.3982536,2.224e-05,true,,,0x21
"I2C","data",7.39827952,2.224e-05,true,,,0x12
"I2C","data",7.39830512,2.224e-05,true,,,0x98
"I2C","data",7.39833088,2.224e-05,true,,,0x01
"I2C","data",7.39835648,2.224e-05,true,,,0xF0
"I2C","data",7.39838208,2.224e-05,true,,,0xC0
"I2C","data",7.398408,2.224e-05,true,,,0xFB
"I2C","data",7.39843376,2.24e-05,true,,,0x68
"I2C","data",7.39845968,2.224e-05,true,,,0x46
"I2C","data",7.39848528,2.224e-05,true,,,0x00
"I2C","data",7.39851088,2.224e-05,true,,,0x7A
"I2C","data",7.39853664,2.24e-05,true,,,0x09
"I2C","data",7.39856224,2.24e-05,true,,,0x90
"I2C","data",7.39858816,2.224e-05,true,,,0x80
"I2C","data",7.39861376,2.224e-05,true,,,0x07
"I2C","data",7.39863936,2.224e-05,true,,,0x03
"I2C","data",7.39866528,2.224e-05,true,,,0xD5
"I2C","data",7.39869088,2.224e-05,true,,,0x01
"I2C","data",7.39871664,2.224e-05,true,,,0xF0
"I2C","data",7.39874224,2.224e-05,true,,,0xBF
"I2C","data",7.39876784,2.224e-05,true,,,0xFB
"I2C","data",7.39879376,2.224e-05,true,,,0x13
"I2C","data",7.39881936,2.224e-05,true,,,0xB0
"I2C","data",7.39884512,2.24e-05,true,,,0xF0
"I2C","data",7.39887072,2.24e-05,true,,,0xBD
"I2C","data",7.39889632,2.24e-05,true,,,0xC5
"I2C","data",7.39892224,2.224e-05,true,,,0x23
"I2C","data",7.39894784,2.224e-05,true,,,0x12
"I2C","data",7.3989736,2.24e-05,true,,,0x99
"I2C","data",7.3989992,2.24e-05,true,,,0xDB
"I2C","data",7.3990248,2.24e-05,true,,,0x00
"I2C","data",7.39905072,2.224e-05,true,,,0x59
"I2C","data",7.39907632,2.224e-05,true,,,0x43
"I2C","data",7.39910224,2.224e-05,true,,,0xA8
"I2C","data",7.39912784,2.224e-05,true,,,0x4B
"I2C","data",7.39915344,2.224e-05,true,,,0x1D
"I2C","data",7.3991792,2.224e-05,true,,,0x22
"I2C","data",7.3992048,2.224e-05,true,,,0x09
"I2C","data",7.39923072,2.224e-05,true,,,0x98
"I2C","data",7.39925632,2.224e-05,true,,,0x52
"I2C","data",7.39928192,2.224e-05,true,,,0x01
"I2C","data",7.39930768,2.24e-05,true,,,0xCD
"I2C","data",7.39933328,2.24e-05,true,,,0x18
"I2C","data",7.3993592,2.224e-05,true,,,0xAF
"I2C","data",7.3993848,2.224e-05,true,,,0x18
"I2C","data",7.3994104,2.224e-05,true,,,0xC0
"I2C","data",7.399436,2.224e-05,true,,,0x09
"I2C","data",7.39946176,2.24e-05,true,,,0xC0
"I2C","data",7.399488,2.224e-05,true,,,0x35
"I2C","data",7.3995136,2.224e-05,true,,,0x00
"I2C","data",7.3995392,2.224e-05,true,,,0x28
"I2C","data",7.39956496,2.224e-05,true,,,0x04
"I2C","data",7.39959056,2.224e-05,true,,,0xD0
"I2C","data",7.39961648,2.224e-05,true,,,0x01
"I2C","data",7.39964208,2.224e-05,true,,,0x20
"I2C","data",7.39966768,2.224e-05,true,,,0x08
"I2C","data",7.39969344,2.24e-05,true,,,0x90
"I2C","data",7.39971904,2.24e-05,true,,,0x28
"I2C","data",7.39974496,2.224e-05,true,,,0x20
"I2C","data",7.39977056,2.224e-05,true,,,0xB8
"I2C","data",7.39979616,2.224e-05,true,,,0x74
"I2C","data",7.39982192,2.24e-05,true,,,0x6B
"I2C","data",7.39984752,2.24e-05,true,,,0xE0
"I2C","data",7.39987344,2.224e-05,true,,,0x68
"I2C","data",7.39989904,2.224e-05,true,,,0x46
"I2C","data",7.39992464,2.224e-05,true,,,0x00
"I2C","data",7.39995056,2.224e-05,true,,,0x78
"I2C","data",7.39997616,2.224e-05,true,,,0x40
"I2C","data",7.40000192,2.224e-05,true,,,0x06
"I2C","data",7.40002752,2.224e-05,true,,,0xC1
"I2C","data",7.40005312,2.224e-05,true,,,0x0F
"I2C","data",7.40007904,2.224e-05,true,,,0x09
"I2C","data",7.40010464,2.224e-05,true,,,0x98
"I2C","data",7.4001304,2.24e-05,true,,,0x40
"I2C","data",7.400156,2.24e-05,true,,,0x06
"I2C","data",7.4001816,2.24e-05,true,,,0xC0
"I2C","data",7.40020752,2.224e-05,true,,,0x0F
"I2C","data",7.40023312,2.224e-05,true,,,0x81
"I2C","data",7.40025888,2.24e-05,true,,,0x42
"I2C","data",7.40028448,2.24e-05,true,,,0x04
"I2C","data",7.40031008,2.24e-05,true,,,0xD0
"I2C","data",7.400336,2.224e-05,true,,,0x09
"I2C","data",7.4003616,2.224e-05,true,,,0x98
"I2C","data",7.40038752,2.224e-05,true,,,0x40
"I2C","data",7.40041312,2.224e-05,true,,,0x06
"I2C","data",7.40043888,2.224e-05,true,,,0x01
"I2C","data",7.40046448,2.224e-05,true,,,0xD5
"I2C","data",7.40049008,2.224e-05,true,,,0x01
"I2C","data",7.400516,2.224e-05,true,,,0x20
"I2C","data",7.4005416,2.224e-05,true,,,0x0F
"I2C","data",7.40056736,2.24e-05,true,,,0x90
"I2C","data",7.40059296,2.24e-05,true,,,0x21
"I2C","data",7.40061856,2.24e-05,true,,,0x20
"I2C","data",7.40064448,2.224e-05,true,,,0x00
"I2C","data",7.40067008,2.224e-05,true,,,0x5D
"I2C","data",7.40069584,2.24e-05,true,,,0x40
"I2C","data",7.40072144,2.24e-05,true,,,0x06
"I2C","data",7.40074704,2.24e-05,true,,,0x59
"I2C","data",7.40077296,2.224e-05,true,,,0xD5
"I2C","data",7.40079856,2.224e-05,true,,,0x05
"I2C","data",7.40082448,2.224e-05,true,,,0x20
"I2C","data",7.40085008,2.224e-05,true,,,0xC0
"I2C","data",7.40087568,2.224e-05,true,,,0x01
"I2C","data",7.40090144,2.224e-05,true,,,0x20
"I2C","data",7.40092704,2.224e-05,true,,,0x18
"I2C","data",7.40095296,2.224e-05,true,,,0x40
"I2C","data",7.40097856,2.224e-05,true,,,0x69
"I2C","data",7.40100416,2.224e-05,true,,,0x80
"I2C","data",7.40102992,2.24e-05,true,,,0x01
"I2C","data",7.40105552,2.24e-05,true,,,0x53
"I2C","data",7.40108144,2.224e-05,true,,,0xD5
"I2C","data",7.40110704,2.224e-05,true,,,0x68
"I2C","data",7.40113264,2.224e-05,true,,,0x78
"I2C","data",7.4011584,2.24e-05,true,,,0xC0
"I2C","data",7.401184,2.24e-05,true,,,0x07
"I2C","data",7.40120992,2.224e-05,true,,,0x50
"I2C","data",7.40123552,2.224e-05,true,,,0xD0
"I2C","data",7.40126112,2.224e-05,true,,,0x69
"I2C","data",7.40128704,2.224e-05,true,,,0x46
"I2C","data",7.40131264,2.224e-05,true,,,0x48
"I2C","data",7.4013384,2.224e-05,true,,,0x78
"I2C","data",7.401364,2.224e-05,true,,,0x0C
"I2C","data",7.4013896,2.224e-05,true,,,0x90
"I2C","data",7.40141552,2.224e-05,true,,,0x4E
"I2C","data",7.40144128,2.224e-05,true,,,0x7A
"I2C","data",7.4014672,2.224e-05,true,,,0x80
"I2C","data",7.4014928,2.224e-05,true,,,0x06
"I2C","data",7.4015184,2.224e-05,true,,,0xB1
"I2C","data",7.40154416,2.24e-05,true,,,0x06
"I2C","data",7.40156976,2.24e-05,true,,,0xC0
"I2C","data",7.40159568,2.224e-05,true,,,0x0F
"I2C","data",7.40162128,2.224e-05,true,,,0xC9
"I2C","data",7.40164688,2.224e-05,true,,,0x0F
"I2C","data",7.4016728,2.224e-05,true,,,0x88
"I2C","data",7.4016984,2.224e-05,true,,,0x42
"I2C","data",7.40172416,2.224e-05,true,,,0x1C
"I2C","data",7.40174976,2.224e-05,true,,,0xD0
"I2C","data",7.40177536,2.224e-05,true,,,0xB0
"I2C","data",7.40180128,2.224e-05,true,,,0x06
"I2C","data",7.40182688,2.224e-05,true,,,0x11
"I2C","data",7.40185264,2.224e-05,true,,,0xD5
"I2C","data",7.40187824,2.224e-05,true,,,0x04
"I2C","data",7.40190384,2.224e-05,true,,,0x22
"I2C","data",7.40192976,2.224e-05,true,,,0x05
"I2C","data",7.40195536,2.224e-05,true,,,0x21
"I2C","data",7.40198112,2.24e-05,true,,,0x12
"I2C","data",7.40200672,2.24e-05,true,,,0x98
"I2C","data",7.40203232,2.24e-05,true,,,0x01
"I2C","data",7.40205824,2.224e-05,true,,,0xF0
"I2C","data",7.40208384,2.224e-05,true,,,0x66
"I2C","data",7.40210976,2.224e-05,true,,,0xFB
"I2C","data",7.40213536,2.224e-05,true,,,0x68
"I2C","data",7.40216096,2.224e-05,true,,,0x78
"I2C","data",7.40218672,2.224e-05,true,,,0xBF
"I2C","data",7.40221232,2.224e-05,true,,,0x21
"I2C","data",7.40223824,2.224e-05,true,,,0x08
"I2C","data",7.40226384,2.224e-05,true,,,0x40
"I2C","data",7.40228944,2.224e-05,true,,,0x0B
"I2C","data",7.4023152,2.224e-05,true,,,0x21
"I2C","data",7.4023408,2.224e-05,true,,,0x68
"I2C","data",7.40236672,2.224e-05,true,,,0x70
"I2C","data",7.40239232,2.224e-05,true,,,0x89
"I2C","data",7.40241792,2.224e-05,true,,,0x01
"I2C","data",7.40244352,2.224e-05,true,,,0x01
"I2C","data",7.40246928,2.24e-05,true,,,0x20
"I2C","data",7.40249552,2.224e-05,true,,,0x61
"I2C","data",7.40252112,2.224e-05,true,,,0x18
"I2C","data",7.40254672,2.224e-05,true,,,0xC8
"I2C","data",7.40257248,2.224e-05,true,,,0x76
"I2C","data",7.40259808,2.224e-05,true,,,0x12
"I2C","data",7.402624,2.224e-05,true,,,0x98
"I2C","data",7.4026496,2.224e-05,true,,,0x01
"I2C","data",7.4026752,2.224e-05,true,,,0xF0
"I2C","data",7.40270096,2.224e-05,true,,,0x78
"I2C","data",7.40272656,2.224e-05,true,,,0xFB
"I2C","data",7.40275248,2.224e-05,true,,,0x07
"I2C","data",7.40277808,2.224e-05,true,,,0xE0
"I2C","data",7.40280368,2.224e-05,true,,,0x04
"I2C","data",7.40282944,2.24e-05,true,,,0x22
"I2C","data",7.40285504,2.24e-05,true,,,0x05
"I2C","data",7.40288096,2.224e-05,true,,,0x21
"I2C","data",7.40290656,2.224e-05,true,,,0x12
"I2C","data",7.40293216,2.224e-05,true,,,0x98
"I2C","data",7.40295808,2.224e-05,true,,,0x01
"I2C","data",7.40298352,2.24e-05,true,,,0xF0
"I2C","data",7.40300944,2.224e-05,true,,,0x54
"I2C","data",7.40303504,2.224e-05,true,,,0xFB
"I2C","data",7.40306064,2.224e-05,true,,,0x12
"I2C","data",7.40308656,2.224e-05,true,,,0x98
"I2C","data",7.40311216,2.224e-05,true,,,0x01
"I2C","data",7.40313792,2.224e-05,true,,,0xF0
"I2C","data",7.40316352,2.224e-05,true,,,0x75
"I2C","data",7.40318912,2.224e-05,true,,,0xFB
"I2C","data",7.40321504,2.224e-05,true,,,0x06
"I2C","data",7.40324064,2.224e-05,true,,,0x90
"I2C","data",7.4032664,2.24e-05,true,,,0x0C
"I2C","data",7.403292,2.24e-05,true,,,0x98
"I2C","data",7.4033176,2.24e-05,true,,,0x71
"I2C","data",7.40334352,2.224e-05,true,,,0x06
"I2C","data",7.40336912,2.224e-05,true,,,0x40
"I2C","data",7.40339488,2.24e-05,true,,,0x06
"I2C","data",7.40342048,2.24e-05,true,,,0xC0
"I2C","data",7.4034464,2.224e-05,true,,,0x0F
"I2C","data",7.40347232,2.224e-05,true,,,0xC9
"I2C","data",7.40349792,2.224e-05,true,,,0x0F
"I2C","data",7.40352368,2.224e-05,true,,,0x88
"I2C","data",7.40354928,2.224e-05,true,,,0x42
"I2C","data",7.40357488,2.224e-05,true,,,0x12
"I2C","data",7.4036008,2.224e-05,true,,,0xD0
"I2C","data",7.4036264,2.224e-05,true,,,0x07
"I2C","data",7.40365216,2.24e-05,true,,,0x22
"I2C","data",7.40367776,2.24e-05,true,,,0x04
"I2C","data",7.40370336,2.24e-05,true,,,0x21
"I2C","data",7.40372928,2.224e-05,true,,,0x12
"I2C","data",7.40375488,2.224e-05,true,,,0x98
"I2C","data",7.40378064,2.24e-05,true,,,0x01
"I2C","data",7.40380624,2.24e-05,true,,,0xF0
"I2C","data",7.40383184,2.24e-05,true,,,0x44
"I2C","data",7.40385776,2.224e-05,true,,,0xFB
"I2C","data",7.40388336,2.224e-05,true,,,0x70
"I2C","data",7.40390928,2.224e-05,true,,,0x06
"I2C","data",7.40393488,2.224e-05,true,,,0x01
"I2C","data",7.40396048,2.224e-05,true,,,0xD5
"I2C","data",7.40398624,2.224e-05,true,,,0x20
"I2C","data",7.40401184,2.224e-05,true,,,0x20
"I2C","data",7.40403776,2.224e-05,true,,,0x18
"I2C","data",7.40406336,2.224e-05,true,,,0xE0
"I2C","data",7.40408896,2.224e-05,true,,,0xDF
"I2C","data",7.40411472,2.24e-05,true,,,0x20
"I2C","data",7.40414032,2.24e-05,true,,,0x06
"I2C","data",7.40416624,2.224e-05,true,,,0x40
"I2C","data",7.40419184,2.224e-05,true,,,0x69
"I2C","data",7.40421744,2.224e-05,true,,,0x46
"I2C","data",7.4042432,2.24e-05,true,,,0x4E
"I2C","data",7.4042688,2.24e-05,true,,,0x72
"I2C","data",7.40429472,2.224e-05,true,,,0x69
"I2C","data",7.40432032,2.224e-05,true,,,0x78
"I2C","data",7.40434592,2.224e-05,true,,,0x01
"I2C","data",7.40437184,2.224e-05,true,,,0x40
"I2C","data",7.40439744,2.224e-05,true,,,0x69
"I2C","data",7.4044232,2.224e-05,true,,,0x70
"I2C","data",7.40444912,2.224e-05,true,,,0x01
"I2C","data",7.40447472,2.224e-05,true,,,0x20
"I2C","data",7.40450048,2.24e-05,true,,,0x06
"I2C","data",7.40452608,2.24e-05,true,,,0x90
"I2C","data",7.404552,2.224e-05,true,,,0x0F
"I2C","data",7.40457808,2.224e-05,true,,,0xE0
"I2C","data",7.40460368,2.224e-05,true,,,0x0C
"I2C","data",7.40462928,2.224e-05,true,,,0x98
"I2C","data",7.4046552,2.224e-05,true,,,0xF1
"I2C","data",7.4046808,2.224e-05,true,,,0x09
"I2C","data",7.40470656,2.224e-05,true,,,0xC0
"I2C","data",7.40473216,2.224e-05,true,,,0x09
"I2C","data",7.40475776,2.224e-05,true,,,0x88
"I2C","data",7.40478368,2.224e-05,true,,,0x42
"I2C","data",7.40480928,2.224e-05,true,,,0x0A
"I2C","data",7.40483504,2.24e-05,true,,,0xD0
"I2C","data",7.40486064,2.24e-05,true,,,0x08
"I2C","data",7.40488624,2.24e-05,true,,,0x22
"I2C","data",7.40491216,2.224e-05,true,,,0x04
"I2C","data",7.40493776,2.224e-05,true,,,0x21
"I2C","data",7.40496352,2.24e-05,true,,,0x12
"I2C","data",7.40498912,2.24e-05,true,,,0x98
"I2C","data",7.40501472,2.24e-05,true,,,0x01
"I2C","data",7.40504064,2.224e-05,true,,,0xF0
"I2C","data",7.40506624,2.224e-05,true,,,0x2C
"I2C","data",7.40509216,2.224e-05,true,,,0xFB
"I2C","data",7.40511776,2.224e-05,true,,,0xF0
"I2C","data",7.40514336,2.224e-05,true,,,0x09
"I2C","data",7.40516912,2.224e-05,true,,,0x01
"I2C","data",7.40519472,2.224e-05,true,,,0xD0
"I2C","data",7.40522064,2.224e-05,true,,,0x10
"I2C","data",7.40524624,2.224e-05,true,,,0x20
"I2C","data",7.40527184,2.224e-05,true,,,0x00
"I2C","data",7.4052976,2.24e-05,true,,,0xE0
"I2C","data",7.4053232,2.24e-05,true,,,0x08
"I2C","data",7.40534912,2.224e-05,true,,,0x20
"I2C","data",7.40537472,2.224e-05,true,,,0x04
"I2C","data",7.40540032,2.224e-05,true,,,0x90
"I2C","data",7.4054344,2.224e-05,true,,,0x6C
"I2C","data",7.40546,2.224e-05,true,,,0x4E
"I2C","data",7.4054856,2.224e-05,true,,,0x30
"I2C","data",7.40551152,2.224e-05,true,,,0x7E
"I2C","data",7.40553712,2.224e-05,true,,,0xC0
"I2C","data",7.40556288,2.224e-05,true,,,0x06
"I2C","data",7.40558848,2.224e-05,true,,,0x40
"I2C","data",7.40561408,2.224e-05,true,,,0x0F
"I2C","data",7.40564,2.224e-05,true,,,0x04
"I2C","data",7.4056656,2.224e-05,true,,,0x28
"I2C","data",7.40569136,2.24e-05,true,,,0x30
"I2C","data",7.40571696,2.24e-05,true,,,0xD3
"I2C","data",7.40574256,2.24e-05,true,,,0x68
"I2C","data",7.40576848,2.224e-05,true,,,0x46
"I2C","data",7.40579408,2.224e-05,true,,,0x40
"I2C","data",7.40581984,2.24e-05,true,,,0x78
"I2C","data",7.40584544,2.24e-05,true,,,0xC0
"I2C","data",7.40587104,2.24e-05,true,,,0x06
"I2C","data",7.40589696,2.224e-05,true,,,0xC1
"I2C","data",7.40592256,2.224e-05,true,,,0x0F
"I2C","data",7.40594848,2.224e-05,true,,,0x68
"I2C","data",7.40597408,2.224e-05,true,,,0x46
"I2C","data",7.40599968,2.224e-05,true,,,0x40
"I2C","data",7.40602544,2.224e-05,true,,,0x7A
"I2C","data",7.40605104,2.224e-05,true,,,0xC2
"I2C","data",7.40607696,2.224e-05,true,,,0x06
"I2C","data",7.40610256,2.224e-05,true,,,0xD2
"I2C","data",7.40612816,2.224e-05,true,,,0x0F
"I2C","data",7.40615392,2.24e-05,true,,,0x91
"I2C","data",7.40617952,2.24e-05,true,,,0x42
"I2C","data",7.40620544,2.224e-05,true,,,0x26
"I2C","data",7.40623104,2.224e-05,true,,,0xD0
"I2C","data",7.40625664,2.224e-05,true,,,0xC0
"I2C","data",7.4062824,2.24e-05,true,,,0x06
"I2C","data",7.406308,2.24e-05,true,,,0x11
"I2C","data",7.40633392,2.224e-05,true,,,0xD5
"I2C","data",7.40635952,2.224e-05,true,,,0x00
"I2C","data",7.40638512,2.224e-05,true,,,0x21
"I2C","data",7.40641104,2.224e-05,true,,,0x77
"I2C","data",7.4064368,2.224e-05,true,,,0x20
"I2C","data",7.40646272,2.224e-05,true,,,0x12
"I2C","data",7.40648832,2.224e-05,true,,,0x9A
"I2C","data",7.40651408,2.24e-05,true,,,0x01
"I2C","data",7.40654016,2.24e-05,true,,,0xF0
"I2C","data",7.40656576,2.24e-05,true,,,0x39
"I2C","data",7.40659136,2.24e-05,true,,,0xFB
"I2C","data",7.40661728,2.224e-05,true,,,0xFF
"I2C","data",7.40664288,2.224e-05,true,,,0x28
"I2C","data",7.4066688,2.224e-05,true,,,0x1B
"I2C","data",7.4066944,2.224e-05,true,,,0xD0
"I2C","data",7.40672,2.224e-05,true,,,0x01
"I2C","data",7.40674576,2.224e-05,true,,,0x28
"I2C","data",7.40677136,2.224e-05,true,,,0x19
"I2C","data",7.40679728,2.224e-05,true,,,0xD1
"I2C","data",7.40682288,2.224e-05,true,,,0x68
"I2C","data",7.40684848,2.224e-05,true,,,0x78
"I2C","data",7.40687424,2.224e-05,true,,,0x10
"I2C","data",7.40689984,2.224e-05,true,,,0x21
"I2C","data",7.40692576,2.224e-05,true,,,0x08
"I2C","data",7.40695136,2.224e-05,true,,,0x43
"I2C","data",7.40697696,2.224e-05,true,,,0x68
"I2C","data",7.40700272,2.24e-05,true,,,0x70
"I2C","data",7.40702832,2.24e-05,true,,,0x04
"I2C","data",7.40705424,2.224e-05,true,,,0x21
"I2C","data",7.40707984,2.224e-05,true,,,0x12
"I2C","data",7.40710544,2.224e-05,true,,,0x98
"I2C","data",7.40713136,2.224e-05,true,,,0x01
"I2C","data",7.40715696,2.224e-05,true,,,0xF0
"I2C","data",7.40718272,2.224e-05,true,,,0x33
"I2C","data",7.40720832,2.224e-05,true,,,0xFB
"I2C","data",7.40723392,2.224e-05,true,,,0x10
"I2C","data",7.40725984,2.224e-05,true,,,0xE0
"I2C","data",7.40728544,2.224e-05,true,,,0x0B
"I2C","data",7.4073112,2.224e-05,true,,,0x98
"I2C","data",7.4073368,2.224e-05,true,,,0x00
"I2C","data",7.4073624,2.224e-05,true,,,0x79
"I2C","data",7.40738832,2.224e-05,true,,,0x00
"I2C","data",7.40741392,2.224e-05,true,,,0x28
"I2C","data",7.40744,2.224e-05,true,,,0x0C
"I2C","data",7.4074656,2.224e-05,true,,,0xD1
"I2C","data",7.4074912,2.224e-05,true,,,0x12
"I2C","data",7.40751712,2.224e-05,true,,,0x98
"I2C","data",7.40754272,2.224e-05,true,,,0x01
"I2C","data",7.40756848,2.224e-05,true,,,0xF0
"I2C","data",7.40759408,2.224e-05,true,,,0x31
"I2C","data",7.40761968,2.224e-05,true,,,0xFB
"I2C","data",7.4076456,2.224e-05,true,,,0x00
"I2C","data",7.4076712,2.224e-05,true,,,0x28
"I2C","data",7.40769696,2.224e-05,true,,,0x07
"I2C","data",7.40772256,2.224e-05,true,,,0xD0
"I2C","data",7.40774816,2.224e-05,true,,,0x33
"I2C","data",7.40777408,2.224e-05,true,,,0x20
"I2C","data",7.40779968,2.224e-05,true,,,0xB8
"I2C","data",7.40782544,2.24e-05,true,,,0x74
"I2C","data",7.40785104,2.24e-05,true,,,0x68
"I2C","data",7.40787664,2.24e-05,true,,,0x78
"I2C","data",7.40790256,2.224e-05,true,,,0xEF
"I2C","data",7.40792816,2.224e-05,true,,,0x21
"I2C","data",7.40795392,2.24e-05,true,,,0x08
"I2C","data",7.40797952,2.24e-05,true,,,0x40
"I2C","data",7.40800512,2.24e-05,true,,,0x68
"I2C","data",7.40803104,2.224e-05,true,,,0x70
"I2C","data",7.40805664,2.224e-05,true,,,0x01
"I2C","data",7.40808256,2.224e-05,true,,,0x20
"I2C","data",7.40810816,2.224e-05,true,,,0x08
"I2C","data",7.40813376,2.224e-05,true,,,0x90
"I2C","data",7.40815952,2.224e-05,true,,,0x01
"I2C","data",7.40818512,2.224e-05,true,,,0x20
"I2C","data",7.40821104,2.224e-05,true,,,0x06
"I2C","data",7.40823664,2.224e-05,true,,,0x90
"I2C","data",7.40826224,2.224e-05,true,,,0xE0
"I2C","data",7.408288,2.24e-05,true,,,0x7E
"I2C","data",7.4083136,2.24e-05,true,,,0x80
"I2C","data",7.40833952,2.224e-05,true,,,0x07
"I2C","data",7.40836512,2.224e-05,true,,,0x30
"I2C","data",7.40839072,2.224e-05,true,,,0x7E
"I2C","data",7.40841648,2.24e-05,true,,,0x0F
"I2C","data",7.4084424,2.224e-05,true,,,0xD4
"I2C","data",7.40846832,2.224e-05,true,,,0xC0
"I2C","data",7.40849392,2.224e-05,true,,,0x06
"I2C","data",7.40851952,2.224e-05,true,,,0x40
"I2C","data",7.40854528,2.224e-05,true,,,0x0F
"I2C","data",7.40857088,2.224e-05,true,,,0x04
"I2C","data",7.4085968,2.224e-05,true,,,0x28
"I2C","data",7.4086224,2.224e-05,true,,,0x27
"I2C","data",7.408648,2.224e-05,true,,,0xD3
"I2C","data",7.40867376,2.24e-05,true,,,0x6A
"I2C","data",7.40869936,2.24e-05,true,,,0x46
"I2C","data",7.40872528,2.224e-05,true,,,0x11
"I2C","data",7.40875088,2.224e-05,true,,,0x88
"I2C","data",7.40877648,2.224e-05,true,,,0x39
"I2C","data",7.40880224,2.24e-05,true,,,0x20
"I2C","data",7.40882784,2.24e-05,true,,,0x12
"I2C","data",7.40885376,2.224e-05,true,,,0x89
"I2C","data",7.40887936,2.224e-05,true,,,0x01
"I2C","data",7.40890496,2.224e-05,true,,,0x40
"I2C","data",7.40893088,2.224e-05,true,,,0x02
"I2C","data",7.40895648,2.224e-05,true,,,0x40
"I2C","data",7.40898224,2.224e-05,true,,,0x91
"I2C","data",7.40900784,2.224e-05,true,,,0x42
"I2C","data",7.40903344,2.224e-05,true,,,0x07
"I2C","data",7.40905936,2.224e-05,true,,,0xD0
"I2C","data",7.40908496,2.224e-05,true,,,0x01
"I2C","data",7.40911072,2.24e-05,true,,,0x20
"I2C","data",7.40913632,2.24e-05,true,,,0x05
"I2C","data",7.40916192,2.24e-05,true,,,0x90
"I2C","data",7.40918784,2.224e-05,true,,,0x0A
"I2C","data",7.40921344,2.224e-05,true,,,0x90
"I2C","data",7.4092392,2.24e-05,true,,,0x03
"I2C","data",7.4092648,2.24e-05,true,,,0xE0
"I2C","data",7.4092904,2.24e-05,true,,,0xC0
"I2C","data",7.40931632,2.224e-05,true,,,0x06
"I2C","data",7.40934192,2.224e-05,true,,,0x40
"I2C","data",7.40936784,2.224e-05,true,,,0x0F
"I2C","data",7.40939344,2.224e-05,true,,,0x04
"I2C","data",7.40941904,2.224e-05,true,,,0x28
"I2C","data",7.40944464,2.224e-05,true,,,0x17
"I2C","data",7.4094704,2.224e-05,true,,,0xD3
"I2C","data",7.40949648,2.24e-05,true,,,0x68
"I2C","data",7.40952208,2.24e-05,true,,,0x46
"I2C","data",7.40954768,2.24e-05,true,,,0x80
"I2C","data",7.4095736,2.224e-05,true,,,0x78
"I2C","data",7.4095992,2.224e-05,true,,,0x40
"I2C","data",7.40962496,2.24e-05,true,,,0x07
"I2C","data",7.40965056,2.24e-05,true,,,0xC1
"I2C","data",7.40967616,2.24e-05,true,,,0x0F
"I2C","data",7.40970208,2.224e-05,true,,,0x68
"I2C","data",7.40972768,2.224e-05,true,,,0x46
"I2C","data",7.4097536,2.224e-05,true,,,0x80
"I2C","data",7.4097792,2.224e-05,true,,,0x7A
"I2C","data",7.4098048,2.224e-05,true,,,0x42
"I2C","data",7.40983056,2.224e-05,true,,,0x07
"I2C","data",7.40985616,2.224e-05,true,,,0xD2
"I2C","data",7.40988208,2.224e-05,true,,,0x0F
"I2C","data",7.40990768,2.224e-05,true,,,0x91
"I2C","data",7.40993328,2.224e-05,true,,,0x42
"I2C","data",7.40995904,2.24e-05,true,,,0x0D
"I2C","data",7.40998464,2.24e-05,true,,,0xD0
"I2C","data",7.41001056,2.224e-05,true,,,0x40
"I2C","data",7.41003616,2.224e-05,true,,,0x07
"I2C","data",7.41006176,2.224e-05,true,,,0x0B
"I2C","data",7.41008752,2.24e-05,true,,,0xD5
"I2C","data",7.41011312,2.24e-05,true,,,0x2F
"I2C","data",7.41013904,2.224e-05,true,,,0x20
"I2C","data",7.41016464,2.224e-05,true,,,0x40
"I2C","data",7.41019024,2.224e-05,true,,,0x01
"I2C","data",7.41021616,2.224e-05,true,,,0x21
"I2C","data",7.41024176,2.224e-05,true,,,0x18
"I2C","data",7.41026752,2.224e-05,true,,,0x88
"I2C","data",7.41029312,2.224e-05,true,,,0x7E
"I2C","data",7.41031872,2.224e-05,true,,,0xC2
"I2C","data",7.41034464,2.224e-05,true,,,0x07
"I2C","data",7.41037024,2.224e-05,true,,,0x05
"I2C","data",7.410396,2.24e-05,true,,,0xD0
"I2C","data",7.4104216,2.24e-05,true,,,0x40
"I2C","data",7.41044752,2.224e-05,true,,,0x08
"I2C","data",7.41047312,2.224e-05,true,,,0x40
"I2C","data",7.41049888,2.24e-05,true,,,0x00
"I2C","data",7.41052512,2.224e-05,true,,,0x88
"I2C","data",7.41055072,2.224e-05,true,,,0x76
"I2C","data",7.41057632,2.224e-05,true,,,0x12
"I2C","data",7.41060208,2.224e-05,true,,,0x98
"I2C","data",7.41062768,2.224e-05,true,,,0x01
"I2C","data",7.4106536,2.224e-05,true,,,0xF0
"I2C","data",7.4106792,2.224e-05,true,,,0xFB
"I2C","data",7.4107048,2.224e-05,true,,,0xFA
"I2C","data",7.41073056,2.24e-05,true,,,0x12
"I2C","data",7.41075616,2.24e-05,true,,,0x99
"I2C","data",7.41078208,2.224e-05,true,,,0x0F
"I2C","data",7.41080768,2.224e-05,true,,,0x98
"I2C","data",7.41083328,2.224e-05,true,,,0x8D
"I2C","data",7.41085904,2.24e-05,true,,,0x00
"I2C","data",7.41088464,2.24e-05,true,,,0x38
"I2C","data",7.41091056,2.224e-05,true,,,0x4E
"I2C","data",7.41093616,2.224e-05,true,,,0x00
"I2C","data",7.41096176,2.224e-05,true,,,0x28
"I2C","data",7.41098768,2.224e-05,true,,,0x14
"I2C","data",7.41101328,2.224e-05,true,,,0xD0
"I2C","data",7.41103904,2.224e-05,true,,,0xFF
"I2C","data",7.41106464,2.224e-05,true,,,0x20
"I2C","data",7.41109024,2.224e-05,true,,,0xD3
"I2C","data",7.41111616,2.224e-05,true,,,0x30
"I2C","data",7.41114176,2.224e-05,true,,,0x00
"I2C","data",7.41116752,2.24e-05,true,,,0x5D
"I2C","data",7.41119312,2.24e-05,true,,,0x02
"I2C","data",7.41121872,2.24e-05,true,,,0x28
"I2C","data",7.41124464,2.224e-05,true,,,0x0B
"I2C","data",7.41127024,2.224e-05,true,,,0xD1
"I2C","data",7.411296,2.24e-05,true,,,0x70
"I2C","data",7.4113216,2.24e-05,true,,,0x59
"I2C","data",7.4113472,2.24e-05,true,,,0x00
"I2C","data",7.41137312,2.224e-05,true,,,0x28
"I2C","data",7.41139872,2.224e-05,true,,,0x08
"I2C","data",7.41142464,2.224e-05,true,,,0xD0
"I2C","data",7.4114504,2.224e-05,true,,,0x03
"I2C","data",7.41147632,2.224e-05,true,,,0x20
"I2C","data",7.4115024,2.224e-05,true,,,0x78
"I2C","data",7.411528,2.224e-05,true,,,0x74
"I2C","data",7.4115536,2.224e-05,true,,,0x09
"I2C","data",7.41157936,2.24e-05,true,,,0x21
"I2C","data",7.41160496,2.24e-05,true,,,0x01
"I2C","data",7.41163088,2.224e-05,true,,,0x20
"I2C","data",7.41165648,2.224e-05,true,,,0x89
"I2C","data",7.41168208,2.224e-05,true,,,0x01
"I2C","data",7.411708,2.224e-05,true,,,0x61
"I2C","data",7.4117336,2.224e-05,true,,,0x18
"I2C","data",7.41175936,2.224e-05,true,,,0xC8
"I2C","data",7.41178496,2.224e-05,true,,,0x71
"I2C","data",7.41181056,2.224e-05,true,,,0x0A
"I2C","data",7.41183648,2.224e-05,true,,,0x90
"I2C","data",7.41186208,2.224e-05,true,,,0x03
"I2C","data",7.41188784,2.224e-05,true,,,0xE0
"I2C","data",7.41191344,2.224e-05,true,,,0x29
"I2C","data",7.41193904,2.224e-05,true,,,0x20
"I2C","data",7.41196496,2.224e-05,true,,,0xB8
"I2C","data",7.41199056,2.224e-05,true,,,0x74
"I2C","data",7.41201632,2.24e-05,true,,,0x01
"I2C","data",7.41204192,2.24e-05,true,,,0x20
"I2C","data",7.41206752,2.24e-05,true,,,0x08
"I2C","data",7.41209344,2.224e-05,true,,,0x90
"I2C","data",7.41211904,2.224e-05,true,,,0xEF
"I2C","data",7.41214496,2.224e-05,true,,,0xF3
"I2C","data",7.41217056,2.224e-05,true,,,0x10
"I2C","data",7.41219616,2.224e-05,true,,,0x80
"I2C","data",7.41222192,2.224e-05,true,,,0xC0
"I2C","data",7.41224752,2.224e-05,true,,,0x07
"I2C","data",7.41227344,2.224e-05,true,,,0xC0
"I2C","data",7.41229904,2.224e-05,true,,,0x0F
"I2C","data",7.41232464,2.224e-05,true,,,0x72
"I2C","data",7.4123504,2.224e-05,true,,,0xB6
"I2C","data",7.412376,2.224e-05,true,,,0x0C
"I2C","data",7.41240192,2.224e-05,true,,,0x90
"I2C","data",7.41243248,2.224e-05,true,,,0x05
"I2C","data",7.41245808,2.224e-05,true,,,0x98
"I2C","data",7.412484,2.224e-05,true,,,0x00
"I2C","data",7.41251008,2.224e-05,true,,,0x28
"I2C","data",7.41253568,2.224e-05,true,,,0x02
"I2C","data",7.41256128,2.224e-05,true,,,0xD0
"I2C","data",7.41258704,2.24e-05,true,,,0x12
"I2C","data",7.41261264,2.24e-05,true,,,0x98
"I2C","data",7.41263856,2.224e-05,true,,,0x01
"I2C","data",7.41266416,2.224e-05,true,,,0xF0
"I2C","data",7.41268976,2.224e-05,true,,,0xDA
"I2C","data",7.41271552,2.24e-05,true,,,0xFA
"I2C","data",7.41274112,2.24e-05,true,,,0x08
"I2C","data",7.41276704,2.224e-05,true,,,0x98
"I2C","data",7.41279264,2.224e-05,true,,,0x00
"I2C","data",7.41281824,2.224e-05,true,,,0x28
"I2C","data",7.41284416,2.224e-05,true,,,0x1A
"I2C","data",7.41286976,2.224e-05,true,,,0xD0
"I2C","data",7.41289552,2.224e-05,true,,,0x09
"I2C","data",7.41292112,2.224e-05,true,,,0x98
"I2C","data",7.41294672,2.224e-05,true,,,0x6A
"I2C","data",7.41297264,2.224e-05,true,,,0x46
"I2C","data",7.41299824,2.224e-05,true,,,0x41
"I2C","data",7.413024,2.24e-05,true,,,0x06
"I2C","data",7.4130496,2.24e-05,true,,,0x49
"I2C","data",7.4130752,2.24e-05,true,,,0x0E
"I2C","data",7.41310112,2.224e-05,true,,,0xBF
"I2C","data",7.41312672,2.224e-05,true,,,0x20
"I2C","data",7.41315248,2.24e-05,true,,,0x01
"I2C","data",7.41317808,2.24e-05,true,,,0x40
"I2C","data",7.41320368,2.24e-05,true,,,0x11
"I2C","data",7.4132296,2.224e-05,true,,,0x72
"I2C","data",7.4132552,2.224e-05,true,,,0x07
"I2C","data",7.41328112,2.224e-05,true,,,0x99
"I2C","data",7.41330672,2.224e-05,true,,,0x09
"I2C","data",7.41333232,2.224e-05,true,,,0x7E
"I2C","data",7.41335808,2.224e-05,true,,,0x01
"I2C","data",7.41338368,2.224e-05,true,,,0x40
"I2C","data",7.4134096,2.224e-05,true,,,0x07
"I2C","data",7.41343536,2.24e-05,true,,,0x98
"I2C","data",7.41346096,2.24e-05,true,,,0x01
"I2C","data",7.41348688,2.224e-05,true,,,0x76
"I2C","data",7.41351248,2.224e-05,true,,,0x05
"I2C","data",7.41353824,2.24e-05,true,,,0x98
"I2C","data",7.41356384,2.24e-05,true,,,0x00
"I2C","data",7.41358944,2.24e-05,true,,,0x28
"I2C","data",7.41361536,2.224e-05,true,,,0x02
"I2C","data",7.41364096,2.224e-05,true,,,0xD0
"I2C","data",7.41366688,2.224e-05,true,,,0x12
"I2C","data",7.41369248,2.224e-05,true,,,0x98
"I2C","data",7.41371808,2.224e-05,true,,,0x01
"I2C","data",7.41374384,2.224e-05,true,,,0xF0
"I2C","data",7.41376944,2.224e-05,true,,,0xCB
"I2C","data",7.41379536,2.224e-05,true,,,0xFA
"I2C","data",7.41382096,2.224e-05,true,,,0xB9
"I2C","data",7.41384656,2.224e-05,true,,,0x7C
"I2C","data",7.41387232,2.24e-05,true,,,0x12
"I2C","data",7.41389792,2.24e-05,true,,,0x98
"I2C","data",7.41392384,2.224e-05,true,,,0x01
"I2C","data",7.41394944,2.224e-05,true,,,0xF0
"I2C","data",7.41397504,2.224e-05,true,,,0x55
"I2C","data",7.4140008,2.24e-05,true,,,0xFA
"I2C","data",7.4140264,2.24e-05,true,,,0x0C
"I2C","data",7.41405232,2.224e-05,true,,,0x98
"I2C","data",7.41407792,2.224e-05,true,,,0x00
"I2C","data",7.41410352,2.224e-05,true,,,0x28
"I2C","data",7.41412944,2.224e-05,true,,,0x42
"I2C","data",7.41415504,2.224e-05,true,,,0xD1
"I2C","data",7.4141808,2.224e-05,true,,,0x62
"I2C","data",7.4142064,2.224e-05,true,,,0xB6
"I2C","data",7.414232,2.224e-05,true,,,0x40
"I2C","data",7.41425792,2.224e-05,true,,,0xE0
"I2C","data",7.41428352,2.224e-05,true,,,0x70
"I2C","data",7.41430928,2.24e-05,true,,,0x59
"I2C","data",7.41433488,2.24e-05,true,,,0x00
"I2C","data",7.41436048,2.24e-05,true,,,0x28
"I2C","data",7.4143864,2.224e-05,true,,,0x04
"I2C","data",7.414412,2.224e-05,true,,,0xD0
"I2C","data",7.41443808,2.224e-05,true,,,0xFF
"I2C","data",7.41446368,2.224e-05,true,,,0x34
"I2C","data",7.41448928,2.224e-05,true,,,0xA1
"I2C","data",7.4145152,2.224e-05,true,,,0x34
"I2C","data",7.4145408,2.224e-05,true,,,0x20
"I2C","data",7.41456656,2.224e-05,true,,,0x7C
"I2C","data",7.41459216,2.224e-05,true,,,0x01
"I2C","data",7.41461776,2.224e-05,true,,,0x28
"I2C","data",7.41464368,2.224e-05,true,,,0x09
"I2C","data",7.41466928,2.224e-05,true,,,0xD0
"I2C","data",7.41469504,2.24e-05,true,,,0x05
"I2C","data",7.41472064,2.24e-05,true,,,0x98
"I2C","data",7.41474624,2.24e-05,true,,,0x00
"I2C","data",7.41477216,2.224e-05,true,,,0x28
"I2C","data",7.41479776,2.224e-05,true,,,0x02
"I2C","data",7.41482352,2.24e-05,true,,,0xD0
"I2C","data",7.41484912,2.24e-05,true,,,0x12
"I2C","data",7.41487472,2.24e-05,true,,,0x98
"I2C","data",7.41490064,2.224e-05,true,,,0x01
"I2C","data",7.41492624,2.224e-05,true,,,0xF0
"I2C","data",7.41495216,2.224e-05,true,,,0xB4
"I2C","data",7.41497776,2.224e-05,true,,,0xFA
"I2C","data",7.41500336,2.224e-05,true,,,0x0C
"I2C","data",7.41502912,2.224e-05,true,,,0x98
"I2C","data",7.41505472,2.224e-05,true,,,0x00
"I2C","data",7.41508064,2.224e-05,true,,,0x28
"I2C","data",7.41510624,2.224e-05,true,,,0x27
"I2C","data",7.41513184,2.224e-05,true,,,0xD0
"I2C","data",7.4151576,2.24e-05,true,,,0x27
"I2C","data",7.4151832,2.24e-05,true,,,0xE0
"I2C","data",7.41520912,2.224e-05,true,,,0x05
"I2C","data",7.41523472,2.224e-05,true,,,0x98
"I2C","data",7.41526032,2.224e-05,true,,,0x00
"I2C","data",7.41528608,2.24e-05,true,,,0x28
"I2C","data",7.41531168,2.24e-05,true,,,0x02
"I2C","data",7.4153376,2.224e-05,true,,,0xD0
"I2C","data",7.4153632,2.224e-05,true,,,0x0B
"I2C","data",7.4153888,2.224e-05,true,,,0x99
"I2C","data",7.41541472,2.224e-05,true,,,0x01
"I2C","data",7.41544032,2.224e-05,true,,,0x20
"I2C","data",7.41546608,2.224e-05,true,,,0x88
"I2C","data",7.41549168,2.224e-05,true,,,0x76
"I2C","data",7.4155176,2.224e-05,true,,,0x04
"I2C","data",7.41554368,2.224e-05,true,,,0x98
"I2C","data",7.41556928,2.224e-05,true,,,0x00
"I2C","data",7.41559488,2.224e-05,true,,,0x28
"I2C","data",7.41562064,2.24e-05,true,,,0x04
"I2C","data",7.41564624,2.24e-05,true,,,0xD0
"I2C","data",7.41567216,2.224e-05,true,,,0x0B
"I2C","data",7.41569776,2.224e-05,true,,,0x49
"I2C","data",7.41572336,2.224e-05,true,,,0x12
"I2C","data",7.41574928,2.224e-05,true,,,0x98
"I2C","data",7.41577488,2.224e-05,true,,,0x08
"I2C","data",7.41580064,2.224e-05,true,,,0x5C
"I2C","data",7.41582624,2.224e-05,true,,,0x00
"I2C","data",7.41585184,2.224e-05,true,,,0x28
"I2C","data",7.41587776,2.224e-05,true,,,0x13
"I2C","data",7.41590336,2.224e-05,true,,,0xD0
"I2C","data",7.41592912,2.224e-05,true,,,0x0A
"I2C","data",7.41595472,2.224e-05,true,,,0x98
"I2C","data",7.41598032,2.224e-05,true,,,0x00
"I2C","data",7.41600624,2.224e-05,true,,,0x28
"I2C","data",7.41603184,2.224e-05,true,,,0xEA
"I2C","data",7.4160576,2.24e-05,true,,,0xD0
"I2C","data",7.4160832,2.24e-05,true,,,0x12
"I2C","data",7.4161088,2.24e-05,true,,,0x98
"I2C","data",7.41613472,2.224e-05,true,,,0x01
"I2C","data",7.41616032,2.224e-05,true,,,0xF0
"I2C","data",7.41618624,2.224e-05,true,,,0xA2
"I2C","data",7.41621184,2.224e-05,true,,,0xFA
"I2C","data",7.41623744,2.224e-05,true,,,0xE6
"I2C","data",7.4162632,2.224e-05,true,,,0xE7
"I2C","data",7.4162888,2.224e-05,true,,,0x00
"I2C","data",7.41631472,2.224e-05,true,,,0x00
"I2C","data",7.41634032,2.224e-05,true,,,0x4C
"I2C","data",7.41636592,2.224e-05,true,,,0x4C
"I2C","data",7.41639168,2.224e-05,true,,,0x04
"I2C","data",7.41641728,2.224e-05,true,,,0x20
"I2C","data",7.41644336,2.24e-05,true,,,0x90
"I2C","data",7.41646944,2.24e-05,true,,,0x12
"I2C","data",7.41649504,2.24e-05,true,,,0x04
"I2C","data",7.41652064,2.24e-05,true,,,0x20
"I2C","data",7.41654656,2.224e-05,true,,,0x7E
"I2C","data",7.41657216,2.224e-05,true,,,0x03
"I2C","data",7.41659808,2.224e-05,true,,,0x00
"I2C","data",7.41662368,2.224e-05,true,,,0x00
"I2C","data",7.41664928,2.224e-05,true,,,0x70
"I2C","data",7.41667504,2.224e-05,true,,,0x1D
"I2C","data",7.41670064,2.224e-05,true,,,0x04
"I2C","data",7.41672656,2.224e-05,true,,,0x20
"I2C","data",7.41675216,2.224e-05,true,,,0x74
"I2C","data",7.41677776,2.224e-05,true,,,0x21
"I2C","data",7.41680352,2.24e-05,true,,,0x04
"I2C","data",7.41682912,2.24e-05,true,,,0x20
"I2C","data",7.41685504,2.224e-05,true,,,0x44
"I2C","data",7.41688064,2.224e-05,true,,,0x24
"I2C","data",7.41690624,2.224e-05,true,,,0x04
"I2C","data",7.416932,2.24e-05,true,,,0x20
"I2C","data",7.4169576,2.24e-05,true,,,0x04
"I2C","data",7.41698352,2.224e-05,true,,,0x99
"I2C","data",7.41700912,2.224e-05,true,,,0x12
"I2C","data",7.41703472,2.224e-05,true,,,0x98
"I2C","data",7.41706064,2.224e-05,true,,,0x01
"I2C","data",7.41708624,2.224e-05,true,,,0xF0
"I2C","data",7.417112,2.224e-05,true,,,0x96
"I2C","data",7.4171376,2.224e-05,true,,,0xFA
"I2C","data",7.4171632,2.224e-05,true,,,0xD4
"I2C","data",7.41718912,2.224e-05,true,,,0xE7
"I2C","data",7.41721472,2.224e-05,true,,,0x62
"I2C","data",7.41724048,2.24e-05,true,,,0xB6
"I2C","data",7.41726608,2.24e-05,true,,,0x06
"I2C","data",7.41729168,2.24e-05,true,,,0x98
"I2C","data",7.4173176,2.224e-05,true,,,0x00
"I2C","data",7.4173432,2.224e-05,true,,,0x28
"I2C","data",7.41736896,2.24e-05,true,,,0x03
"I2C","data",7.41739456,2.24e-05,true,,,0xD0
"I2C","data",7.41742016,2.24e-05,true,,,0x19
"I2C","data",7.41744576,2.24e-05,true,,,0x21
"I2C","data",7.41747168,2.224e-05,true,,,0x12
"I2C","data",7.41749776,2.224e-05,true,,,0x98
"I2C","data",7.41752336,2.224e-05,true,,,0x01
"I2C","data",7.41754896,2.224e-05,true,,,0xF0
"I2C","data",7.41757488,2.224e-05,true,,,0x93
"I2C","data",7.41760048,2.224e-05,true,,,0xFA
"I2C","data",7.41762624,2.24e-05,true,,,0x06
"I2C","data",7.41765184,2.24e-05,true,,,0x22
"I2C","data",7.41767744,2.24e-05,true,,,0x02
"I2C","data",7.41770336,2.224e-05,true,,,0xA9
"I2C","data",7.41772896,2.224e-05,true,,,0x10
"I2C","data",7.41775472,2.24e-05,true,,,0x98
"I2C","data",7.41778032,2.24e-05,true,,,0x01
"I2C","data",7.41780592,2.24e-05,true,,,0xF0
"I2C","data",7.41783184,2.224e-05,true,,,0xCE
"I2C","data",7.41785744,2.224e-05,true,,,0xF9
"I2C","data",7.41788336,2.224e-05,true,,,0x8B
"I2C","data",7.41790896,2.224e-05,true,,,0xE6
"I2C","data",7.41793456,2.224e-05,true,,,0x00
"I2C","data",7.41796032,2.224e-05,true,,,0x00
"I2C","data",7.41798592,2.224e-05,true,,,0x10
"I2C","data",7.41801184,2.224e-05,true,,,0xB5
"I2C","data",7.41803744,2.224e-05,true,,,0xFF
"I2C","data",7.41806304,2.224e-05,true,,,0x4A
"I2C","data",7.4180888,2.24e-05,true,,,0xFF
"I2C","data",7.4181144,2.24e-05,true,,,0x24
"I2C","data",7.41814032,2.224e-05,true,,,0x11
"I2C","data",7.41816592,2.224e-05,true,,,0x5C
"I2C","data",7.41819152,2.224e-05,true,,,0x00
"I2C","data",7.41821728,2.24e-05,true,,,0x29
"I2C","data",7.41824288,2.24e-05,true,,,0x1A
"I2C","data",7.4182688,2.224e-05,true,,,0xD1
"I2C","data",7.4182944,2.224e-05,true,,,0xC5
"I2C","data",7.41832,2.224e-05,true,,,0x21
"I2C","data",7.41834592,2.224e-05,true,,,0xC9
"I2C","data",7.41837152,2.224e-05,true,,,0x00
"I2C","data",7.41839728,2.224e-05,true,,,0xFC
"I2C","data",7.41842288,2.224e-05,true,,,0x4B
"I2C","data",7.4184488,2.224e-05,true,,,0x41
"I2C","data",7.41847456,2.24e-05,true,,,0x43
"I2C","data",7.41850016,2.24e-05,true,,,0xC9
"I2C","data",7.41852608,2.224e-05,true,,,0x18
"I2C","data",7.41855168,2.224e-05,true,,,0xCB
"I2C","data",7.41857728,2.224e-05,true,,,0x7E
"I2C","data",7.41860304,2.24e-05,true,,,0x5B
"I2C","data",7.41862864,2.24e-05,true,,,0x06
"I2C","data",7.41865456,2.224e-05,true,,,0x12
"I2C","data",7.41868016,2.224e-05,true,,,0xD5
"I2C","data",7.41870576,2.224e-05,true,,,0x9C
"I2C","data",7.41873168,2.224e-05,true,,,0x23
"I2C","data",7.41875728,2.224e-05,true,,,0x5B
"I2C","data",7.41878304,2.224e-05,true,,,0x58
"I2C","data",7.41880864,2.224e-05,true,,,0xDB
"I2C","data",7.41883424,2.224e-05,true,,,0x03
"I2C","data",7.41886016,2.224e-05,true,,,0x05
"I2C","data",7.41888576,2.224e-05,true,,,0xD4
"I2C","data",7.41891152,2.24e-05,true,,,0x07
"I2C","data",7.41893712,2.24e-05,true,,,0x23
"I2C","data",7.41896272,2.24e-05,true,,,0xDB
"I2C","data",7.41898864,2.224e-05,true,,,0x01
"I2C","data",7.41901424,2.224e-05,true,,,0xC9
"I2C","data",7.41904,2.24e-05,true,,,0x18
"I2C","data",7.4190656,2.24e-05,true,,,0x49
"I2C","data",7.4190912,2.24e-05,true,,,0x7D
"I2C","data",7.41911712,2.224e-05,true,,,0x16
"I2C","data",7.41914272,2.224e-05,true,,,0x29
"I2C","data",7.41916864,2.224e-05,true,,,0x06
"I2C","data",7.41919424,2.224e-05,true,,,0xD1
"I2C","data",7.41921984,2.224e-05,true,,,0x02
"I2C","data",7.4192456,2.224e-05,true,,,0x21
"I2C","data",7.4192712,2.224e-05,true,,,0x11
"I2C","data",7.41929712,2.224e-05,true,,,0x54
"I2C","data",7.41932272,2.224e-05,true,,,0xF4
"I2C","data",7.41934832,2.224e-05,true,,,0x49
"I2C","data",7.41937408,2.24e-05,true,,,0x0A
"I2C","data",7.41939968,2.24e-05,true,,,0x5C
"I2C","data",7.41943088,2.224e-05,true,,,0xF4
"I2C","data",7.41945648,2.224e-05,true,,,0x49
"I2C","data",7.41948224,2.224e-05,true,,,0x01
"I2C","data",7.41950784,2.224e-05,true,,,0xF0
"I2C","data",7.41953376,2.224e-05,true,,,0x73
"I2C","data",7.41955936,2.224e-05,true,,,0xFA
"I2C","data",7.41958496,2.224e-05,true,,,0x20
"I2C","data",7.41961072,2.24e-05,true,,,0x46
"I2C","data",7.41963632,2.24e-05,true,,,0x10
"I2C","data",7.41966224,2.224e-05,true,,,0xBD
"I2C","data",7.41968784,2.224e-05,true,,,0x01
"I2C","data",7.41971344,2.224e-05,true,,,0xF0
"I2C","data",7.41973936,2.224e-05,true,,,0x75
"I2C","data",7.41976496,2.224e-05,true,,,0xFA
"I2C","data",7.41979072,2.224e-05,true,,,0x10
"I2C","data",7.41981632,2.224e-05,true,,,0xBD
"I2C","data",7.41984192,2.224e-05,true,,,0xF8
"I2C","data",7.41986784,2.224e-05,true,,,0xB5
"I2C","data",7.41989344,2.224e-05,true,,,0x05
"I2C","data",7.4199192,2.224e-05,true,,,0x46
"I2C","data",7.4199448,2.224e-05,true,,,0x01
"I2C","data",7.4199704,2.224e-05,true,,,0xF0
"I2C","data",7.41999632,2.224e-05,true,,,0x76
"I2C","data",7.42002192,2.224e-05,true,,,0xFA
"I2C","data",7.42004768,2.24e-05,true,,,0x06
"I2C","data",7.42007328,2.24e-05,true,,,0x46
"I2C","data",7.42009888,2.24e-05,true,,,0x28
"I2C","data",7.4201248,2.224e-05,true,,,0x46
"I2C","data",7.4201504,2.224e-05,true,,,0x01
"I2C","data",7.42017632,2.224e-05,true,,,0xF0
"I2C","data",7.42020192,2.224e-05,true,,,0x78
"I2C","data",7.42022752,2.224e-05,true,,,0xFA
"I2C","data",7.42025328,2.224e-05,true,,,0xED
"I2C","data",7.42027888,2.224e-05,true,,,0x4F
"I2C","data",7.4203048,2.224e-05,true,,,0x6C
"I2C","data",7.4203304,2.224e-05,true,,,0x00
"I2C","data",7.420356,2.224e-05,true,,,0x39
"I2C","data",7.42038176,2.224e-05,true,,,0x5B
"I2C","data",7.42040736,2.224e-05,true,,,0x88
"I2C","data",7.42043504,2.224e-05,true,,,0x42
"I2C","data",7.42046064,2.224e-05,true,,,0x0B
"I2C","data",7.42048624,2.224e-05,true,,,0xD0
"I2C","data",7.420512,2.24e-05,true,,,0x28
"I2C","data",7.4205376,2.24e-05,true,,,0x46
"I2C","data",7.42056352,2.224e-05,true,,,0x01
"I2C","data",7.42058912,2.224e-05,true,,,0xF0
"I2C","data",7.42061472,2.224e-05,true,,,0x70
"I2C","data",7.42064048,2.24e-05,true,,,0xFA
"I2C","data",7.42066608,2.24e-05,true,,,0x38
"I2C","data",7.420692,2.224e-05,true,,,0x53
"I2C","data",7.4207176,2.224e-05,true,,,0xEA
"I2C","data",7.4207432,2.224e-05,true,,,0x49
"I2C","data",7.42076912,2.224e-05,true,,,0xA8
"I2C","data",7.42079472,2.224e-05,true,,,0x00
"I2C","data",7.42082048,2.224e-05,true,,,0x42
"I2C","data",7.42084608,2.224e-05,true,,,0x18
"I2C","data",7.42087168,2.224e-05,true,,,0x00
"I2C","data",7.4208976,2.224e-05,true,,,0x21
"I2C","data",7.4209232,2.224e-05,true,,,0x11
"I2C","data",7.42094896,2.24e-05,true,,,0x60
"I2C","data",7.42097456,2.24e-05,true,,,0xE8
"I2C","data",7.42100016,2.24e-05,true,,,0x4A
"I2C","data",7.42102608,2.224e-05,true,,,0x80
"I2C","data",7.42105168,2.224e-05,true,,,0x18
"I2C","data",7.42107744,2.24e-05,true,,,0x01
"I2C","data",7.42110304,2.24e-05,true,,,0x60
"I2C","data",7.42112864,2.24e-05,true,,,0x30
"I2C","data",7.42115456,2.224e-05,true,,,0x46
"I2C","data",7.42118016,2.224e-05,true,,,0xF8
"I2C","data",7.42120608,2.224e-05,true,,,0xBD
"I2C","data",7.42123168,2.224e-05,true,,,0x70
"I2C","data",7.42125728,2.224e-05,true,,,0xB5
"I2C","data",7.42128304,2.224e-05,true,,,0x04
"I2C","data",7.42130864,2.224e-05,true,,,0x46
"I2C","data",7.42133456,2.224e-05,true,,,0x2A
"I2C","data",7.42136016,2.224e-05,true,,,0x21
"I2C","data",7.42138576,2.224e-05,true,,,0x01
"I2C","data",7.42141152,2.24e-05,true,,,0xF0
"I2C","data",7.42143744,2.224e-05,true,,,0x48
"I2C","data",7.4214632,2.24e-05,true,,,0xFA
"I2C","data",7.42148944,2.224e-05,true,,,0xC5
"I2C","data",7.42151504,2.224e-05,true,,,0x20
"I2C","data",7.42154064,2.224e-05,true,,,0xC0
"I2C","data",7.4215664,2.224e-05,true,,,0x00
"I2C","data",7.421592,2.224e-05,true,,,0xDD
"I2C","data",7.42161792,2.224e-05,true,,,0x49
"I2C","data",7.42164352,2.224e-05,true,,,0x60
"I2C","data",7.42166912,2.224e-05,true,,,0x43
"I2C","data",7.42169488,2.24e-05,true,,,0x45
"I2C","data",7.42172048,2.24e-05,true,,,0x18
"I2C","data",7.4217464,2.224e-05,true,,,0x07
"I2C","data",7.421772,2.224e-05,true,,,0x20
"I2C","data",7.4217976,2.224e-05,true,,,0xC0
"I2C","data",7.42182336,2.24e-05,true,,,0x01
"I2C","data",7.42184896,2.24e-05,true,,,0x2E
"I2C","data",7.42187488,2.224e-05,true,,,0x18
"I2C","data",7.42190048,2.224e-05,true,,,0x70
"I2C","data",7.42192608,2.224e-05,true,,,0x7F
"I2C","data",7.421952,2.224e-05,true,,,0x00
"I2C","data",7.4219776,2.224e-05,true,,,0x28
"I2C","data",7.42200336,2.224e-05,true,,,0x02
"I2C","data",7.42202896,2.224e-05,true,,,0xD0
"I2C","data",7.42205456,2.224e-05,true,,,0x20
"I2C","data",7.42208048,2.224e-05,true,,,0x46
"I2C","data",7.42210608,2.224e-05,true,,,0x01
"I2C","data",7.42213184,2.24e-05,true,,,0xF0
"I2C","data",7.42215744,2.24e-05,true,,,0x58
"I2C","data",7.42218304,2.24e-05,true,,,0xFA
"I2C","data",7.42220896,2.224e-05,true,,,0x20
"I2C","data",7.42223456,2.224e-05,true,,,0x46
"I2C","data",7.42226032,2.24e-05,true,,,0x01
"I2C","data",7.42228592,2.24e-05,true,,,0xF0
"I2C","data",7.42231152,2.24e-05,true,,,0x5B
"I2C","data",7.42233744,2.224e-05,true,,,0xFA
"I2C","data",7.42236304,2.224e-05,true,,,0x70
"I2C","data",7.42238896,2.224e-05,true,,,0x7F
"I2C","data",7.42241456,2.224e-05,true,,,0x00
"I2C","data",7.42244032,2.224e-05,true,,,0x28
"I2C","data",7.42246624,2.224e-05,true,,,0x1C
"I2C","data",7.42249184,2.224e-05,true,,,0xD0
"I2C","data",7.4225176,2.224e-05,true,,,0x2F
"I2C","data",7.42254368,2.24e-05,true,,,0x20
"I2C","data",7.42256928,2.24e-05,true,,,0x40
"I2C","data",7.42259488,2.24e-05,true,,,0x01
"I2C","data",7.4226208,2.224e-05,true,,,0x2A
"I2C","data",7.4226464,2.224e-05,true,,,0x18
"I2C","data",7.42267232,2.224e-05,true,,,0xC5
"I2C","data",7.42269792,2.224e-05,true,,,0x21
"I2C","data",7.42272352,2.224e-05,true,,,0xC9
"I2C","data",7.42274928,2.224e-05,true,,,0x00
"I2C","data",7.42277488,2.224e-05,true,,,0xD2
"I2C","data",7.4228008,2.224e-05,true,,,0x4D
"I2C","data",7.4228264,2.224e-05,true,,,0x61
"I2C","data",7.422852,2.224e-05,true,,,0x43
"I2C","data",7.42287776,2.224e-05,true,,,0x09
"I2C","data",7.42290336,2.224e-05,true,,,0x20
"I2C","data",7.42292928,2.224e-05,true,,,0x49
"I2C","data",7.42295488,2.224e-05,true,,,0x19
"I2C","data",7.42298048,2.224e-05,true,,,0x80
"I2C","data",7.42300624,2.24e-05,true,,,0x01
"I2C","data",7.42303184,2.24e-05,true,,,0x93
"I2C","data",7.42305776,2.224e-05,true,,,0x7B
"I2C","data",7.42308336,2.224e-05,true,,,0x08
"I2C","data",7.42310896,2.224e-05,true,,,0x18
"I2C","data",7.42313488,2.224e-05,true,,,0xD4
"I2C","data",7.42316048,2.224e-05,true,,,0x49
"I2C","data",7.42318624,2.224e-05,true,,,0xD0
"I2C","data",7.42321184,2.224e-05,true,,,0x4D
"I2C","data",7.42323744,2.224e-05,true,,,0x01
"I2C","data",7.42326336,2.224e-05,true,,,0x2B
"I2C","data",7.42328896,2.224e-05,true,,,0x03
"I2C","data",7.42331472,2.224e-05,true,,,0xD0
"I2C","data",7.42334032,2.224e-05,true,,,0xD3
"I2C","data",7.42336592,2.224e-05,true,,,0x7B
"I2C","data",7.42339184,2.224e-05,true,,,0x01
"I2C","data",7.42341744,2.224e-05,true,,,0x2B
"I2C","data",7.42344352,2.224e-05,true,,,0x00
"I2C","data",7.4234696,2.224e-05,true,,,0xD0
"I2C","data",7.4234952,2.224e-05,true,,,0x92
"I2C","data",7.4235208,2.224e-05,true,,,0x7C
"I2C","data",7.42354672,2.224e-05,true,,,0x00
"I2C","data",7.42357232,2.224e-05,true,,,0x7F
"I2C","data",7.42359808,2.224e-05,true,,,0x01
"I2C","data",7.42362368,2.224e-05,true,,,0x28
"I2C","data",7.42364928,2.224e-05,true,,,0x00
"I2C","data",7.4236752,2.224e-05,true,,,0xD0
"I2C","data",7.4237008,2.224e-05,true,,,0x29
"I2C","data",7.42372656,2.24e-05,true,,,0x46
"I2C","data",7.42375216,2.24e-05,true,,,0x1E
"I2C","data",7.42377776,2.24e-05,true,,,0x22
"I2C","data",7.42380368,2.224e-05,true,,,0x20
"I2C","data",7.42382928,2.224e-05,true,,,0x46
"I2C","data",7.42385504,2.24e-05,true,,,0x01
"I2C","data",7.42388064,2.24e-05,true,,,0xF0
"I2C","data",7.42390624,2.24e-05,true,,,0x1E
"I2C","data",7.42393216,2.224e-05,true,,,0xFA
"I2C","data",7.42395776,2.224e-05,true,,,0x03
"I2C","data",7.42398368,2.224e-05,true,,,0xE0
"I2C","data",7.42400928,2.224e-05,true,,,0x1E
"I2C","data",7.42403488,2.224e-05,true,,,0x21
"I2C","data",7.42406064,2.224e-05,true,,,0x20
"I2C","data",7.42408624,2.224e-05,true,,,0x46
"I2C","data",7.42411216,2.224e-05,true,,,0x01
"I2C","data",7.42413776,2.224e-05,true,,,0xF0
"I2C","data",7.42416336,2.224e-05,true,,,0x3D
"I2C","data",7.42418912,2.24e-05,true,,,0xFA
"I2C","data",7.42421472,2.24e-05,true,,,0xCB
"I2C","data",7.42424064,2.224e-05,true,,,0x48
"I2C","data",7.42426624,2.224e-05,true,,,0x00
"I2C","data",7.42429184,2.224e-05,true,,,0x5D
"I2C","data",7.4243176,2.24e-05,true,,,0x70
"I2C","data",7.4243432,2.24e-05,true,,,0xBD
"I2C","data",7.42436912,2.224e-05,true,,,0xF1
"I2C","data",7.42439472,2.224e-05,true,,,0xB5
"I2C","data",7.42442032,2.224e-05,true,,,0x82
"I2C","data",7.42444592,2.224e-05,true,,,0xB0
"I2C","data",7.42447152,2.224e-05,true,,,0xC5
"I2C","data",7.42449744,2.224e-05,true,,,0x21
"I2C","data",7.42452304,2.224e-05,true,,,0x02
"I2C","data",7.4245488,2.224e-05,true,,,0x98
"I2C","data",7.4245744,2.224e-05,true,,,0xC9
"I2C","data",7.4246,2.224e-05,true,,,0x00
"I2C","data",7.42462592,2.224e-05,true,,,0x48
"I2C","data",7.42465152,2.224e-05,true,,,0x43
"I2C","data",7.42467728,2.24e-05,true,,,0xBF
"I2C","data",7.42470288,2.24e-05,true,,,0x49
"I2C","data",7.42472848,2.24e-05,true,,,0x40
"I2C","data",7.4247544,2.224e-05,true,,,0x18
"I2C","data",7.42478,2.224e-05,true,,,0x05
"I2C","data",7.42480576,2.24e-05,true,,,0x21
"I2C","data",7.42483136,2.24e-05,true,,,0x09
"I2C","data",7.42485696,2.24e-05,true,,,0x02
"I2C","data",7.42488288,2.224e-05,true,,,0x41
"I2C","data",7.42490848,2.224e-05,true,,,0x18
"I2C","data",7.4249344,2.224e-05,true,,,0x4E
"I2C","data",7.42496,2.224e-05,true,,,0x69
"I2C","data",7.4249856,2.224e-05,true,,,0x29
"I2C","data",7.42501136,2.224e-05,true,,,0x21
"I2C","data",7.42503696,2.224e-05,true,,,0x49
"I2C","data",7.42506288,2.224e-05,true,,,0x01
"I2C","data",7.42508848,2.224e-05,true,,,0x45
"I2C","data",7.42511408,2.224e-05,true,,,0x18
"I2C","data",7.42513984,2.24e-05,true,,,0x09
"I2C","data",7.42516544,2.24e-05,true,,,0x21
"I2C","data",7.42519136,2.224e-05,true,,,0x89
"I2C","data",7.42521696,2.224e-05,true,,,0x01
"I2C","data",7.42524256,2.224e-05,true,,,0x40
"I2C","data",7.42526832,2.24e-05,true,,,0x18
"I2C","data",7.42529392,2.24e-05,true,,,0x00
"I2C","data",7.42531984,2.224e-05,true,,,0x90
"I2C","data",7.42534544,2.224e-05,true,,,0x00
"I2C","data",7.42537104,2.224e-05,true,,,0x69
"I2C","data",7.42539696,2.224e-05,true,,,0x40
"I2C","data",7.42542256,2.224e-05,true,,,0x00
"I2C","data",7.42544832,2.224e-05,true,,,0x44
"I2C","data",7.42547392,2.224e-05,true,,,0x0F
"I2C","data",7.42549984,2.224e-05,true,,,0x02
"I2C","data",7.42552544,2.224e-05,true,,,0x98
"I2C","data",7.4255512,2.24e-05,true,,,0x01
"I2C","data",7.42557728,2.24e-05,true,,,0xF0
"I2C","data",7.42560288,2.24e-05,true,,,0x27
"I2C","data",7.42562848,2.24e-05,true,,,0xFA
"I2C","data",7.4256544,2.224e-05,true,,,0x07
"I2C","data",7.42568,2.224e-05,true,,,0x46
"I2C","data",7.42570592,2.224e-05,true,,,0xB0
"I2C","data",7.42573152,2.224e-05,true,,,0x00
"I2C","data",7.42575712,2.224e-05,true,,,0x40
"I2C","data",7.42578288,2.224e-05,true,,,0x0F
"I2C","data",7.42580848,2.224e-05,true,,,0x40
"I2C","data",7.4258344,2.224e-05,true,,,0x1E
"I2C","data",7.42586,2.224e-05,true,,,0x02
"I2C","data",7.4258856,2.224e-05,true,,,0x28
"I2C","data",7.42591136,2.24e-05,true,,,0x06
"I2C","data",7.42593696,2.24e-05,true,,,0xD3
"I2C","data",7.42596288,2.224e-05,true,,,0x02
"I2C","data",7.42598848,2.224e-05,true,,,0x2C
"I2C","data",7.42601408,2.224e-05,true,,,0x1E
"I2C","data",7.42603984,2.24e-05,true,,,0xD1
"I2C","data",7.42606544,2.24e-05,true,,,0xB0
"I2C","data",7.42609136,2.224e-05,true,,,0x01
"I2C","data",7.42611696,2.224e-05,true,,,0x40
"I2C","data",7.42614256,2.224e-05,true,,,0x0F
"I2C","data",7.42616848,2.224e-05,true,,,0x40
"I2C","data",7.42619408,2.224e-05,true,,,0x1E
"I2C","data",7.42621984,2.224e-05,true,,,0x02
"I2C","data",7.42624544,2.224e-05,true,,,0x28
"I2C","data",7.42627104,2.224e-05,true,,,0x19
"I2C","data",7.42629696,2.224e-05,true,,,0xD2
"I2C","data",7.42632256,2.224e-05,true,,,0x02
"I2C","data",7.42634832,2.24e-05,true,,,0x98
"I2C","data",7.42637392,2.24e-05,true,,,0x01
"I2C","data",7.42639952,2.24e-05,true,,,0xF0
"I2C","data",7.42643072,2.224e-05,true,,,0x1D
"I2C","data",7.42645648,2.224e-05,true,,,0xFA
"I2C","data",7.42648208,2.224e-05,true,,,0x00
"I2C","data",7.426508,2.224e-05,true,,,0x28
"I2C","data",7.42653408,2.224e-05,true,,,0x14
"I2C","data",7.42655968,2.224e-05,true,,,0xD1
"I2C","data",7.42658528,2.224e-05,true,,,0x02
"I2C","data",7.42661104,2.24e-05,true,,,0x2C
"I2C","data",7.42663664,2.24e-05,true,,,0x09
"I2C","data",7.42666256,2.224e-05,true,,,0xD1
"I2C","data",7.42668816,2.224e-05,true,,,0x00
"I2C","data",7.42671376,2.224e-05,true,,,0x98
"I2C","data",7.42673968,2.224e-05,true,,,0x00
"I2C","data",7.42676528,2.224e-05,true,,,0x69
"I2C","data",7.42679104,2.224e-05,true,,,0x00
"I2C","data",7.42681664,2.224e-05,true,,,0x02
"I2C","data",7.42684224,2.224e-05,true,,,0x40
"I2C","data",7.42686816,2.224e-05,true,,,0x0F
"I2C","data",7.42689376,2.224e-05,true,,,0x04
"I2C","data",7.42691952,2.24e-05,true,,,0xD0
"I2C","data",7.42694512,2.24e-05,true,,,0x28
"I2C","data",7.42697072,2.24e-05,true,,,0x68
"I2C","data",7.42699664,2.224e-05,true,,,0x00
"I2C","data",7.42702224,2.224e-05,true,,,0x01
"I2C","data",7.427048,2.24e-05,true,,,0x0C
"I2C","data",7.4270736,2.24e-05,true,,,0xD4
"I2C","data",7.4270992,2.24e-05,true,,,0x78
"I2C","data",7.42712512,2.224e-05,true,,,0x01
"I2C","data",7.42715072,2.224e-05,true,,,0x0A
"I2C","data",7.42717664,2.224e-05,true,,,0xD4
"I2C","data",7.42720224,2.224e-05,true,,,0x28
"I2C","data",7.42722784,2.224e-05,true,,,0x68
"I2C","data",7.4272536,2.224e-05,true,,,0x41
"I2C","data",7.4272792,2.224e-05,true,,,0x01
"I2C","data",7.42730512,2.224e-05,true,,,0x01
"I2C","data",7.42733072,2.224e-05,true,,,0xD5
"I2C","data",7.42735632,2.224e-05,true,,,0x01
"I2C","data",7.42738208,2.24e-05,true,,,0x2C
"I2C","data",7.42740768,2.24e-05,true,,,0x05
"I2C","data",7.42743328,2.24e-05,true,,,0xD0
"I2C","data",7.42745888,2.24e-05,true,,,0xC0
"I2C","data",7.4274848,2.224e-05,true,,,0x01
"I2C","data",7.4275104,2.224e-05,true,,,0x01
"I2C","data",7.42753616,2.24e-05,true,,,0xD5
"I2C","data",7.42756176,2.24e-05,true,,,0x00
"I2C","data",7.42758736,2.24e-05,true,,,0x2C
"I2C","data",7.42761328,2.224e-05,true,,,0x01
"I2C","data",7.42763888,2.224e-05,true,,,0xD0
"I2C","data",7.4276648,2.224e-05,true,,,0x00
"I2C","data",7.4276904,2.224e-05,true,,,0x20
"I2C","data",7.427716,2.224e-05,true,,,0xFE
"I2C","data",7.42774176,2.224e-05,true,,,0xBD
"I2C","data",7.42776736,2.224e-05,true,,,0x01
"I2C","data",7.42779328,2.224e-05,true,,,0x20
"I2C","data",7.42781888,2.224e-05,true,,,0xFE
"I2C","data",7.42784448,2.224e-05,true,,,0xBD
"I2C","data",7.42787024,2.24e-05,true,,,0xF7
"I2C","data",7.42789584,2.24e-05,true,,,0xB5
"I2C","data",7.42792176,2.224e-05,true,,,0x82
"I2C","data",7.42794736,2.224e-05,true,,,0xB0
"I2C","data",7.42797296,2.224e-05,true,,,0x01
"I2C","data",7.42799872,2.24e-05,true,,,0x20
"I2C","data",7.42802432,2.24e-05,true,,,0x00
"I2C","data",7.42805024,2.224e-05,true,,,0x90
"I2C","data",7.42807584,2.224e-05,true,,,0x10
"I2C","data",7.42810144,2.224e-05,true,,,0x70
"I2C","data",7.42812736,2.224e-05,true,,,0x8A
"I2C","data",7.42815296,2.224e-05,true,,,0x88
"I2C","data",7.42817872,2.224e-05,true,,,0x0C
"I2C","data",7.42820432,2.224e-05,true,,,0x78
"I2C","data",7.42822992,2.224e-05,true,,,0xD3
"I2C","data",7.42825584,2.224e-05,true,,,0x06
"I2C","data",7.42828144,2.224e-05,true,,,0x50
"I2C","data",7.4283072,2.24e-05,true,,,0x04
"I2C","data",7.4283328,2.24e-05,true,,,0xDB
"I2C","data",7.4283584,2.24e-05,true,,,0x0E
"I2C","data",7.42838432,2.224e-05,true,,,0x40
"I2C","data",7.42840992,2.224e-05,true,,,0x0F
"I2C","data",7.428436,2.224e-05,true,,,0xD2
"I2C","data",7.42846208,2.224e-05,true,,,0x0B
"I2C","data",7.42848768,2.224e-05,true,,,0x01
"I2C","data",7.42851328,2.224e-05,true,,,0x94
"I2C","data",7.4285392,2.224e-05,true,,,0x00
"I2C","data",7.4285648,2.224e-05,true,,,0x28
"I2C","data",7.42859056,2.24e-05,true,,,0x7E
"I2C","data",7.42861616,2.24e-05,true,,,0xD0
"I2C","data",7.42864176,2.24e-05,true,,,0x00
"I2C","data",7.42866768,2.224e-05,true,,,0x2A
"I2C","data",7.42869328,2.224e-05,true,,,0x7C
"I2C","data",7.42871904,2.24e-05,true,,,0xD1
"I2C","data",7.42874464,2.24e-05,true,,,0xC5
"I2C","data",7.42877024,2.24e-05,true,,,0x25
"I2C","data",7.42879616,2.224e-05,true,,,0x02
"I2C","data",7.42882176,2.224e-05,true,,,0x9A
"I2C","data",7.42884768,2.224e-05,true,,,0x97
"I2C","data",7.42887328,2.224e-05,true,,,0x4C
"I2C","data",7.42889888,2.224e-05,true,,,0xED
"I2C","data",7.42892464,2.224e-05,true,,,0x00
"I2C","data",7.42895024,2.224e-05,true,,,0x6A
"I2C","data",7.42897616,2.224e-05,true,,,0x43
"I2C","data",7.42900176,2.224e-05,true,,,0x14
"I2C","data",7.42902736,2.224e-05,true,,,0x19
"I2C","data",7.42905312,2.24e-05,true,,,0x09
"I2C","data",7.42907872,2.24e-05,true,,,0x2B
"I2C","data",7.42910464,2.224e-05,true,,,0x02
"I2C","data",7.42913024,2.224e-05,true,,,0xD0
"I2C","data",7.42915584,2.224e-05,true,,,0x0F
"I2C","data",7.4291816,2.24e-05,true,,,0x2B
"I2C","data",7.4292072,2.24e-05,true,,,0x72
"I2C","data",7.42923312,2.224e-05,true,,,0xD1
"I2C","data",7.42925872,2.224e-05,true,,,0x11
"I2C","data",7.42928432,2.224e-05,true,,,0xE0
"I2C","data",7.42931024,2.224e-05,true,,,0x09
"I2C","data",7.42933584,2.224e-05,true,,,0x20
"I2C","data",7.4293616,2.224e-05,true,,,0x80
"I2C","data",7.4293872,2.224e-05,true,,,0x01
"I2C","data",7.4294128,2.224e-05,true,,,0x20
"I2C","data",7.4294384,2.224e-05,true,,,0x18
"I2C","data",7.429464,2.224e-05,true,,,0x00
"I2C","data",7.42948992,2.224e-05,true,,,0x7F
"I2C","data",7.42951552,2.224e-05,true,,,0x01
"I2C","data",7.42954128,2.24e-05,true,,,0x28
"I2C","data",7.42956688,2.24e-05,true,,,0x06
"I2C","data",7.42959248,2.24e-05,true,,,0xD1
"I2C","data",7.4296184,2.224e-05,true,,,0x96
"I2C","data",7.429644,2.224e-05,true,,,0x48
"I2C","data",7.42966976,2.24e-05,true,,,0x02
"I2C","data",7.42969536,2.24e-05,true,,,0x99
"I2C","data",7.42972096,2.24e-05,true,,,0x40
"I2C","data",7.42974688,2.224e-05,true,,,0x5C
"I2C","data",7.42977248,2.224e-05,true,,,0xC5
"I2C","data",7.4297984,2.224e-05,true,,,0x28
"I2C","data",7.429824,2.224e-05,true,,,0x66
"I2C","data",7.4298496,2.224e-05,true,,,0xD0
"I2C","data",7.42987536,2.224e-05,true,,,0x17
"I2C","data",7.42990096,2.224e-05,true,,,0x28
"I2C","data",7.42992688,2.224e-05,true,,,0x64
"I2C","data",7.42995248,2.224e-05,true,,,0xD0
"I2C","data",7.42997808,2.224e-05,true,,,0x16
"I2C","data",7.43000384,2.24e-05,true,,,0x21
"I2C","data",7.43002944,2.24e-05,true,,,0x02
"I2C","data",7.43005536,2.224e-05,true,,,0x98
"I2C","data",7.43008096,2.224e-05,true,,,0x01
"I2C","data",7.43010656,2.224e-05,true,,,0xF0
"I2C","data",7.43013232,2.24e-05,true,,,0xDB
"I2C","data",7.43015792,2.24e-05,true,,,0xF9
"I2C","data",7.43018384,2.224e-05,true,,,0x7C
"I2C","data",7.43020944,2.224e-05,true,,,0xE0
"I2C","data",7.43023504,2.224e-05,true,,,0x2B
"I2C","data",7.43026096,2.224e-05,true,,,0x22
"I2C","data",7.43028656,2.224e-05,true,,,0x52
"I2C","data",7.43031232,2.224e-05,true,,,0x01
"I2C","data",7.43033792,2.224e-05,true,,,0xA5
"I2C","data",7.43036352,2.224e-05,true,,,0x18
"I2C","data",7.43038944,2.224e-05,true,,,0x26
"I2C","data",7.43041504,2.224e-05,true,,,0x46
"I2C","data",7.4304408,2.24e-05,true,,,0xFF
"I2C","data",7.4304664,2.24e-05,true,,,0x36
"I2C","data",7.43049232,2.224e-05,true,,,0x68
"I2C","data",7.43051792,2.224e-05,true,,,0x71
"I2C","data",7.43054352,2.224e-05,true,,,0x82
"I2C","data",7.43056928,2.24e-05,true,,,0x00
"I2C","data",7.43059488,2.24e-05,true,,,0x81
"I2C","data",7.4306208,2.224e-05,true,,,0x36
"I2C","data",7.4306464,2.224e-05,true,,,0x08
"I2C","data",7.430672,2.224e-05,true,,,0x31
"I2C","data",7.43069792,2.224e-05,true,,,0x30
"I2C","data",7.43072352,2.224e-05,true,,,0x46
"I2C","data",7.43074928,2.224e-05,true,,,0x01
"I2C","data",7.43077488,2.224e-05,true,,,0xF0
"I2C","data",7.43080048,2.224e-05,true,,,0xD4
"I2C","data",7.4308264,2.224e-05,true,,,0xF9
"I2C","data",7.430852,2.224e-05,true,,,0x68
"I2C","data",7.43087776,2.24e-05,true,,,0x79
"I2C","data",7.43090336,2.24e-05,true,,,0x81
"I2C","data",7.43092896,2.24e-05,true,,,0x00
"I2C","data",7.43095488,2.224e-05,true,,,0x62
"I2C","data",7.43098048,2.224e-05,true,,,0x18
"I2C","data",7.43100624,2.24e-05,true,,,0x07
"I2C","data",7.43103184,2.24e-05,true,,,0x21
"I2C","data",7.43105744,2.24e-05,true,,,0xFF
"I2C","data",7.43108336,2.224e-05,true,,,0x32
"I2C","data",7.43110896,2.224e-05,true,,,0x08
"I2C","data",7.43113488,2.224e-05,true,,,0x1A
"I2C","data",7.43116048,2.224e-05,true,,,0x81
"I2C","data",7.43118608,2.224e-05,true,,,0x32
"I2C","data",7.43121184,2.224e-05,true,,,0x81
"I2C","data",7.43123744,2.224e-05,true,,,0x00
"I2C","data",7.43126336,2.224e-05,true,,,0x10
"I2C","data",7.43128896,2.224e-05,true,,,0x46
"I2C","data",7.43131456,2.224e-05,true,,,0x01
"I2C","data",7.43134032,2.24e-05,true,,,0xF0
"I2C","data",7.43136592,2.24e-05,true,,,0xCF
"I2C","data",7.43139184,2.224e-05,true,,,0xF9
"I2C","data",7.43141744,2.224e-05,true,,,0x32
"I2C","data",7.43144352,2.224e-05,true,,,0x68
"I2C","data",7.4314696,2.224e-05,true,,,0x01
"I2C","data",7.4314952,2.224e-05,true,,,0x99
"I2C","data",7.4315208,2.224e-05,true,,,0x17
"I2C","data",7.43154672,2.224e-05,true,,,0x46
"I2C","data",7.43157232,2.224e-05,true,,,0x02
"I2C","data",7.43159808,2.224e-05,true,,,0x98
"I2C","data",7.43162368,2.224e-05,true,,,0x01
"I2C","data",7.43164928,2.224e-05,true,,,0xF0
"I2C","data",7.4316752,2.224e-05,true,,,0xCF
"I2C","data",7.4317008,2.224e-05,true,,,0xF9
"I2C","data",7.43172656,2.24e-05,true,,,0x38
"I2C","data",7.43175216,2.24e-05,true,,,0x04
"I2C","data",7.43177776,2.24e-05,true,,,0x5F
"I2C","data",7.43180368,2.224e-05,true,,,0xD5
"I2C","data",7.43182928,2.224e-05,true,,,0x02
"I2C","data",7.4318552,2.224e-05,true,,,0x98
"I2C","data",7.4318808,2.224e-05,true,,,0x01
"I2C","data",7.4319064,2.224e-05,true,,,0xF0
"I2C","data",7.43193216,2.224e-05,true,,,0xD0
"I2C","data",7.43195776,2.224e-05,true,,,0xF9
"I2C","stop",7.43198272,1.6e-07,,,,
"I2C","start",7.43297552,1.60000001e-07,,,,
"I2C","address",7.43297856,2.224e-05,true,0x35,false,
"I2C","data",7.4330024,2.224e-05,true,,,0x00
"I2C","data",7.433028,2.224e-05,true,,,0x28
"I2C","data",7.43305376,2.24e-05,true,,,0x5A
"I2C","data",7.43307936,2.24e-05,true,,,0xD0
"I2C","data",7.43310528,2.224e-05,true,,,0xFF
"I2C","data",7.43313088,2.224e-05,true,,,0x20
"I2C","data",7.43315648,2.224e-05,true,,,0xB7
"I2C","data",7.4331824,2.224e-05,true,,,0x30
"I2C","data",7.433208,2.224e-05,true,,,0x00
"I2C","data",7.43323376,2.224e-05,true,,,0x5D
"I2C","data",7.43325936,2.224e-05,true,,,0x00
"I2C","data",7.43328496,2.224e-05,true,,,0x28
"I2C","data",7.43331088,2.224e-05,true,,,0x55
"I2C","data",7.43333648,2.224e-05,true,,,0xD1
"I2C","data",7.43336224,2.224e-05,true,,,0x01
"I2C","data",7.43338784,2.224e-05,true,,,0x98
"I2C","data",7.43341344,2.224e-05,true,,,0x01
"I2C","data",7.43343904,2.224e-05,true,,,0x28
"I2C","data",7.43346496,2.224e-05,true,,,0x52
"I2C","data",7.43349104,2.224e-05,true,,,0xD1
"I2C","data",7.43351664,2.224e-05,true,,,0x38
"I2C","data",7.43354224,2.224e-05,true,,,0x06
"I2C","data",7.43356816,2.224e-05,true,,,0x80
"I2C","data",7.43359376,2.224e-05,true,,,0x0F
"I2C","data",7.43361952,2.224e-05,true,,,0x4F
"I2C","data",7.43364512,2.224e-05,true,,,0xD1
"I2C","data",7.43367072,2.224e-05,true,,,0xAC
"I2C","data",7.43369664,2.224e-05,true,,,0x20
"I2C","data",7.43372224,2.224e-05,true,,,0x00
"I2C","data",7.433748,2.224e-05,true,,,0x5D
"I2C","data",7.4337736,2.224e-05,true,,,0x80
"I2C","data",7.4337992,2.224e-05,true,,,0x06
"I2C","data",7.43382512,2.224e-05,true,,,0x40
"I2C","data",7.43385072,2.224e-05,true,,,0x0F
"I2C","data",7.43387648,2.24e-05,true,,,0x04
"I2C","data",7.43390208,2.24e-05,true,,,0x28
"I2C","data",7.43392768,2.24e-05,true,,,0x49
"I2C","data",7.4339536,2.224e-05,true,,,0xD1
"I2C","data",7.4339792,2.224e-05,true,,,0xF8
"I2C","data",7.43400512,2.224e-05,true,,,0x06
"I2C","data",7.43403072,2.224e-05,true,,,0xC0
"I2C","data",7.43405632,2.224e-05,true,,,0x0E
"I2C","data",7.43408208,2.224e-05,true,,,0x06
"I2C","data",7.43410768,2.224e-05,true,,,0x28
"I2C","data",7.4341336,2.224e-05,true,,,0x45
"I2C","data",7.4341592,2.224e-05,true,,,0xD0
"I2C","data",7.4341848,2.224e-05,true,,,0xE8
"I2C","data",7.43421056,2.224e-05,true,,,0x7B
"I2C","data",7.43423616,2.224e-05,true,,,0xC1
"I2C","data",7.43426208,2.224e-05,true,,,0x06
"I2C","data",7.43428768,2.224e-05,true,,,0x40
"I2C","data",7.43431328,2.224e-05,true,,,0x09
"I2C","data",7.43433904,2.24e-05,true,,,0x40
"I2C","data",7.43436464,2.24e-05,true,,,0x1C
"I2C","data",7.43439056,2.224e-05,true,,,0xC9
"I2C","data",7.43441616,2.224e-05,true,,,0x0E
"I2C","data",7.43444192,2.24e-05,true,,,0x40
"I2C","data",7.43446784,2.224e-05,true,,,0x01
"I2C","data",7.43449344,2.224e-05,true,,,0x01
"I2C","data",7.43451936,2.224e-05,true,,,0x43
"I2C","data",7.43454496,2.224e-05,true,,,0xE7
"I2C","data",7.43457056,2.224e-05,true,,,0x20
"I2C","data",7.43459632,2.224e-05,true,,,0x01
"I2C","data",7.43462192,2.224e-05,true,,,0x40
"I2C","data",7.43464784,2.224e-05,true,,,0x08
"I2C","data",7.43467344,2.224e-05,true,,,0x20
"I2C","data",7.43469904,2.224e-05,true,,,0x01
"I2C","data",7.4347248,2.24e-05,true,,,0x43
"I2C","data",7.4347504,2.24e-05,true,,,0x68
"I2C","data",7.43477632,2.224e-05,true,,,0x79
"I2C","data",7.43480192,2.224e-05,true,,,0xC9
"I2C","data",7.43482752,2.224e-05,true,,,0x08
"I2C","data",7.43485328,2.24e-05,true,,,0x42
"I2C","data",7.43487888,2.24e-05,true,,,0x07
"I2C","data",7.4349048,2.224e-05,true,,,0xC9
"I2C","data",7.4349304,2.224e-05,true,,,0x00
"I2C","data",7.434956,2.224e-05,true,,,0x52
"I2C","data",7.43498192,2.224e-05,true,,,0x0F
"I2C","data",7.43500752,2.224e-05,true,,,0x11
"I2C","data",7.43503328,2.224e-05,true,,,0x43
"I2C","data",7.43505888,2.224e-05,true,,,0x82
"I2C","data",7.43508448,2.224e-05,true,,,0x00
"I2C","data",7.4351104,2.224e-05,true,,,0x57
"I2C","data",7.435136,2.224e-05,true,,,0x20
"I2C","data",7.43516176,2.24e-05,true,,,0xE9
"I2C","data",7.43518736,2.24e-05,true,,,0x73
"I2C","data",7.43521296,2.24e-05,true,,,0x00
"I2C","data",7.43523888,2.224e-05,true,,,0x01
"I2C","data",7.43526448,2.224e-05,true,,,0x31
"I2C","data",7.43529024,2.24e-05,true,,,0x46
"I2C","data",7.43531584,2.24e-05,true,,,0x20
"I2C","data",7.43534144,2.24e-05,true,,,0x18
"I2C","data",7.43536736,2.224e-05,true,,,0x01
"I2C","data",7.43539296,2.224e-05,true,,,0xF0
"I2C","data",7.43541888,2.224e-05,true,,,0x8E
"I2C","data",7.43544448,2.224e-05,true,,,0xF9
"I2C","data",7.43547024,2.224e-05,true,,,0x19
"I2C","data",7.43549584,2.224e-05,true,,,0x21
"I2C","data",7.43552144,2.224e-05,true,,,0x49
"I2C","data",7.43554736,2.224e-05,true,,,0x01
"I2C","data",7.43557296,2.224e-05,true,,,0x61
"I2C","data",7.43559872,2.24e-05,true,,,0x18
"I2C","data",7.43562432,2.24e-05,true,,,0x49
"I2C","data",7.43564992,2.24e-05,true,,,0x8B
"I2C","data",7.43567584,2.224e-05,true,,,0x38
"I2C","data",7.43570144,2.224e-05,true,,,0x0C
"I2C","data",7.4357272,2.24e-05,true,,,0x88
"I2C","data",7.4357528,2.24e-05,true,,,0x42
"I2C","data",7.4357784,2.24e-05,true,,,0x1C
"I2C","data",7.43580432,2.224e-05,true,,,0xD1
"I2C","data",7.43582992,2.224e-05,true,,,0x0B
"I2C","data",7.43585584,2.224e-05,true,,,0x20
"I2C","data",7.43588144,2.224e-05,true,,,0xC0
"I2C","data",7.43590704,2.224e-05,true,,,0x01
"I2C","data",7.4359328,2.224e-05,true,,,0x20
"I2C","data",7.4359584,2.224e-05,true,,,0x18
"I2C","data",7.43598432,2.224e-05,true,,,0x41
"I2C","data",7.43600992,2.224e-05,true,,,0x7D
"I2C","data",7.43603552,2.224e-05,true,,,0xCA
"I2C","data",7.43606128,2.24e-05,true,,,0x06
"I2C","data",7.43608688,2.24e-05,true,,,0xD2
"I2C","data",7.4361128,2.224e-05,true,,,0x0E
"I2C","data",7.4361384,2.224e-05,true,,,0x00
"I2C","data",7.436164,2.224e-05,true,,,0xE0
"I2C","data",7.43618976,2.24e-05,true,,,0x1D
"I2C","data",7.43621536,2.24e-05,true,,,0xE0
"I2C","data",7.43624128,2.224e-05,true,,,0x49
"I2C","data",7.43626688,2.224e-05,true,,,0x09
"I2C","data",7.43629248,2.224e-05,true,,,0x49
"I2C","data",7.4363184,2.224e-05,true,,,0x1C
"I2C","data",7.436344,2.224e-05,true,,,0x49
"I2C","data",7.43636976,2.224e-05,true,,,0x01
"I2C","data",7.43639536,2.224e-05,true,,,0x0A
"I2C","data",7.43642096,2.224e-05,true,,,0x43
"I2C","data",7.43644656,2.224e-05,true,,,0xE7
"I2C","data",7.43647248,2.224e-05,true,,,0x21
"I2C","data",7.43649856,2.224e-05,true,,,0x0A
"I2C","data",7.43652416,2.224e-05,true,,,0x40
"I2C","data",7.43654976,2.224e-05,true,,,0x69
"I2C","data",7.43657552,2.24e-05,true,,,0x79
"I2C","data",7.43660112,2.24e-05,true,,,0xD2
"I2C","data",7.43662704,2.224e-05,true,,,0x08
"I2C","data",7.43665264,2.224e-05,true,,,0x4B
"I2C","data",7.43667824,2.224e-05,true,,,0x07
"I2C","data",7.43670416,2.224e-05,true,,,0xD2
"I2C","data",7.43672976,2.224e-05,true,,,0x00
"I2C","data",7.43675552,2.224e-05,true,,,0x5B
"I2C","data",7.43678112,2.224e-05,true,,,0x0F
"I2C","data",7.43680672,2.224e-05,true,,,0x1A
"I2C","data",7.43683264,2.224e-05,true,,,0x43
"I2C","data",7.43685824,2.224e-05,true,,,0x42
"I2C","data",7.436884,2.24e-05,true,,,0x75
"I2C","data",7.4369096,2.24e-05,true,,,0x5A
"I2C","data",7.4369352,2.24e-05,true,,,0x48
"I2C","data",7.43696112,2.224e-05,true,,,0x8A
"I2C","data",7.43698672,2.224e-05,true,,,0x00
"I2C","data",7.43701248,2.24e-05,true,,,0x31
"I2C","data",7.43703808,2.24e-05,true,,,0x46
"I2C","data",7.43706368,2.24e-05,true,,,0x20
"I2C","data",7.4370896,2.224e-05,true,,,0x18
"I2C","data",7.4371152,2.224e-05,true,,,0x01
"I2C","data",7.43714112,2.224e-05,true,,,0xF0
"I2C","data",7.43716672,2.224e-05,true,,,0x6A
"I2C","data",7.43719232,2.224e-05,true,,,0xF8
"I2C","data",7.43721808,2.224e-05,true,,,0x3B
"I2C","data",7.43724368,2.224e-05,true,,,0x21
"I2C","data",7.4372696,2.224e-05,true,,,0x00
"I2C","data",7.4372952,2.224e-05,true,,,0xE0
"I2C","data",7.4373208,2.224e-05,true,,,0x0B
"I2C","data",7.43734656,2.24e-05,true,,,0x21
"I2C","data",7.43737216,2.24e-05,true,,,0x02
"I2C","data",7.43739808,2.224e-05,true,,,0x98
"I2C","data",7.43742368,2.224e-05,true,,,0x01
"I2C","data",7.43744944,2.24e-05,true,,,0xF0
"I2C","data",7.43747536,2.224e-05,true,,,0x24
"I2C","data",7.43750096,2.224e-05,true,,,0xF9
"I2C","data",7.43752688,2.224e-05,true,,,0x02
"I2C","data",7.43755248,2.224e-05,true,,,0x98
"I2C","data",7.43757808,2.224e-05,true,,,0x00
"I2C","data",7.43760384,2.224e-05,true,,,0xF0
"I2C","data",7.43762944,2.224e-05,true,,,0xAF
"I2C","data",7.43765536,2.224e-05,true,,,0xFF
"I2C","data",7.43768096,2.224e-05,true,,,0x00
"I2C","data",7.43770656,2.224e-05,true,,,0x20
"I2C","data",7.43773232,2.24e-05,true,,,0x00
"I2C","data",7.43775792,2.24e-05,true,,,0x90
"I2C","data",7.43778384,2.224e-05,true,,,0x00
"I2C","data",7.43780944,2.224e-05,true,,,0x98
"I2C","data",7.43783504,2.224e-05,true,,,0x05
"I2C","data",7.4378608,2.24e-05,true,,,0xB0
"I2C","data",7.4378864,2.24e-05,true,,,0xF0
"I2C","data",7.43791232,2.224e-05,true,,,0xBD
"I2C","data",7.43793792,2.224e-05,true,,,0x10
"I2C","data",7.43796352,2.224e-05,true,,,0xB5
"I2C","data",7.43798944,2.224e-05,true,,,0x04
"I2C","data",7.43801504,2.224e-05,true,,,0x46
"I2C","data",7.4380408,2.224e-05,true,,,0x01
"I2C","data",7.4380664,2.224e-05,true,,,0xF0
"I2C","data",7.438092,2.224e-05,true,,,0x72
"I2C","data",7.43811792,2.224e-05,true,,,0xF9
"I2C","data",7.43814352,2.224e-05,true,,,0xC5
"I2C","data",7.43816928,2.24e-05,true,,,0x21
"I2C","data",7.43819488,2.24e-05,true,,,0xC9
"I2C","data",7.43822048,2.24e-05,true,,,0x00
"I2C","data",7.4382464,2.224e-05,true,,,0x4C
"I2C","data",7.438272,2.224e-05,true,,,0x43
"I2C","data",7.43829776,2.24e-05,true,,,0x45
"I2C","data",7.43832336,2.24e-05,true,,,0x49
"I2C","data",7.43834896,2.24e-05,true,,,0x61
"I2C","data",7.43837488,2.224e-05,true,,,0x18
"I2C","data",7.43840048,2.224e-05,true,,,0xFF
"I2C","data",7.43843152,2.24e-05,true,,,0x31
"I2C","data",7.43845712,2.24e-05,true,,,0x81
"I2C","data",7.43848304,2.224e-05,true,,,0x31
"I2C","data",7.43850864,2.224e-05,true,,,0xC9
"I2C","data",7.43853456,2.224e-05,true,,,0x6B
"I2C","data",7.43856064,2.224e-05,true,,,0xC9
"I2C","data",7.43858624,2.224e-05,true,,,0x00
"I2C","data",7.43861184,2.224e-05,true,,,0x89
"I2C","data",7.4386376,2.224e-05,true,,,0x0F
"I2C","data",7.4386632,2.224e-05,true,,,0x02
"I2C","data",7.43868912,2.224e-05,true,,,0x29
"I2C","data",7.43871472,2.224e-05,true,,,0x02
"I2C","data",7.43874032,2.224e-05,true,,,0xD0
"I2C","data",7.43876608,2.24e-05,true,,,0x01
"I2C","data",7.43879168,2.24e-05,true,,,0x21
"I2C","data",7.4388176,2.224e-05,true,,,0x89
"I2C","data",7.4388432,2.224e-05,true,,,0x05
"I2C","data",7.4388688,2.224e-05,true,,,0x88
"I2C","data",7.43889456,2.24e-05,true,,,0x43
"I2C","data",7.43892016,2.24e-05,true,,,0x10
"I2C","data",7.43894608,2.224e-05,true,,,0xBD
"I2C","data",7.43897168,2.224e-05,true,,,0xF8
"I2C","data",7.43899728,2.224e-05,true,,,0xB5
"I2C","data",7.4390232,2.224e-05,true,,,0x06
"I2C","data",7.4390488,2.224e-05,true,,,0x46
"I2C","data",7.43907456,2.224e-05,true,,,0x0A
"I2C","data",7.43910016,2.224e-05,true,,,0x46
"I2C","data",7.43912576,2.224e-05,true,,,0xC5
"I2C","data",7.43915168,2.224e-05,true,,,0x20
"I2C","data",7.43917728,2.224e-05,true,,,0xC0
"I2C","data",7.43920304,2.24e-05,true,,,0x00
"I2C","data",7.43922864,2.24e-05,true,,,0x31
"I2C","data",7.43925424,2.24e-05,true,,,0x46
"I2C","data",7.43928016,2.224e-05,true,,,0x41
"I2C","data",7.43930576,2.224e-05,true,,,0x43
"I2C","data",7.43933152,2.24e-05,true,,,0x3B
"I2C","data",7.43935712,2.24e-05,true,,,0x48
"I2C","data",7.43938272,2.24e-05,true,,,0x01
"I2C","data",7.43940864,2.224e-05,true,,,0x27
"I2C","data",7.43943456,2.224e-05,true,,,0x0C
"I2C","data",7.43946032,2.224e-05,true,,,0x18
"I2C","data",7.43948592,2.224e-05,true,,,0xA9
"I2C","data",7.43951152,2.224e-05,true,,,0x20
"I2C","data",7.43953744,2.224e-05,true,,,0xC0
"I2C","data",7.43956304,2.224e-05,true,,,0x00
"I2C","data",7.4395888,2.24e-05,true,,,0x25
"I2C","data",7.4396144,2.24e-05,true,,,0x18
"I2C","data",7.43964,2.24e-05,true,,,0xFF
"I2C","data",7.43966592,2.224e-05,true,,,0x20
"I2C","data",7.43969152,2.224e-05,true,,,0x81
"I2C","data",7.43971728,2.24e-05,true,,,0x30
"I2C","data",7.43974288,2.24e-05,true,,,0x00
"I2C","data",7.43976848,2.24e-05,true,,,0x59
"I2C","data",7.4397944,2.224e-05,true,,,0xC1
"I2C","data",7.43982,2.224e-05,true,,,0x06
"I2C","data",7.43984592,2.224e-05,true,,,0x03
"I2C","data",7.43987152,2.224e-05,true,,,0x0C
"I2C","data",7.43989712,2.224e-05,true,,,0x00
"I2C","data",7.43992288,2.224e-05,true,,,0x06
"I2C","data",7.43994848,2.224e-05,true,,,0xC9
"I2C","data",7.4399744,2.224e-05,true,,,0x0E
"I2C","data",7.44,2.224e-05,true,,,0x80
"I2C","data",7.4400256,2.224e-05,true,,,0x0F
"I2C","data",7.44005136,2.24e-05,true,,,0x01
"I2C","data",7.44007696,2.24e-05,true,,,0x29
"I2C","data",7.44010288,2.224e-05,true,,,0x2C
"I2C","data",7.44012848,2.224e-05,true,,,0xD1
"I2C","data",7.44015408,2.224e-05,true,,,0xFF
"I2C","data",7.44017984,2.24e-05,true,,,0x21
"I2C","data",7.44020544,2.24e-05,true,,,0x09
"I2C","data",7.44023136,2.224e-05,true,,,0x02
"I2C","data",7.44025696,2.224e-05,true,,,0x8B
"I2C","data",7.44028256,2.224e-05,true,,,0x42
"I2C","data",7.44030848,2.224e-05,true,,,0x28
"I2C","data",7.44033408,2.224e-05,true,,,0xD1
"I2C","data",7.44035984,2.224e-05,true,,,0x01
"I2C","data",7.44038544,2.224e-05,true,,,0x2A
"I2C","data",7.44041104,2.224e-05,true,,,0x26
"I2C","data",7.44043696,2.224e-05,true,,,0xD1
"I2C","data",7.44046256,2.224e-05,true,,,0x2B
"I2C","data",7.44048832,2.24e-05,true,,,0x21
"I2C","data",7.44051392,2.24e-05,true,,,0x49
"I2C","data",7.44053984,2.224e-05,true,,,0x01
"I2C","data",7.44056544,2.224e-05,true,,,0x61
"I2C","data",7.44059104,2.224e-05,true,,,0x18
"I2C","data",7.4406168,2.24e-05,true,,,0x49
"I2C","data",7.4406424,2.24e-05,true,,,0x79
"I2C","data",7.44066832,2.224e-05,true,,,0x05
"I2C","data",7.44069392,2.224e-05,true,,,0x29
"I2C","data",7.44071952,2.224e-05,true,,,0x20
"I2C","data",7.44074544,2.224e-05,true,,,0xD3
"I2C","data",7.44077104,2.224e-05,true,,,0x01
"I2C","data",7.4407968,2.224e-05,true,,,0x28
"I2C","data",7.4408224,2.224e-05,true,,,0x1E
"I2C","data",7.440848,2.224e-05,true,,,0xD1
"I2C","data",7.44087392,2.224e-05,true,,,0x33
"I2C","data",7.44089952,2.224e-05,true,,,0x48
"I2C","data",7.44092528,2.24e-05,true,,,0x80
"I2C","data",7.44095088,2.24e-05,true,,,0x5D
"I2C","data",7.44097648,2.24e-05,true,,,0x77
"I2C","data",7.4410024,2.224e-05,true,,,0x28
"I2C","data",7.441028,2.224e-05,true,,,0x03
"I2C","data",7.44105376,2.24e-05,true,,,0xD0
"I2C","data",7.44107936,2.24e-05,true,,,0x7C
"I2C","data",7.44110496,2.24e-05,true,,,0x28
"I2C","data",7.44113088,2.224e-05,true,,,0x01
"I2C","data",7.44115648,2.224e-05,true,,,0xD0
"I2C","data",7.4411824,2.224e-05,true,,,0x30
"I2C","data",7.441208,2.224e-05,true,,,0x28
"I2C","data",7.4412336,2.224e-05,true,,,0x16
"I2C","data",7.44125936,2.224e-05,true,,,0xD1
"I2C","data",7.44128496,2.224e-05,true,,,0x8A
"I2C","data",7.44131088,2.224e-05,true,,,0x00
"I2C","data",7.44133648,2.224e-05,true,,,0x21
"I2C","data",7.44136208,2.224e-05,true,,,0x46
"I2C","data",7.44138784,2.24e-05,true,,,0xFF
"I2C","data",7.44141344,2.24e-05,true,,,0x31
"I2C","data",7.44143952,2.24e-05,true,,,0x12
"I2C","data",7.44146512,2.24e-05,true,,,0x1F
"I2C","data",7.44149072,2.24e-05,true,,,0x85
"I2C","data",7.44151664,2.224e-05,true,,,0x31
"I2C","data",7.44154224,2.224e-05,true,,,0x28
"I2C","data",7.44156816,2.224e-05,true,,,0x1D
"I2C","data",7.44159376,2.224e-05,true,,,0x01
"I2C","data",7.44161936,2.224e-05,true,,,0xF0
"I2C","data",7.44164512,2.224e-05,true,,,0x15
"I2C","data",7.44167072,2.224e-05,true,,,0xF9
"I2C","data",7.44169664,2.224e-05,true,,,0x28
"I2C","data",7.44172224,2.224e-05,true,,,0x7C
"I2C","data",7.44174784,2.224e-05,true,,,0x40
"I2C","data",7.4417736,2.24e-05,true,,,0x06
"I2C","data",7.4417992,2.24e-05,true,,,0x80
"I2C","data",7.44182512,2.224e-05,true,,,0x0F
"I2C","data",7.44185072,2.224e-05,true,,,0x01
"I2C","data",7.44187632,2.224e-05,true,,,0x28
"I2C","data",7.44190208,2.24e-05,true,,,0x09
"I2C","data",7.44192768,2.24e-05,true,,,0xD1
"I2C","data",7.4419536,2.224e-05,true,,,0xFF
"I2C","data",7.4419792,2.224e-05,true,,,0x34
"I2C","data",7.4420048,2.224e-05,true,,,0xA1
"I2C","data",7.44203072,2.224e-05,true,,,0x34
"I2C","data",7.44205632,2.224e-05,true,,,0x60
"I2C","data",7.44208208,2.224e-05,true,,,0x7D
"I2C","data",7.44210768,2.224e-05,true,,,0x01
"I2C","data",7.44213328,2.224e-05,true,,,0x28
"I2C","data",7.4421592,2.224e-05,true,,,0x04
"I2C","data",7.4421848,2.224e-05,true,,,0xD1
"I2C","data",7.44221056,2.24e-05,true,,,0xFF
"I2C","data",7.44223616,2.24e-05,true,,,0x21
"I2C","data",7.44226176,2.24e-05,true,,,0x2D
"I2C","data",7.44228768,2.224e-05,true,,,0x31
"I2C","data",7.44231328,2.224e-05,true,,,0x30
"I2C","data",7.44233904,2.24e-05,true,,,0x46
"I2C","data",7.44236464,2.24e-05,true,,,0x01
"I2C","data",7.44239024,2.24e-05,true,,,0xF0
"I2C","data",7.44241616,2.224e-05,true,,,0x24
"I2C","data",7.44244208,2.224e-05,true,,,0xF9
"I2C","data",7.44246784,2.224e-05,true,,,0x38
"I2C","data",7.44249344,2.224e-05,true,,,0x46
"I2C","data",7.44251904,2.224e-05,true,,,0xF8
"I2C","data",7.44254496,2.224e-05,true,,,0xBD
"I2C","data",7.44257056,2.224e-05,true,,,0x10
"I2C","data",7.44259632,2.24e-05,true,,,0xB5
"I2C","data",7.44262192,2.24e-05,true,,,0x04
"I2C","data",7.44264752,2.24e-05,true,,,0x46
"I2C","data",7.44267344,2.224e-05,true,,,0x01
"I2C","data",7.44269904,2.224e-05,true,,,0xF0
"I2C","data",7.4427248,2.24e-05,true,,,0x24
"I2C","data",7.4427504,2.24e-05,true,,,0xF9
"I2C","data",7.442776,2.24e-05,true,,,0xC5
"I2C","data",7.44280192,2.224e-05,true,,,0x20
"I2C","data",7.44282752,2.224e-05,true,,,0xC0
"I2C","data",7.44285344,2.224e-05,true,,,0x00
"I2C","data",7.44287904,2.224e-05,true,,,0x18
"I2C","data",7.44290464,2.224e-05,true,,,0x49
"I2C","data",7.4429304,2.224e-05,true,,,0x60
"I2C","data",7.442956,2.224e-05,true,,,0x43
"I2C","data",7.44298192,2.224e-05,true,,,0x41
"I2C","data",7.44300752,2.224e-05,true,,,0x18
"I2C","data",7.44303312,2.224e-05,true,,,0xFF
"I2C","data",7.44305888,2.24e-05,true,,,0x20
"I2C","data",7.44308448,2.24e-05,true,,,0xB7
"I2C","data",7.4431104,2.224e-05,true,,,0x30
"I2C","data",7.443136,2.224e-05,true,,,0x40
"I2C","data",7.4431616,2.224e-05,true,,,0x5C
"I2C","data",7.44318736,2.24e-05,true,,,0x00
"I2C","data",7.44321296,2.24e-05,true,,,0x28
"I2C","data",7.44323888,2.224e-05,true,,,0x09
"I2C","data",7.44326448,2.224e-05,true,,,0xD1
"I2C","data",7.44329008,2.224e-05,true,,,0xA0
"I2C","data",7.443316,2.224e-05,true,,,0x31
"I2C","data",7.4433416,2.224e-05,true,,,0x08
"I2C","data",7.44336736,2.224e-05,true,,,0x7B
"I2C","data",7.44339296,2.224e-05,true,,,0x80
"I2C","data",7.44341856,2.224e-05,true,,,0x06
"I2C","data",7.44344416,2.224e-05,true,,,0x40
"I2C","data",7.44347008,2.224e-05,true,,,0x0F
"I2C","data",7.44349568,2.224e-05,true,,,0x04
"I2C","data",7.44352128,2.224e-05,true,,,0x28
"I2C","data",7.44354704,2.24e-05,true,,,0x03
"I2C","data",7.44357264,2.24e-05,true,,,0xD1
"I2C","data",7.44359856,2.224e-05,true,,,0x03
"I2C","data",7.44362416,2.224e-05,true,,,0x21
"I2C","data",7.44364976,2.224e-05,true,,,0x20
"I2C","data",7.44367552,2.24e-05,true,,,0x46
"I2C","data",7.44370112,2.24e-05,true,,,0x01
"I2C","data",7.44372704,2.224e-05,true,,,0xF0
"I2C","data",7.44375264,2.224e-05,true,,,0x16
"I2C","data",7.44377824,2.224e-05,true,,,0xF9
"I2C","data",7.44380416,2.224e-05,true,,,0x10
"I2C","data",7.44382976,2.224e-05,true,,,0xBD
"I2C","data",7.44385552,2.224e-05,true,,,0xC5
"I2C","data",7.44388112,2.224e-05,true,,,0x21
"I2C","data",7.44390672,2.224e-05,true,,,0xC9
"I2C","data",7.44393264,2.224e-05,true,,,0x00
"I2C","data",7.44395824,2.224e-05,true,,,0x0E
"I2C","data",7.443984,2.224e-05,true,,,0x4A
"I2C","data",7.4440096,2.224e-05,true,,,0x41
"I2C","data",7.4440352,2.24e-05,true,,,0x43
"I2C","data",7.44406112,2.224e-05,true,,,0x89
"I2C","data",7.44408672,2.224e-05,true,,,0x18
"I2C","data",7.44411248,2.24e-05,true,,,0x0A
"I2C","data",7.44413808,2.24e-05,true,,,0x46
"I2C","data",7.44416368,2.24e-05,true,,,0x10
"I2C","data",7.4441896,2.224e-05,true,,,0xB5
"I2C","data",7.4442152,2.224e-05,true,,,0xFF
"I2C","data",7.44424112,2.224e-05,true,,,0x32
"I2C","data",7.44426672,2.224e-05,true,,,0xA1
"I2C","data",7.44429232,2.224e-05,true,,,0x32
"I2C","data",7.44431808,2.224e-05,true,,,0xD3
"I2C","data",7.44434368,2.224e-05,true,,,0x7C
"I2C","data",7.4443696,2.224e-05,true,,,0xFF
"I2C","data",7.4443952,2.224e-05,true,,,0x31
"I2C","data",7.4444208,2.224e-05,true,,,0x81
"I2C","data",7.4444464,2.224e-05,true,,,0x31
"I2C","data",7.444472,2.224e-05,true,,,0x02
"I2C","data",7.44449776,2.224e-05,true,,,0x2B
"I2C","data",7.44452336,2.224e-05,true,,,0x04
"I2C","data",7.44454928,2.224e-05,true,,,0xD0
"I2C","data",7.44457488,2.224e-05,true,,,0xCB
"I2C","data",7.44460048,2.224e-05,true,,,0x6B
"I2C","data",7.44462624,2.24e-05,true,,,0xDB
"I2C","data",7.44465184,2.24e-05,true,,,0x00
"I2C","data",7.44467776,2.224e-05,true,,,0x9B
"I2C","data",7.44470336,2.224e-05,true,,,0x0F
"I2C","data",7.44472896,2.224e-05,true,,,0x02
"I2C","data",7.44475488,2.224e-05,true,,,0x2B
"I2C","data",7.44478048,2.224e-05,true,,,0x07
"I2C","data",7.44480624,2.224e-05,true,,,0xD0
"I2C","data",7.44483184,2.224e-05,true,,,0x92
"I2C","data",7.44485744,2.224e-05,true,,,0x7D
"I2C","data",7.44488336,2.224e-05,true,,,0x00
"I2C","data",7.44490896,2.224e-05,true,,,0x2A
"I2C","data",7.44493472,2.224e-05,true,,,0x1C
"I2C","data",7.44496032,2.224e-05,true,,,0xD1
"I2C","data",7.44498592,2.224e-05,true,,,0xC9
"I2C","data",7.44501184,2.224e-05,true,,,0x6B
"I2C","data",7.44503744,2.224e-05,true,,,0xC9
"I2C","data",7.4450632,2.24e-05,true,,,0x00
"I2C","data",7.4450888,2.24e-05,true,,,0x89
"I2C","data",7.4451144,2.24e-05,true,,,0x0F
"I2C","data",7.44514032,2.224e-05,true,,,0x01
"I2C","data",7.44516592,2.224e-05,true,,,0x29
"I2C","data",7.44519184,2.224e-05,true,,,0x17
"I2C","data",7.44521744,2.224e-05,true,,,0xD1
"I2C","data",7.44524304,2.224e-05,true,,,0x03
"I2C","data",7.4452688,2.224e-05,true,,,0x21
"I2C","data",7.4452944,2.224e-05,true,,,0x13
"I2C","data",7.44532032,2.224e-05,true,,,0xE0
"I2C","data",7.44534592,2.224e-05,true,,,0x73
"I2C","data",7.44537152,2.224e-05,true,,,0x21
"I2C","data",7.44539728,2.224e-05,true,,,0x04
"I2C","data",7.44542288,2.224e-05,true,,,0x20
"I2C","data",7.4454488,2.224e-05,true,,,0x90
"I2C","data",7.4454744,2.224e-05,true,,,0x12
"I2C","data",7.44550016,2.24e-05,true,,,0x04
"I2C","data",7.44552576,2.24e-05,true,,,0x20
"I2C","data",7.44555136,2.24e-05,true,,,0x7E
"I2C","data",7.44557728,2.224e-05,true,,,0x21
"I2C","data",7.44560288,2.224e-05,true,,,0x04
"I2C","data",7.4456288,2.224e-05,true,,,0x20
"I2C","data",7.4456544,2.224e-05,true,,,0x20
"I2C","data",7.44568,2.224e-05,true,,,0x4E
"I2C","data",7.44570576,2.224e-05,true,,,0x00
"I2C","data",7.44573136,2.224e-05,true,,,0x00
"I2C","data",7.44575728,2.224e-05,true,,,0x44
"I2C","data",7.44578288,2.224e-05,true,,,0x4C
"I2C","data",7.44580848,2.224e-05,true,,,0x04
"I2C","data",7.44583424,2.224e-05,true,,,0x20
"I2C","data",7.44585984,2.224e-05,true,,,0x88
"I2C","data",7.44588576,2.224e-05,true,,,0x21
"I2C","data",7.44591136,2.224e-05,true,,,0x04
"I2C","data",7.44593696,2.224e-05,true,,,0x20
"I2C","data",7.44596272,2.24e-05,true,,,0x84
"I2C","data",7.44598832,2.24e-05,true,,,0x21
"I2C","data",7.44601424,2.224e-05,true,,,0x04
"I2C","data",7.44603984,2.224e-05,true,,,0x20
"I2C","data",7.44606544,2.224e-05,true,,,0xC8
"I2C","data",7.4460912,2.24e-05,true,,,0xAF
"I2C","data",7.44611696,2.224e-05,true,,,0x00
"I2C","data",7.44614272,2.224e-05,true,,,0x00
"I2C","data",7.44616832,2.224e-05,true,,,0x7D
"I2C","data",7.44619392,2.224e-05,true,,,0x21
"I2C","data",7.44621984,2.224e-05,true,,,0x04
"I2C","data",7.44624544,2.224e-05,true,,,0x20
"I2C","data",7.4462712,2.224e-05,true,,,0x96
"I2C","data",7.4462968,2.224e-05,true,,,0x05
"I2C","data",7.4463224,2.224e-05,true,,,0x00
"I2C","data",7.44634832,2.224e-05,true,,,0x00
"I2C","data",7.44637392,2.224e-05,true,,,0x01
"I2C","data",7.44639968,2.24e-05,true,,,0xF0
"I2C","data",7.44643056,2.224e-05,true,,,0xE2
"I2C","data",7.44645648,2.224e-05,true,,,0xF8
"I2C","data",7.44648208,2.224e-05,true,,,0x10
"I2C","data",7.44650784,2.24e-05,true,,,0xBD
"I2C","data",7.44653344,2.24e-05,true,,,0x10
"I2C","data",7.44655904,2.24e-05,true,,,0xB5
"I2C","data",7.44658496,2.224e-05,true,,,0xC5
"I2C","data",7.44661056,2.224e-05,true,,,0x21
"I2C","data",7.44663632,2.24e-05,true,,,0x04
"I2C","data",7.44666192,2.24e-05,true,,,0x46
"I2C","data",7.44668752,2.24e-05,true,,,0xC9
"I2C","data",7.44671344,2.224e-05,true,,,0x00
"I2C","data",7.44673904,2.224e-05,true,,,0x48
"I2C","data",7.44676496,2.224e-05,true,,,0x43
"I2C","data",7.44679056,2.224e-05,true,,,0xFB
"I2C","data",7.44681616,2.224e-05,true,,,0x49
"I2C","data",7.44684192,2.224e-05,true,,,0x41
"I2C","data",7.44686752,2.224e-05,true,,,0x18
"I2C","data",7.44689344,2.224e-05,true,,,0xA0
"I2C","data",7.44691904,2.224e-05,true,,,0x31
"I2C","data",7.44694464,2.224e-05,true,,,0x08
"I2C","data",7.4469704,2.24e-05,true,,,0x7B
"I2C","data",7.446996,2.24e-05,true,,,0x80
"I2C","data",7.44702192,2.224e-05,true,,,0x06
"I2C","data",7.44704752,2.224e-05,true,,,0x40
"I2C","data",7.44707312,2.224e-05,true,,,0x0F
"I2C","data",7.44709888,2.24e-05,true,,,0x03
"I2C","data",7.44712448,2.24e-05,true,,,0x28
"I2C","data",7.4471504,2.224e-05,true,,,0x02
"I2C","data",7.447176,2.224e-05,true,,,0xD3
"I2C","data",7.4472016,2.224e-05,true,,,0x20
"I2C","data",7.44722752,2.224e-05,true,,,0x46
"I2C","data",7.44725312,2.224e-05,true,,,0x00
"I2C","data",7.44727888,2.224e-05,true,,,0xF0
"I2C","data",7.44730448,2.224e-05,true,,,0xC7
"I2C","data",7.44733008,2.224e-05,true,,,0xFE
"I2C","data",7.447356,2.224e-05,true,,,0x20
"I2C","data",7.4473816,2.224e-05,true,,,0x46
"I2C","data",7.44740736,2.24e-05,true,,,0x01
"I2C","data",7.44743328,2.224e-05,true,,,0xF0
"I2C","data",7.44745888,2.224e-05,true,,,0xD4
"I2C","data",7.44748464,2.24e-05,true,,,0xF8
"I2C","data",7.44751024,2.24e-05,true,,,0x10
"I2C","data",7.44753616,2.224e-05,true,,,0xBD
"I2C","data",7.44756224,2.224e-05,true,,,0x10
"I2C","data",7.44758784,2.224e-05,true,,,0xB5
"I2C","data",7.44761344,2.224e-05,true,,,0x04
"I2C","data",7.44763936,2.224e-05,true,,,0x46
"I2C","data",7.44766496,2.224e-05,true,,,0x01
"I2C","data",7.44769072,2.24e-05,true,,,0xF0
"I2C","data",7.44771632,2.24e-05,true,,,0xD5
"I2C","data",7.44774192,2.24e-05,true,,,0xF8
"I2C","data",7.44776784,2.224e-05,true,,,0xC5
"I2C","data",7.44779344,2.224e-05,true,,,0x20
"I2C","data",7.4478192,2.24e-05,true,,,0xC0
"I2C","data",7.4478448,2.24e-05,true,,,0x00
"I2C","data",7.4478704,2.24e-05,true,,,0xF1
"I2C","data",7.44789632,2.224e-05,true,,,0x49
"I2C","data",7.44792192,2.224e-05,true,,,0x60
"I2C","data",7.44794784,2.224e-05,true,,,0x43
"I2C","data",7.44797344,2.224e-05,true,,,0x41
"I2C","data",7.44799904,2.224e-05,true,,,0x18
"I2C","data",7.4480248,2.224e-05,true,,,0xFF
"I2C","data",7.4480504,2.224e-05,true,,,0x20
"I2C","data",7.44807632,2.224e-05,true,,,0xB7
"I2C","data",7.44810192,2.224e-05,true,,,0x30
"I2C","data",7.44812752,2.224e-05,true,,,0x40
"I2C","data",7.44815328,2.24e-05,true,,,0x5C
"I2C","data",7.44817888,2.24e-05,true,,,0x01
"I2C","data",7.4482048,2.224e-05,true,,,0x28
"I2C","data",7.4482304,2.224e-05,true,,,0x0D
"I2C","data",7.448256,2.224e-05,true,,,0xD1
"I2C","data",7.44828176,2.24e-05,true,,,0xAC
"I2C","data",7.44830736,2.24e-05,true,,,0x20
"I2C","data",7.44833328,2.224e-05,true,,,0x40
"I2C","data",7.44835888,2.224e-05,true,,,0x5C
"I2C","data",7.44838448,2.224e-05,true,,,0x80
"I2C","data",7.4484104,2.224e-05,true,,,0x06
"I2C","data",7.44843616,2.224e-05,true,,,0x40
"I2C","data",7.44846208,2.224e-05,true,,,0x0F
"I2C","data",7.44848816,2.224e-05,true,,,0x03
"I2C","data",7.44851376,2.224e-05,true,,,0x28
"I2C","data",7.44853936,2.224e-05,true,,,0x07
"I2C","data",7.44856512,2.24e-05,true,,,0xD3
"I2C","data",7.44859072,2.24e-05,true,,,0x11
"I2C","data",7.44861664,2.224e-05,true,,,0x22
"I2C","data",7.44864224,2.224e-05,true,,,0x52
"I2C","data",7.44866784,2.224e-05,true,,,0x01
"I2C","data",7.44869376,2.224e-05,true,,,0x00
"I2C","data",7.44871936,2.224e-05,true,,,0x20
"I2C","data",7.44874512,2.224e-05,true,,,0x89
"I2C","data",7.44877072,2.224e-05,true,,,0x18
"I2C","data",7.44879632,2.224e-05,true,,,0xC8
"I2C","data",7.44882224,2.224e-05,true,,,0x77
"I2C","data",7.44884784,2.224e-05,true,,,0x20
"I2C","data",7.4488736,2.224e-05,true,,,0x46
"I2C","data",7.4488992,2.224e-05,true,,,0x00
"I2C","data",7.4489248,2.224e-05,true,,,0xF0
"I2C","data",7.44895072,2.224e-05,true,,,0xA7
"I2C","data",7.44897632,2.224e-05,true,,,0xFE
"I2C","data",7.44900208,2.24e-05,true,,,0x10
"I2C","data",7.44902768,2.24e-05,true,,,0xBD
"I2C","data",7.44905328,2.24e-05,true,,,0xF8
"I2C","data",7.4490792,2.224e-05,true,,,0xB5
"I2C","data",7.4491048,2.224e-05,true,,,0x06
"I2C","data",7.44913072,2.224e-05,true,,,0x46
"I2C","data",7.44915632,2.224e-05,true,,,0x01
"I2C","data",7.44918192,2.224e-05,true,,,0x20
"I2C","data",7.44920768,2.224e-05,true,,,0x84
"I2C","data",7.44923328,2.224e-05,true,,,0x46
"I2C","data",7.4492592,2.224e-05,true,,,0x97
"I2C","data",7.4492848,2.224e-05,true,,,0x20
"I2C","data",7.4493104,2.224e-05,true,,,0xC0
"I2C","data",7.44933616,2.224e-05,true,,,0x00
"I2C","data",7.44936176,2.224e-05,true,,,0xE3
"I2C","data",7.44938768,2.224e-05,true,,,0x49
"I2C","data",7.44941328,2.224e-05,true,,,0x70
"I2C","data",7.44943904,2.24e-05,true,,,0x43
"I2C","data",7.44946496,2.224e-05,true,,,0x40
"I2C","data",7.44949056,2.224e-05,true,,,0x18
"I2C","data",7.44951632,2.24e-05,true,,,0x71
"I2C","data",7.44954256,2.224e-05,true,,,0x21
"I2C","data",7.44956816,2.224e-05,true,,,0xC9
"I2C","data",7.44959376,2.224e-05,true,,,0x00
"I2C","data",7.44961952,2.224e-05,true,,,0x86
"I2C","data",7.44964512,2.224e-05,true,,,0x46
"I2C","data",7.44967104,2.224e-05,true,,,0x42
"I2C","data",7.44969664,2.224e-05,true,,,0x18
"I2C","data",7.44972224,2.224e-05,true,,,0xE1
"I2C","data",7.449748,2.24e-05,true,,,0x48
"I2C","data",7.4497736,2.24e-05,true,,,0x33
"I2C","data",7.44979952,2.224e-05,true,,,0x46
"I2C","data",7.44982512,2.224e-05,true,,,0x01
"I2C","data",7.44985072,2.224e-05,true,,,0x69
"I2C","data",7.44987648,2.24e-05,true,,,0xC5
"I2C","data",7.44990208,2.24e-05,true,,,0x20
"I2C","data",7.449928,2.224e-05,true,,,0xC0
"I2C","data",7.4499536,2.224e-05,true,,,0x00
"I2C","data",7.4499792,2.224e-05,true,,,0x43
"I2C","data",7.45000512,2.224e-05,true,,,0x43
"I2C","data",7.45003072,2.224e-05,true,,,0xDC
"I2C","data",7.45005648,2.224e-05,true,,,0x48
"I2C","data",7.45008208,2.224e-05,true,,,0x1F
"I2C","data",7.45010768,2.224e-05,true,,,0x18
"I2C","data",7.4501336,2.224e-05,true,,,0x05
"I2C","data",7.4501592,2.224e-05,true,,,0x20
"I2C","data",7.45018496,2.24e-05,true,,,0x00
"I2C","data",7.45021056,2.24e-05,true,,,0x02
"I2C","data",7.45023616,2.24e-05,true,,,0x38
"I2C","data",7.45026208,2.224e-05,true,,,0x18
"I2C","data",7.45028768,2.224e-05,true,,,0x81
"I2C","data",7.45031344,2.24e-05,true,,,0x61
"I2C","data",7.45033904,2.24e-05,true,,,0x3C
"I2C","data",7.45036464,2.24e-05,true,,,0x20
"I2C","data",7.45039056,2.224e-05,true,,,0x33
"I2C","data",7.45041616,2.224e-05,true,,,0x46
"I2C","data",7.45044208,2.224e-05,true,,,0x43
"I2C","data",7.45046768,2.224e-05,true,,,0x43
"I2C","data",7.45049344,2.224e-05,true,,,0xDA
"I2C","data",7.45051904,2.224e-05,true,,,0x48
"I2C","data",7.45054464,2.224e-05,true,,,0x3D
"I2C","data",7.45057056,2.224e-05,true,,,0x46
"I2C","data",7.45059616,2.224e-05,true,,,0x18
"I2C","data",7.45062192,2.24e-05,true,,,0x18
"I2C","data",7.45064752,2.24e-05,true,,,0x81
"I2C","data",7.45067312,2.24e-05,true,,,0x62
"I2C","data",7.45069904,2.224e-05,true,,,0xC1
"I2C","data",7.45072464,2.224e-05,true,,,0x7A
"I2C","data",7.4507504,2.24e-05,true,,,0xFF
"I2C","data",7.450776,2.24e-05,true,,,0x35
"I2C","data",7.4508016,2.24e-05,true,,,0x49
"I2C","data",7.45082752,2.224e-05,true,,,0x06
"I2C","data",7.45085312,2.224e-05,true,,,0xC1
"I2C","data",7.45087904,2.224e-05,true,,,0x35
"I2C","data",7.45090464,2.224e-05,true,,,0x4C
"I2C","data",7.45093024,2.224e-05,true,,,0x0F
"I2C","data",7.450956,2.224e-05,true,,,0xE9
"I2C","data",7.4509816,2.224e-05,true,,,0x7A
"I2C","data",7.45100752,2.224e-05,true,,,0x6B
"I2C","data",7.45103312,2.224e-05,true,,,0x7D
"I2C","data",7.45105872,2.224e-05,true,,,0x24
"I2C","data",7.45108448,2.24e-05,true,,,0x30
"I2C","data",7.45111008,2.24e-05,true,,,0x99
"I2C","data",7.451136,2.224e-05,true,,,0x42
"I2C","data",7.4511616,2.224e-05,true,,,0x00
"I2C","data",7.4511872,2.224e-05,true,,,0xD2
"I2C","data",7.45121296,2.24e-05,true,,,0x69
"I2C","data",7.45123856,2.24e-05,true,,,0x75
"I2C","data",7.45126448,2.224e-05,true,,,0x69
"I2C","data",7.45129008,2.224e-05,true,,,0x7D
"I2C","data",7.45131568,2.224e-05,true,,,0xEB
"I2C","data",7.4513416,2.224e-05,true,,,0x7D
"I2C","data",7.4513672,2.224e-05,true,,,0x49
"I2C","data",7.45139296,2.224e-05,true,,,0x03
"I2C","data",7.45141856,2.224e-05,true,,,0xDB
"I2C","data",7.45144448,2.224e-05,true,,,0x02
"I2C","data",7.45147024,2.24e-05,true,,,0x19
"I2C","data",7.45149584,2.24e-05,true,,,0x43
"I2C","data",7.45152176,2.224e-05,true,,,0xD1
"I2C","data",7.45154736,2.224e-05,true,,,0x4B
"I2C","data",7.45157296,2.224e-05,true,,,0xFF
"I2C","data",7.45159872,2.24e-05,true,,,0x37
"I2C","data",7.45162432,2.24e-05,true,,,0x19
"I2C","data",7.45165024,2.224e-05,true,,,0x43
"I2C","data",7.45167584,2.224e-05,true,,,0x81
"I2C","data",7.45170144,2.224e-05,true,,,0x37
"I2C","data",7.45172736,2.224e-05,true,,,0x11
"I2C","data",7.45175296,2.224e-05,true,,,0x60
"I2C","data",7.45177872,2.224e-05,true,,,0xF9
"I2C","data",7.45180432,2.224e-05,true,,,0x6B
"I2C","data",7.45182992,2.224e-05,true,,,0x3C
"I2C","data",7.45185584,2.224e-05,true,,,0x25
"I2C","data",7.45188144,2.224e-05,true,,,0x49
"I2C","data",7.4519072,2.24e-05,true,,,0x00
"I2C","data",7.4519328,2.24e-05,true,,,0x8B
"I2C","data",7.4519584,2.24e-05,true,,,0x0F
"I2C","data",7.45198432,2.224e-05,true,,,0x31
"I2C","data",7.45200992,2.224e-05,true,,,0x46
"I2C","data",7.45203568,2.24e-05,true,,,0x69
"I2C","data",7.45206128,2.24e-05,true,,,0x43
"I2C","data",7.45208688,2.24e-05,true,,,0xCB
"I2C","data",7.4521128,2.224e-05,true,,,0x4D
"I2C","data",7.4521384,2.224e-05,true,,,0x49
"I2C","data",7.45216432,2.224e-05,true,,,0x19
"I2C","data",7.45218992,2.224e-05,true,,,0x30
"I2C","data",7.45221552,2.224e-05,true,,,0x31
"I2C","data",7.45224128,2.224e-05,true,,,0x01
"I2C","data",7.45226688,2.224e-05,true,,,0x2B
"I2C","data",7.4522928,2.224e-05,true,,,0x0E
"I2C","data",7.4523184,2.224e-05,true,,,0xD1
"I2C","data",7.452344,2.224e-05,true,,,0x07
"I2C","data",7.45236976,2.24e-05,true,,,0x25
"I2C","data",7.45239536,2.24e-05,true,,,0x03
"I2C","data",7.45242128,2.224e-05,true,,,0x68
"I2C","data",7.45244704,2.24e-05,true,,,0xED
"I2C","data",7.45247264,2.24e-05,true,,,0x05
"I2C","data",7.45249856,2.224e-05,true,,,0xAB
"I2C","data",7.45252416,2.224e-05,true,,,0x43
"I2C","data",7.45255008,2.224e-05,true,,,0x03
"I2C","data",7.45257568,2.224e-05,true,,,0x60
"I2C","data",7.45260128,2.224e-05,true,,,0x9B
"I2C","data",7.45262704,2.224e-05,true,,,0x00
"I2C","data",7.45265264,2.224e-05,true,,,0x5B
"I2C","data",7.45267856,2.224e-05,true,,,0x0F
"I2C","data",7.45270416,2.224e-05,true,,,0x03
"I2C","data",7.45272976,2.224e-05,true,,,0x2B
"I2C","data",7.45275552,2.24e-05,true,,,0x01
"I2C","data",7.45278112,2.24e-05,true,,,0xD0
"I2C","data",7.45280704,2.224e-05,true,,,0x04
"I2C","data",7.45283264,2.224e-05,true,,,0x2B
"I2C","data",7.45285824,2.224e-05,true,,,0x03
"I2C","data",7.452884,2.24e-05,true,,,0xD1
"I2C","data",7.4529096,2.24e-05,true,,,0xC5
"I2C","data",7.45293552,2.224e-05,true,,,0x4D
"I2C","data",7.45296112,2.224e-05,true,,,0x0B
"I2C","data",7.45298672,2.224e-05,true,,,0x68
"I2C","data",7.45301264,2.224e-05,true,,,0xAB
"I2C","data",7.45303824,2.224e-05,true,,,0x43
"I2C","data",7.453064,2.224e-05,true,,,0x0B
"I2C","data",7.4530896,2.224e-05,true,,,0x60
"I2C","data",7.4531152,2.224e-05,true,,,0x13
"I2C","data",7.45314112,2.224e-05,true,,,0x68
"I2C","data",7.45316672,2.224e-05,true,,,0xC0
"I2C","data",7.45319248,2.24e-05,true,,,0x25
"I2C","data",7.45321808,2.24e-05,true,,,0x5B
"I2C","data",7.45324368,2.24e-05,true,,,0x09
"I2C","data",7.4532696,2.224e-05,true,,,0x5B
"I2C","data",7.4532952,2.224e-05,true,,,0x01
"I2C","data",7.45332096,2.24e-05,true,,,0x5B
"I2C","data",7.45334656,2.24e-05,true,,,0x1C
"I2C","data",7.45337216,2.24e-05,true,,,0x13
"I2C","data",7.45339808,2.224e-05,true,,,0x60
"I2C","data",7.45342368,2.224e-05,true,,,0x00
"I2C","data",7.45344976,2.224e-05,true,,,0x2C
"I2C","data",7.45347584,2.224e-05,true,,,0x01
"I2C","data",7.45350144,2.224e-05,true,,,0xD0
"I2C","data",7.45352704,2.224e-05,true,,,0x06
"I2C","data",7.45355296,2.224e-05,true,,,0x2C
"I2C","data",7.45357856,2.224e-05,true,,,0x02
"I2C","data",7.45360432,2.24e-05,true,,,0xD9
"I2C","data",7.45362992,2.24e-05,true,,,0xAB
"I2C","data",7.45365552,2.24e-05,true,,,0x43
"I2C","data",7.45368144,2.224e-05,true,,,0x80
"I2C","data",7.45370704,2.224e-05,true,,,0x33
"I2C","data",7.45373296,2.224e-05,true,,,0x38
"I2C","data",7.45375856,2.224e-05,true,,,0xE0
"I2C","data",7.45378416,2.224e-05,true,,,0x01
"I2C","data",7.45380992,2.224e-05,true,,,0x2C
"I2C","data",7.45383552,2.224e-05,true,,,0x35
"I2C","data",7.45386144,2.224e-05,true,,,0xD0
"I2C","data",7.45388704,2.224e-05,true,,,0xAB
"I2C","data",7.45391264,2.224e-05,true,,,0x43
"I2C","data",7.4539384,2.224e-05,true,,,0x40
"I2C","data",7.453964,2.224e-05,true,,,0x33
"I2C","data",7.45398992,2.224e-05,true,,,0x13
"I2C","data",7.45401552,2.224e-05,true,,,0x60
"I2C","data",7.45404112,2.224e-05,true,,,0x07
"I2C","data",7.45406688,2.24e-05,true,,,0x23
"I2C","data",7.45409248,2.24e-05,true,,,0x72
"I2C","data",7.4541184,2.224e-05,true,,,0x46
"I2C","data",7.454144,2.224e-05,true,,,0xDB
"I2C","data",7.4541696,2.224e-05,true,,,0x01
"I2C","data",7.45419552,2.224e-05,true,,,0xD2
"I2C","data",7.45422112,2.224e-05,true,,,0x18
"I2C","data",7.45424688,2.224e-05,true,,,0x45
"I2C","data",7.45427248,2.224e-05,true,,,0x68
"I2C","data",7.45429808,2.224e-05,true,,,0x03
"I2C","data",7.454324,2.224e-05,true,,,0x68
"I2C","data",7.4543496,2.224e-05,true,,,0x80
"I2C","data",7.45437536,2.224e-05,true,,,0x68
"I2C","data",7.45440096,2.224e-05,true,,,0x15
"I2C","data",7.45443216,2.224e-05,true,,,0x61
"I2C","data",7.45445776,2.224e-05,true,,,0xD3
"I2C","data",7.45448352,2.224e-05,true,,,0x60
"I2C","data",7.4545096,2.24e-05,true,,,0x50
"I2C","data",7.4545352,2.24e-05,true,,,0x61
"I2C","data",7.4545608,2.24e-05,true,,,0xF8
"I2C","data",7.45458672,2.224e-05,true,,,0x6B
"I2C","data",7.45461232,2.224e-05,true,,,0xB0
"I2C","data",7.45463808,2.24e-05,true,,,0x4A
"I2C","data",7.45466368,2.24e-05,true,,,0xC0
"I2C","data",7.45468928,2.24e-05,true,,,0x00
"I2C","data",7.4547152,2.224e-05,true,,,0x85
"I2C","data",7.4547408,2.224e-05,true,,,0x0F
"I2C","data",7.45476672,2.224e-05,true,,,0x97
"I2C","data",7.45479232,2.224e-05,true,,,0x20
"I2C","data",7.45481792,2.224e-05,true,,,0xC0
"I2C","data",7.45484368,2.224e-05,true,,,0x00
"I2C","data",7.45486928,2.224e-05,true,,,0xE3
"I2C","data",7.4548952,2.224e-05,true,,,0x27
"I2C","data",7.4549208,2.224e-05,true,,,0x70
"I2C","data",7.4549464,2.224e-05,true,,,0x43
"I2C","data",7.45497216,2.24e-05,true,,,0xBF
"I2C","data",7.45499776,2.24e-05,true,,,0x00
"I2C","data",7.45502368,2.224e-05,true,,,0x82
"I2C","data",7.45504928,2.224e-05,true,,,0x18
"I2C","data",7.45507488,2.224e-05,true,,,0xD0
"I2C","data",7.45510064,2.24e-05,true,,,0x19
"I2C","data",7.45512624,2.24e-05,true,,,0x03
"I2C","data",7.45515216,2.224e-05,true,,,0x22
"I2C","data",7.45517776,2.224e-05,true,,,0x52
"I2C","data",7.45520336,2.224e-05,true,,,0x05
"I2C","data",7.45522928,2.224e-05,true,,,0x01
"I2C","data",7.45525488,2.224e-05,true,,,0x2D
"I2C","data",7.45528064,2.224e-05,true,,,0x1C
"I2C","data",7.45530624,2.224e-05,true,,,0xD0
"I2C","data",7.45533184,2.224e-05,true,,,0x93
"I2C","data",7.45535776,2.224e-05,true,,,0x43
"I2C","data",7.45538336,2.224e-05,true,,,0x01
"I2C","data",7.45540912,2.24e-05,true,,,0x22
"I2C","data",7.45543472,2.24e-05,true,,,0x92
"I2C","data",7.45546064,2.224e-05,true,,,0x05
"I2C","data",7.45548624,2.224e-05,true,,,0x9A
"I2C","data",7.455512,2.24e-05,true,,,0x18
"I2C","data",7.45553824,2.224e-05,true,,,0x02
"I2C","data",7.45556384,2.224e-05,true,,,0x60
"I2C","data",7.45558944,2.224e-05,true,,,0x03
"I2C","data",7.4556152,2.224e-05,true,,,0x2C
"I2C","data",7.4556408,2.224e-05,true,,,0x07
"I2C","data",7.45566672,2.224e-05,true,,,0xD9
"I2C","data",7.45569232,2.224e-05,true,,,0x73
"I2C","data",7.45571792,2.224e-05,true,,,0x23
"I2C","data",7.45574368,2.24e-05,true,,,0xA2
"I2C","data",7.45576928,2.24e-05,true,,,0x00
"I2C","data",7.4557952,2.224e-05,true,,,0x70
"I2C","data",7.4558208,2.224e-05,true,,,0x46
"I2C","data",7.4558464,2.224e-05,true,,,0xDB
"I2C","data",7.45587216,2.24e-05,true,,,0x00
"I2C","data",7.45589776,2.24e-05,true,,,0x0C
"I2C","data",7.45592368,2.224e-05,true,,,0x3A
"I2C","data",7.45594928,2.224e-05,true,,,0xC0
"I2C","data",7.45597488,2.224e-05,true,,,0x18
"I2C","data",7.4560008,2.224e-05,true,,,0x00
"I2C","data",7.4560264,2.224e-05,true,,,0xF0
"I2C","data",7.45605216,2.224e-05,true,,,0xFD
"I2C","data",7.45607776,2.224e-05,true,,,0xFF
"I2C","data",7.45610336,2.224e-05,true,,,0x64
"I2C","data",7.45612928,2.224e-05,true,,,0x1C
"I2C","data",7.45615488,2.224e-05,true,,,0xA4
"I2C","data",7.45618064,2.24e-05,true,,,0x46
"I2C","data",7.45620624,2.24e-05,true,,,0x00
"I2C","data",7.45623184,2.24e-05,true,,,0x20
"I2C","data",7.45625776,2.224e-05,true,,,0x00
"I2C","data",7.45628336,2.224e-05,true,,,0x90
"I2C","data",7.45630912,2.24e-05,true,,,0x63
"I2C","data",7.45633472,2.24e-05,true,,,0x46
"I2C","data",7.45636032,2.24e-05,true,,,0x0F
"I2C","data",7.45638624,2.224e-05,true,,,0x22
"I2C","data",7.45641184,2.224e-05,true,,,0x01
"I2C","data",7.45643792,2.224e-05,true,,,0x21
"I2C","data",7.45646352,2.224e-05,true,,,0x30
"I2C","data",7.45648912,2.224e-05,true,,,0x46
"I2C","data",7.45651504,2.224e-05,true,,,0x01
"I2C","data",7.45654064,2.224e-05,true,,,0xF0
"I2C","data",7.4565664,2.224e-05,true,,,0x2F
"I2C","data",7.456592,2.224e-05,true,,,0xF8
"I2C","data",7.4566176,2.224e-05,true,,,0xF8
"I2C","data",7.45664352,2.224e-05,true,,,0xBD
"I2C","data",7.45666912,2.224e-05,true,,,0x2B
"I2C","data",7.45669488,2.24e-05,true,,,0x43
"I2C","data",7.45672048,2.24e-05,true,,,0x13
"I2C","data",7.45674608,2.24e-05,true,,,0x60
"I2C","data",7.456772,2.224e-05,true,,,0xF3
"I2C","data",7.4567976,2.224e-05,true,,,0xE7
"I2C","data",7.45682352,2.224e-05,true,,,0x07
"I2C","data",7.45684912,2.224e-05,true,,,0x21
"I2C","data",7.45687472,2.224e-05,true,,,0xC9
"I2C","data",7.45690048,2.224e-05,true,,,0x05
"I2C","data",7.45692608,2.224e-05,true,,,0x8B
"I2C","data",7.456952,2.224e-05,true,,,0x43
"I2C","data",7.4569776,2.224e-05,true,,,0x93
"I2C","data",7.4570032,2.224e-05,true,,,0x43
"I2C","data",7.45702896,2.224e-05,true,,,0x99
"I2C","data",7.45705456,2.224e-05,true,,,0x00
"I2C","data",7.45708048,2.224e-05,true,,,0x49
"I2C","data",7.45710608,2.224e-05,true,,,0x0F
"I2C","data",7.45713168,2.224e-05,true,,,0x03
"I2C","data",7.45715744,2.24e-05,true,,,0x60
"I2C","data",7.45718304,2.24e-05,true,,,0x03
"I2C","data",7.45720896,2.224e-05,true,,,0x29
"I2C","data",7.45723456,2.224e-05,true,,,0x03
"I2C","data",7.45726016,2.224e-05,true,,,0xD0
"I2C","data",7.45728608,2.224e-05,true,,,0x04
"I2C","data",7.45731168,2.224e-05,true,,,0x29
"I2C","data",7.45733744,2.224e-05,true,,,0x01
"I2C","data",7.45736304,2.224e-05,true,,,0xD0
"I2C","data",7.45738864,2.224e-05,true,,,0x06
"I2C","data",7.45741456,2.224e-05,true,,,0x29
"I2C","data",7.45744032,2.224e-05,true,,,0x03
"I2C","data",7.45746624,2.224e-05,true,,,0xD3
"I2C","data",7.45749184,2.224e-05,true,,,0x07
"I2C","data",7.45751744,2.224e-05,true,,,0x21
"I2C","data",7.4575432,2.24e-05,true,,,0xC9
"I2C","data",7.4575688,2.24e-05,true,,,0x06
"I2C","data",7.45759472,2.224e-05,true,,,0x8B
"I2C","data",7.45762032,2.224e-05,true,,,0x43
"I2C","data",7.45764592,2.224e-05,true,,,0x03
"I2C","data",7.45767184,2.224e-05,true,,,0x60
"I2C","data",7.45769744,2.224e-05,true,,,0x98
"I2C","data",7.4577232,2.224e-05,true,,,0x00
"I2C","data",7.4577488,2.224e-05,true,,,0x40
"I2C","data",7.4577744,2.224e-05,true,,,0x0F
"I2C","data",7.45780032,2.224e-05,true,,,0x05
"I2C","data",7.45782592,2.224e-05,true,,,0x28
"I2C","data",7.45785168,2.224e-05,true,,,0xDC
"I2C","data",7.45787728,2.224e-05,true,,,0xD0
"I2C","data",7.45790288,2.224e-05,true,,,0x03
"I2C","data",7.4579288,2.224e-05,true,,,0x2C
"I2C","data",7.4579544,2.224e-05,true,,,0xDA
"I2C","data",7.45798016,2.24e-05,true,,,0xD9
"I2C","data",7.45800576,2.24e-05,true,,,0x03
"I2C","data",7.45803136,2.24e-05,true,,,0x24
"I2C","data",7.45805728,2.224e-05,true,,,0xD8
"I2C","data",7.45808288,2.224e-05,true,,,0xE7
"I2C","data",7.45810864,2.24e-05,true,,,0xF1
"I2C","data",7.45813424,2.24e-05,true,,,0xB5
"I2C","data",7.45816,2.224e-05,true,,,0x82
"I2C","data",7.45818576,2.224e-05,true,,,0xB0
"I2C","data",7.45821136,2.224e-05,true,,,0x97
"I2C","data",7.45823728,2.224e-05,true,,,0x21
"I2C","data",7.45826288,2.224e-05,true,,,0x02
"I2C","data",7.45828848,2.224e-05,true,,,0x98
"I2C","data",7.45831424,2.224e-05,true,,,0xC9
"I2C","data",7.45833984,2.224e-05,true,,,0x00
"I2C","data",7.45836576,2.224e-05,true,,,0x48
"I2C","data",7.45839136,2.224e-05,true,,,0x43
"I2C","data",7.45841696,2.224e-05,true,,,0x8B
"I2C","data",7.45844256,2.224e-05,true,,,0x49
"I2C","data",7.45846832,2.24e-05,true,,,0xC5
"I2C","data",7.4584944,2.24e-05,true,,,0x22
"I2C","data",7.45852,2.24e-05,true,,,0x40
"I2C","data",7.4585456,2.24e-05,true,,,0x18
"I2C","data",7.45857152,2.224e-05,true,,,0x71
"I2C","data",7.45859712,2.224e-05,true,,,0x21
"I2C","data",7.45862304,2.224e-05,true,,,0xC9
"I2C","data",7.45864864,2.224e-05,true,,,0x00
"I2C","data",7.45867424,2.224e-05,true,,,0x46
"I2C","data",7.4587,2.224e-05,true,,,0x18
"I2C","data",7.4587256,2.224e-05,true,,,0x01
"I2C","data",7.45875152,2.224e-05,true,,,0x90
"I2C","data",7.45877712,2.224e-05,true,,,0x02
"I2C","data",7.45880272,2.224e-05,true,,,0x98
"I2C","data",7.45882848,2.24e-05,true,,,0xD2
"I2C","data",7.45885408,2.24e-05,true,,,0x00
"I2C","data",7.45888,2.224e-05,true,,,0x50
"I2C","data",7.4589056,2.224e-05,true,,,0x43
"I2C","data",7.4589312,2.224e-05,true,,,0x85
"I2C","data",7.45895696,2.24e-05,true,,,0x4A
"I2C","data",7.45898256,2.24e-05,true,,,0x01
"I2C","data",7.45900848,2.224e-05,true,,,0x24
"I2C","data",7.45903408,2.224e-05,true,,,0x82
"I2C","data",7.45905968,2.224e-05,true,,,0x18
"I2C","data",7.4590856,2.224e-05,true,,,0x00
"I2C","data",7.4591112,2.224e-05,true,,,0x92
"I2C","data",7.45913696,2.224e-05,true,,,0xFF
"I2C","data",7.45916256,2.224e-05,true,,,0x32
"I2C","data",7.45918816,2.224e-05,true,,,0xC1
"I2C","data",7.45921408,2.224e-05,true,,,0x32
"I2C","data",7.45923968,2.224e-05,true,,,0x50
"I2C","data",7.45926544,2.24e-05,true,,,0x7D
"I2C","data",7.45929104,2.24e-05,true,,,0xD2
"I2C","data",7.45931664,2.24e-05,true,,,0x7D
"I2C","data",7.45934256,2.224e-05,true,,,0x40
"I2C","data",7.45936816,2.224e-05,true,,,0x03
"I2C","data",7.45939392,2.24e-05,true,,,0xD2
"I2C","data",7.45941952,2.24e-05,true,,,0x02
"I2C","data",7.45944544,2.224e-05,true,,,0x10
"I2C","data",7.45947136,2.224e-05,true,,,0x43
"I2C","data",7.45949696,2.224e-05,true,,,0x84
"I2C","data",7.45952272,2.224e-05,true,,,0x4A
"I2C","data",7.45954832,2.224e-05,true,,,0x00
"I2C","data",7.45957392,2.224e-05,true,,,0x25
"I2C","data",7.45959984,2.224e-05,true,,,0x10
"I2C","data",7.45962544,2.224e-05,true,,,0x43
"I2C","data",7.4596512,2.24e-05,true,,,0x40
"I2C","data",7.4596768,2.24e-05,true,,,0x09
"I2C","data",7.4597024,2.24e-05,true,,,0x40
"I2C","data",7.45972832,2.224e-05,true,,,0x01
"I2C","data",7.45975392,2.224e-05,true,,,0x80
"I2C","data",7.45977968,2.24e-05,true,,,0x1C
"I2C","data",7.45980528,2.24e-05,true,,,0xC0
"I2C","data",7.45983088,2.24e-05,true,,,0x22
"I2C","data",7.4598568,2.224e-05,true,,,0x90
"I2C","data",7.4598824,2.224e-05,true,,,0x43
"I2C","data",7.45990832,2.224e-05,true,,,0x80
"I2C","data",7.45993392,2.224e-05,true,,,0x30
"I2C","data",7.45995952,2.224e-05,true,,,0x30
"I2C","data",7.45998528,2.224e-05,true,,,0x60
"I2C","data",7.46001088,2.224e-05,true,,,0x01
"I2C","data",7.4600368,2.224e-05,true,,,0x98
"I2C","data",7.4600624,2.224e-05,true,,,0x00
"I2C","data",7.460088,2.224e-05,true,,,0x1D
"I2C","data",7.46011376,2.24e-05,true,,,0x40
"I2C","data",7.46013936,2.24e-05,true,,,0x18
"I2C","data",7.46016528,2.224e-05,true,,,0x18
"I2C","data",7.46019088,2.224e-05,true,,,0x21
"I2C","data",7.46021648,2.224e-05,true,,,0x00
"I2C","data",7.46024224,2.24e-05,true,,,0xF0
"I2C","data",7.46026784,2.24e-05,true,,,0xB1
"I2C","data",7.46029376,2.224e-05,true,,,0xFF
"I2C","data",7.46031936,2.224e-05,true,,,0x02
"I2C","data",7.46034496,2.224e-05,true,,,0x98
"I2C","data",7.46037088,2.224e-05,true,,,0x50
"I2C","data",7.46039648,2.224e-05,true,,,0x22
"I2C","data",7.46042224,2.224e-05,true,,,0x50
"I2C","data",7.46044784,2.224e-05,true,,,0x43
"I2C","data",7.46047376,2.224e-05,true,,,0x7C
"I2C","data",7.46049936,2.224e-05,true,,,0x4A
"I2C","data",7.46052496,2.224e-05,true,,,0x05
"I2C","data",7.46055072,2.24e-05,true,,,0x23
"I2C","data",7.46057632,2.24e-05,true,,,0x80
"I2C","data",7.46060224,2.224e-05,true,,,0x18
"I2C","data",7.46062784,2.224e-05,true,,,0x00
"I2C","data",7.46065344,2.224e-05,true,,,0x9A
"I2C","data",7.4606792,2.24e-05,true,,,0x00
"I2C","data",7.4607048,2.24e-05,true,,,0x21
"I2C","data",7.46073072,2.224e-05,true,,,0x1B
"I2C","data",7.46075632,2.224e-05,true,,,0x02
"I2C","data",7.46078192,2.224e-05,true,,,0xD2
"I2C","data",7.46080784,2.224e-05,true,,,0x18
"I2C","data",7.46083344,2.224e-05,true,,,0x96
"I2C","data",7.4608592,2.224e-05,true,,,0x46
"I2C","data",7.4608848,2.224e-05,true,,,0x31
"I2C","data",7.4609104,2.224e-05,true,,,0xE0
"I2C","data",7.46093632,2.224e-05,true,,,0x0A
"I2C","data",7.46096192,2.224e-05,true,,,0x01
"I2C","data",7.46098768,2.24e-05,true,,,0x94
"I2C","data",7.46101328,2.24e-05,true,,,0x46
"I2C","data",7.46103888,2.24e-05,true,,,0x82
"I2C","data",7.4610648,2.224e-05,true,,,0x18
"I2C","data",7.4610904,2.224e-05,true,,,0x52
"I2C","data",7.46111616,2.24e-05,true,,,0x89
"I2C","data",7.46114176,2.24e-05,true,,,0x00
"I2C","data",7.46116736,2.24e-05,true,,,0x2A
"I2C","data",7.46119328,2.224e-05,true,,,0x28
"I2C","data",7.46121888,2.224e-05,true,,,0xD0
"I2C","data",7.4612448,2.224e-05,true,,,0x71
"I2C","data",7.4612704,2.224e-05,true,,,0x4A
"I2C","data",7.461296,2.224e-05,true,,,0x20
"I2C","data",7.46132176,2.224e-05,true,,,0x32
"I2C","data",7.46134736,2.224e-05,true,,,0x92
"I2C","data",7.46137328,2.224e-05,true,,,0x79
"I2C","data",7.46139888,2.224e-05,true,,,0x92
"I2C","data",7.46142992,2.224e-05,true,,,0x07
"I2C","data",7.46145552,2.224e-05,true,,,0x0D
"I2C","data",7.46148144,2.224e-05,true,,,0xD5
"I2C","data",7.46150704,2.224e-05,true,,,0x00
"I2C","data",7.4615328,2.224e-05,true,,,0x9A
"I2C","data",7.46155888,2.24e-05,true,,,0xC0
"I2C","data",7.46158448,2.24e-05,true,,,0x32
"I2C","data",7.46161008,2.24e-05,true,,,0x12
"I2C","data",7.461636,2.224e-05,true,,,0x6A
"I2C","data",7.4616616,2.224e-05,true,,,0x52
"I2C","data",7.46168752,2.224e-05,true,,,0x01
"I2C","data",7.46171312,2.224e-05,true,,,0x08
"I2C","data",7.46173872,2.224e-05,true,,,0xD4
"I2C","data",7.46176448,2.224e-05,true,,,0x62
"I2C","data",7.46179008,2.224e-05,true,,,0x46
"I2C","data",7.461816,2.224e-05,true,,,0x83
"I2C","data",7.4618416,2.224e-05,true,,,0x58
"I2C","data",7.4618672,2.224e-05,true,,,0x19
"I2C","data",7.46189296,2.224e-05,true,,,0x27
"I2C","data",7.46191856,2.224e-05,true,,,0x00
"I2C","data",7.46194448,2.224e-05,true,,,0x9A
"I2C","data",7.46197008,2.224e-05,true,,,0x7F
"I2C","data",7.46199568,2.224e-05,true,,,0x01
"I2C","data",7.46202144,2.24e-05,true,,,0xD2
"I2C","data",7.46204704,2.24e-05,true,,,0x19
"I2C","data",7.46207296,2.224e-05,true,,,0x52
"I2C","data",7.46209856,2.224e-05,true,,,0x8B
"I2C","data",7.46212416,2.224e-05,true,,,0x93
"I2C","data",7.46214992,2.24e-05,true,,,0x42
"I2C","data",7.46217568,2.224e-05,true,,,0x15
"I2C","data",7.46220144,2.224e-05,true,,,0xD1
"I2C","data",7.46222704,2.224e-05,true,,,0x32
"I2C","data",7.46225264,2.224e-05,true,,,0x68
"I2C","data",7.46227856,2.224e-05,true,,,0xC0
"I2C","data",7.46230416,2.224e-05,true,,,0x23
"I2C","data",7.46232992,2.224e-05,true,,,0x9A
"I2C","data",7.46235552,2.224e-05,true,,,0x43
"I2C","data",7.46238112,2.224e-05,true,,,0x40
"I2C","data",7.46240704,2.224e-05,true,,,0x32
"I2C","data",7.4624328,2.24e-05,true,,,0x32
"I2C","data",7.46245872,2.224e-05,true,,,0x60
"I2C","data",7.46248432,2.224e-05,true,,,0xEA
"I2C","data",7.46250992,2.224e-05,true,,,0x07
"I2C","data",7.46253568,2.24e-05,true,,,0x20
"I2C","data",7.46256128,2.24e-05,true,,,0xD0
"I2C","data",7.4625872,2.224e-05,true,,,0x01
"I2C","data",7.4626128,2.224e-05,true,,,0x9A
"I2C","data",7.4626384,2.224e-05,true,,,0xA3
"I2C","data",7.46266432,2.224e-05,true,,,0x00
"I2C","data",7.46268992,2.224e-05,true,,,0xD3
"I2C","data",7.46271568,2.224e-05,true,,,0x18
"I2C","data",7.46274128,2.224e-05,true,,,0x07
"I2C","data",7.46276688,2.224e-05,true,,,0x22
"I2C","data",7.4627928,2.224e-05,true,,,0xD2
"I2C","data",7.4628184,2.224e-05,true,,,0x01
"I2C","data",7.46284416,2.24e-05,true,,,0x9F
"I2C","data",7.46286976,2.24e-05,true,,,0x18
"I2C","data",7.46289536,2.24e-05,true,,,0x63
"I2C","data",7.46292128,2.224e-05,true,,,0x46
"I2C","data",7.46294688,2.224e-05,true,,,0xC3
"I2C","data",7.46297264,2.24e-05,true,,,0x58
"I2C","data",7.46299824,2.24e-05,true,,,0xBA
"I2C","data",7.46302384,2.24e-05,true,,,0x68
"I2C","data",7.46304976,2.224e-05,true,,,0x1A
"I2C","data",7.46307536,2.224e-05,true,,,0x43
"I2C","data",7.46310128,2.224e-05,true,,,0x64
"I2C","data",7.46312688,2.224e-05,true,,,0x1C
"I2C","data",7.46315248,2.224e-05,true,,,0xE4
"I2C","data",7.46317824,2.224e-05,true,,,0xB2
"I2C","data",7.46320384,2.224e-05,true,,,0xBA
"I2C","data",7.46322976,2.224e-05,true,,,0x60
"I2C","data",7.46325536,2.224e-05,true,,,0x6D
"I2C","data",7.46328096,2.224e-05,true,,,0x1C
"I2C","data",7.46330672,2.24e-05,true,,,0xED
"I2C","data",7.46333232,2.24e-05,true,,,0xB2
"I2C","data",7.46335824,2.224e-05,true,,,0x49
"I2C","data",7.46338384,2.224e-05,true,,,0x1C
"I2C","data",7.46340944,2.224e-05,true,,,0x05
"I2C","data",7.46343504,2.224e-05,true,,,0x29
"I2C","data",7.4634608,2.24e-05,true,,,0x03
"I2C","data",7.46348704,2.224e-05,true,,,0xD2
"I2C","data",7.46351264,2.224e-05,true,,,0x72
"I2C","data",7.46353824,2.224e-05,true,,,0x46
"I2C","data",7.463564,2.224e-05,true,,,0x52
"I2C","data",7.4635896,2.224e-05,true,,,0x69
"I2C","data",7.46361552,2.224e-05,true,,,0x52
"I2C","data",7.46364112,2.224e-05,true,,,0x01
"I2C","data",7.46366672,2.224e-05,true,,,0xC9
"I2C","data",7.46369248,2.24e-05,true,,,0xD4
"I2C","data",7.46371808,2.24e-05,true,,,0x00
"I2C","data",7.463744,2.224e-05,true,,,0x2D
"I2C","data",7.4637696,2.224e-05,true,,,0x01
"I2C","data",7.4637952,2.224e-05,true,,,0xD0
"I2C","data",7.46382096,2.24e-05,true,,,0x64
"I2C","data",7.46384656,2.24e-05,true,,,0x1C
"I2C","data",7.46387248,2.224e-05,true,,,0xE4
"I2C","data",7.46389808,2.224e-05,true,,,0xB2
"I2C","data",7.46392368,2.224e-05,true,,,0x70
"I2C","data",7.4639496,2.224e-05,true,,,0x46
"I2C","data",7.4639752,2.224e-05,true,,,0x40
"I2C","data",7.46400096,2.224e-05,true,,,0x69
"I2C","data",7.46402656,2.224e-05,true,,,0x40
"I2C","data",7.46405216,2.224e-05,true,,,0x01
"I2C","data",7.46407808,2.224e-05,true,,,0x0D
"I2C","data",7.46410368,2.224e-05,true,,,0xD5
"I2C","data",7.46412944,2.24e-05,true,,,0x01
"I2C","data",7.46415504,2.24e-05,true,,,0x2C
"I2C","data",7.46418064,2.24e-05,true,,,0x0B
"I2C","data",7.46420656,2.224e-05,true,,,0xD0
"I2C","data",7.46423216,2.224e-05,true,,,0x0F
"I2C","data",7.46425792,2.24e-05,true,,,0xE0
"I2C","data",7.46428352,2.24e-05,true,,,0x62
"I2C","data",7.46430912,2.24e-05,true,,,0x46
"I2C","data",7.46433504,2.224e-05,true,,,0x82
"I2C","data",7.46436064,2.224e-05,true,,,0x5A
"I2C","data",7.46438656,2.224e-05,true,,,0xA7
"I2C","data",7.46441216,2.224e-05,true,,,0x00
"I2C","data",7.46443824,2.224e-05,true,,,0x13
"I2C","data",7.46446432,2.224e-05,true,,,0x04
"I2C","data",7.46448992,2.224e-05,true,,,0x01
"I2C","data",7.46451552,2.224e-05,true,,,0x9A
"I2C","data",7.46454128,2.24e-05,true,,,0xD7
"I2C","data",7.46456688,2.24e-05,true,,,0x19
"I2C","data",7.4645928,2.224e-05,true,,,0x07
"I2C","data",7.4646184,2.224e-05,true,,,0x22
"I2C","data",7.464644,2.224e-05,true,,,0xD2
"I2C","data",7.46466992,2.224e-05,true,,,0x01
"I2C","data",7.46469552,2.224e-05,true,,,0xBA
"I2C","data",7.46472128,2.224e-05,true,,,0x18
"I2C","data",7.46474688,2.224e-05,true,,,0x93
"I2C","data",7.46477248,2.224e-05,true,,,0x60
"I2C","data",7.4647984,2.224e-05,true,,,0xE0
"I2C","data",7.464824,2.224e-05,true,,,0xE7
"I2C","data",7.46484976,2.24e-05,true,,,0x30
"I2C","data",7.46487536,2.24e-05,true,,,0x68
"I2C","data",7.46490096,2.24e-05,true,,,0xC0
"I2C","data",7.46492688,2.224e-05,true,,,0x21
"I2C","data",7.46495248,2.224e-05,true,,,0x88
"I2C","data",7.46497824,2.24e-05,true,,,0x43
"I2C","data",7.46500384,2.24e-05,true,,,0x80
"I2C","data",7.46502944,2.24e-05,true,,,0x30
"I2C","data",7.46505536,2.224e-05,true,,,0x30
"I2C","data",7.46508096,2.224e-05,true,,,0x60
"I2C","data",7.46510688,2.224e-05,true,,,0x00
"I2C","data",7.46513248,2.224e-05,true,,,0x20
"I2C","data",7.46515808,2.224e-05,true,,,0x00
"I2C","data",7.46518384,2.224e-05,true,,,0x90
"I2C","data",7.46520944,2.224e-05,true,,,0x23
"I2C","data",7.46523536,2.224e-05,true,,,0x46
"I2C","data",7.46526096,2.224e-05,true,,,0x0F
"I2C","data",7.46528656,2.224e-05,true,,,0x22
"I2C","data",7.46531232,2.24e-05,true,,,0x01
"I2C","data",7.46533792,2.24e-05,true,,,0x21
"I2C","data",7.46536384,2.224e-05,true,,,0x02
"I2C","data",7.46538944,2.224e-05,true,,,0x98
"I2C","data",7.46541504,2.224e-05,true,,,0x00
"I2C","data",7.4654408,2.24e-05,true,,,0xF0
"I2C","data",7.4654664,2.24e-05,true,,,0x82
"I2C","data",7.46549232,2.224e-05,true,,,0xFF
"I2C","data",7.46551792,2.224e-05,true,,,0xFE
"I2C","data",7.46554384,2.224e-05,true,,,0xBD
"I2C","data",7.46556992,2.224e-05,true,,,0xF1
"I2C","data",7.46559552,2.224e-05,true,,,0xB5
"I2C","data",7.46562112,2.224e-05,true,,,0x88
"I2C","data",7.46564688,2.224e-05,true,,,0xB0
"I2C","data",7.46567248,2.224e-05,true,,,0x97
"I2C","data",7.4656984,2.224e-05,true,,,0x21
"I2C","data",7.465724,2.224e-05,true,,,0x08
"I2C","data",7.4657496,2.224e-05,true,,,0x98
"I2C","data",7.46577536,2.24e-05,true,,,0xC9
"I2C","data",7.46580096,2.24e-05,true,,,0x00
"I2C","data",7.46582688,2.224e-05,true,,,0x48
"I2C","data",7.46585248,2.224e-05,true,,,0x43
"I2C","data",7.46587808,2.224e-05,true,,,0x43
"I2C","data",7.465904,2.224e-05,true,,,0x49
"I2C","data",7.4659296,2.224e-05,true,,,0x01
"I2C","data",7.46595536,2.224e-05,true,,,0x26
"I2C","data",7.46598096,2.224e-05,true,,,0x40
"I2C","data",7.46600656,2.224e-05,true,,,0x18
"I2C","data",7.46603248,2.224e-05,true,,,0x71
"I2C","data",7.46605808,2.224e-05,true,,,0x21
"I2C","data",7.46608384,2.224e-05,true,,,0xC9
"I2C","data",7.46610944,2.224e-05,true,,,0x00
"I2C","data",7.46613504,2.224e-05,true,,,0x44
"I2C","data",7.46616096,2.224e-05,true,,,0x18
"I2C","data",7.46618656,2.224e-05,true,,,0x06
"I2C","data",7.46621232,2.24e-05,true,,,0x90
"I2C","data",7.46623792,2.24e-05,true,,,0xC5
"I2C","data",7.46626352,2.24e-05,true,,,0x21
"I2C","data",7.46628944,2.224e-05,true,,,0x08
"I2C","data",7.46631504,2.224e-05,true,,,0x98
"I2C","data",7.46634096,2.224e-05,true,,,0xC9
"I2C","data",7.46636656,2.224e-05,true,,,0x00
"I2C","data",7.46639216,2.224e-05,true,,,0x48
"I2C","data",7.46641792,2.224e-05,true,,,0x43
"I2C","data",7.46644384,2.224e-05,true,,,0x3C
"I2C","data",7.4664696,2.224e-05,true,,,0x49
"I2C","data",7.46649568,2.24e-05,true,,,0x37
"I2C","data",7.46652128,2.24e-05,true,,,0x46
"I2C","data",7.46654688,2.24e-05,true,,,0x40
"I2C","data",7.4665728,2.224e-05,true,,,0x18
"I2C","data",7.4665984,2.224e-05,true,,,0x01
"I2C","data",7.46662416,2.24e-05,true,,,0x90
"I2C","data",7.46664976,2.24e-05,true,,,0xFF
"I2C","data",7.46667536,2.24e-05,true,,,0x30
"I2C","data",7.46670128,2.224e-05,true,,,0xC1
"I2C","data",7.46672688,2.224e-05,true,,,0x30
"I2C","data",7.4667528,2.224e-05,true,,,0x41
"I2C","data",7.4667784,2.224e-05,true,,,0x7D
"I2C","data",7.466804,2.224e-05,true,,,0xC0
"I2C","data",7.46682976,2.224e-05,true,,,0x7D
"I2C","data",7.46685536,2.224e-05,true,,,0x49
"I2C","data",7.46688128,2.224e-05,true,,,0x03
"I2C","data",7.46690688,2.224e-05,true,,,0xC0
"I2C","data",7.46693248,2.224e-05,true,,,0x02
"I2C","data",7.46695824,2.24e-05,true,,,0x01
"I2C","data",7.46698384,2.24e-05,true,,,0x43
"I2C","data",7.46700976,2.224e-05,true,,,0x3B
"I2C","data",7.46703536,2.224e-05,true,,,0x48
"I2C","data",7.46706096,2.224e-05,true,,,0x01
"I2C","data",7.46708672,2.24e-05,true,,,0x43
"I2C","data",7.46711232,2.24e-05,true,,,0x48
"I2C","data",7.46713824,2.224e-05,true,,,0x09
"I2C","data",7.46716384,2.224e-05,true,,,0x40
"I2C","data",7.46718944,2.224e-05,true,,,0x01
"I2C","data",7.46721536,2.224e-05,true,,,0xC0
"I2C","data",7.46724096,2.224e-05,true,,,0x1C
"I2C","data",7.46726672,2.224e-05,true,,,0x20
"I2C","data",7.46729232,2.224e-05,true,,,0x60
"I2C","data",7.46731792,2.224e-05,true,,,0x0B
"I2C","data",7.46734384,2.224e-05,true,,,0x21
"I2C","data",7.46736944,2.224e-05,true,,,0x01
"I2C","data",7.4673952,2.24e-05,true,,,0x98
"I2C","data",7.4674208,2.24e-05,true,,,0x89
"I2C","data",7.46744688,2.24e-05,true,,,0x01
"I2C","data",7.46747312,2.224e-05,true,,,0x40
"I2C","data",7.46749872,2.224e-05,true,,,0x18
"I2C","data",7.46752432,2.224e-05,true,,,0x05
"I2C","data",7.46755008,2.224e-05,true,,,0x90
"I2C","data",7.46757568,2.224e-05,true,,,0x40
"I2C","data",7.4676016,2.224e-05,true,,,0x88
"I2C","data",7.4676272,2.224e-05,true,,,0x60
"I2C","data",7.4676528,2.224e-05,true,,,0x80
"I2C","data",7.46767856,2.24e-05,true,,,0x05
"I2C","data",7.46770416,2.24e-05,true,,,0x98
"I2C","data",7.46773008,2.224e-05,true,,,0x41
"I2C","data",7.46775568,2.224e-05,true,,,0x88
"I2C","data",7.46778128,2.224e-05,true,,,0x08
"I2C","data",7.46780704,2.24e-05,true,,,0x98
"I2C","data",7.46783264,2.24e-05,true,,,0x00
"I2C","data",7.46785856,2.224e-05,true,,,0xF0
"I2C","data",7.46788416,2.224e-05,true,,,0x59
"I2C","data",7.46790976,2.224e-05,true,,,0xFF
"I2C","data",7.46793568,2.224e-05,true,,,0xC1
"I2C","data",7.46796128,2.224e-05,true,,,0xB2
"I2C","data",7.46798704,2.224e-05,true,,,0x05
"I2C","data",7.46801264,2.224e-05,true,,,0x22
"I2C","data",7.46803824,2.224e-05,true,,,0x01
"I2C","data",7.46806416,2.224e-05,true,,,0x98
"I2C","data",7.46808976,2.224e-05,true,,,0x12
"I2C","data",7.46811552,2.24e-05,true,,,0x02
"I2C","data",7.46814112,2.24e-05,true,,,0x80
"I2C","data",7.46816672,2.24e-05,true,,,0x18
"I2C","data",7.46819264,2.224e-05,true,,,0x04
"I2C","data",7.46821824,2.224e-05,true,,,0x90
"I2C","data",7.468244,2.24e-05,true,,,0x05
"I2C","data",7.4682696,2.24e-05,true,,,0x29
"I2C","data",7.4682952,2.24e-05,true,,,0x66
"I2C","data",7.46832112,2.224e-05,true,,,0xD2
"I2C","data",7.46834672,2.224e-05,true,,,0x08
"I2C","data",7.46837264,2.224e-05,true,,,0x98
"I2C","data",7.46839824,2.224e-05,true,,,0x50
"I2C","data",7.46842384,2.224e-05,true,,,0x22
"I2C","data",7.46844944,2.224e-05,true,,,0x50
"I2C","data",7.46847504,2.224e-05,true,,,0x43
"I2C","data",7.4685008,2.224e-05,true,,,0x2E
"I2C","data",7.4685264,2.224e-05,true,,,0x4A
"I2C","data",7.46855232,2.224e-05,true,,,0x80
"I2C","data",7.46857792,2.224e-05,true,,,0x18
"I2C","data",7.46860352,2.224e-05,true,,,0x0A
"I2C","data",7.46862928,2.24e-05,true,,,0x01
"I2C","data",7.46865488,2.24e-05,true,,,0x80
"I2C","data",7.4686808,2.224e-05,true,,,0x18
"I2C","data",7.4687064,2.224e-05,true,,,0x03
"I2C","data",7.468732,2.224e-05,true,,,0x90
"I2C","data",7.46875776,2.24e-05,true,,,0x00
"I2C","data",7.46878336,2.24e-05,true,,,0x79
"I2C","data",7.46880928,2.224e-05,true,,,0x00
"I2C","data",7.46883488,2.224e-05,true,,,0x28
"I2C","data",7.46886048,2.224e-05,true,,,0x5B
"I2C","data",7.4688864,2.224e-05,true,,,0xD0
"I2C","data",7.468912,2.224e-05,true,,,0x08
"I2C","data",7.46893776,2.224e-05,true,,,0x98
"I2C","data",7.46896336,2.224e-05,true,,,0x00
"I2C","data",7.46898896,2.224e-05,true,,,0xF0
"I2C","data",7.46901488,2.224e-05,true,,,0x49
"I2C","data",7.46904048,2.224e-05,true,,,0xFF
"I2C","data",7.46906624,2.24e-05,true,,,0x03
"I2C","data",7.46909184,2.24e-05,true,,,0x98
"I2C","data",7.46911744,2.24e-05,true,,,0xA0
"I2C","data",7.46914336,2.224e-05,true,,,0x21
"I2C","data",7.46916896,2.224e-05,true,,,0x00
"I2C","data",7.46919472,2.24e-05,true,,,0x79
"I2C","data",7.46922032,2.24e-05,true,,,0x07
"I2C","data",7.46924592,2.24e-05,true,,,0x90
"I2C","data",7.46927184,2.224e-05,true,,,0x08
"I2C","data",7.46929744,2.224e-05,true,,,0x98
"I2C","data",7.46932336,2.224e-05,true,,,0x00
"I2C","data",7.46934896,2.224e-05,true,,,0x25
"I2C","data",7.46937456,2.224e-05,true,,,0x48
"I2C","data",7.46940032,2.224e-05,true,,,0x43
"I2C","data",7.46943152,2.224e-05,true,,,0x26
"I2C","data",7.46945712,2.224e-05,true,,,0x49
"I2C","data",7.46948272,2.224e-05,true,,,0x40
"I2C","data",7.46950848,2.224e-05,true,,,0x18
"I2C","data",7.46953408,2.224e-05,true,,,0x02
"I2C","data",7.46956,2.224e-05,true,,,0x90
"I2C","data",7.4695856,2.224e-05,true,,,0x32
"I2C","data",7.4696112,2.224e-05,true,,,0xE0
"I2C","data",7.46963696,2.224e-05,true,,,0x03
"I2C","data",7.46966256,2.224e-05,true,,,0x98
"I2C","data",7.46968848,2.224e-05,true,,,0x40
"I2C","data",7.46971408,2.224e-05,true,,,0x79
"I2C","data",7.46973968,2.224e-05,true,,,0x40
"I2C","data",7.46976544,2.24e-05,true,,,0x19
"I2C","data",7.46979104,2.24e-05,true,,,0x08
"I2C","data",7.46981696,2.224e-05,true,,,0x28
"I2C","data",7.46984256,2.224e-05,true,,,0x48
"I2C","data",7.46986816,2.224e-05,true,,,0xD2
"I2C","data",7.46989408,2.224e-05,true,,,0xC0
"I2C","data",7.46991968,2.224e-05,true,,,0xB2
"I2C","data",7.46994544,2.224e-05,true,,,0x14
"I2C","data",7.46997104,2.224e-05,true,,,0x22
"I2C","data",7.46999664,2.224e-05,true,,,0x02
"I2C","data",7.47002256,2.224e-05,true,,,0x99
"I2C","data",7.47004816,2.224e-05,true,,,0x50
"I2C","data",7.47007392,2.224e-05,true,,,0x43
"I2C","data",7.47009952,2.224e-05,true,,,0x09
"I2C","data",7.47012512,2.224e-05,true,,,0x18
"I2C","data",7.47015104,2.224e-05,true,,,0x00
"I2C","data",7.47017664,2.224e-05,true,,,0x91
"I2C","data",7.4702024,2.24e-05,true,,,0x09
"I2C","data",7.470228,2.24e-05,true,,,0x79
"I2C","data",7.4702536,2.24e-05,true,,,0x01
"I2C","data",7.47027952,2.224e-05,true,,,0x29
"I2C","data",7.47030512,2.224e-05,true,,,0x22
"I2C","data",7.47033104,2.224e-05,true,,,0xD1
"I2C","data",7.47035664,2.224e-05,true,,,0x21
"I2C","data",7.47038224,2.224e-05,true,,,0x68
"I2C","data",7.470408,2.224e-05,true,,,0xC0
"I2C","data",7.47043456,2.24e-05,true,,,0x22
"I2C","data",7.47046016,2.24e-05,true,,,0x91
"I2C","data",7.47048608,2.224e-05,true,,,0x43
"I2C","data",7.47051168,2.224e-05,true,,,0x40
"I2C","data",7.47053728,2.224e-05,true,,,0x31
"I2C","data",7.47056304,2.24e-05,true,,,0x21
"I2C","data",7.47058864,2.24e-05,true,,,0x60
"I2C","data",7.47061456,2.224e-05,true,,,0x02
"I2C","data",7.47064016,2.224e-05,true,,,0x99
"I2C","data",7.47066576,2.224e-05,true,,,0x09
"I2C","data",7.47069168,2.224e-05,true,,,0x58
"I2C","data",7.47071728,2.224e-05,true,,,0xB2
"I2C","data",7.47074304,2.224e-05,true,,,0x00
"I2C","data",7.47076864,2.224e-05,true,,,0x06
"I2C","data",7.47079424,2.224e-05,true,,,0x98
"I2C","data",7.47082016,2.224e-05,true,,,0x76
"I2C","data",7.47084576,2.224e-05,true,,,0x1C
"I2C","data",7.47087152,2.24e-05,true,,,0x80
"I2C","data",7.47089712,2.24e-05,true,,,0x18
"I2C","data",7.47092272,2.24e-05,true,,,0x07
"I2C","data",7.47094864,2.224e-05,true,,,0x22
"I2C","data",7.47097424,2.224e-05,true,,,0xD2
"I2C","data",7.471,2.24e-05,true,,,0x01
"I2C","data",7.4710256,2.24e-05,true,,,0x80
"I2C","data",7.4710512,2.24e-05,true,,,0x18
"I2C","data",7.47107712,2.224e-05,true,,,0x81
"I2C","data",7.47110272,2.224e-05,true,,,0x60
"I2C","data",7.47112864,2.224e-05,true,,,0x05
"I2C","data",7.47115424,2.224e-05,true,,,0x98
"I2C","data",7.47117984,2.224e-05,true,,,0x16
"I2C","data",7.4712056,2.224e-05,true,,,0x49
"I2C","data",7.4712312,2.224e-05,true,,,0x40
"I2C","data",7.47125712,2.224e-05,true,,,0x88
"I2C","data",7.47128272,2.224e-05,true,,,0xF6
"I2C","data",7.47130832,2.224e-05,true,,,0xB2
"I2C","data",7.47133408,2.24e-05,true,,,0x88
"I2C","data",7.47135968,2.24e-05,true,,,0x42
"I2C","data",7.4713856,2.224e-05,true,,,0x0A
"I2C","data",7.4714112,2.224e-05,true,,,0xD1
"I2C","data",7.47143728,2.224e-05,true,,,0x15
"I2C","data",7.47146336,2.224e-05,true,,,0x22
"I2C","data",7.47148896,2.224e-05,true,,,0x01
"I2C","data",7.47151456,2.224e-05,true,,,0x99
"I2C","data",7.47154048,2.224e-05,true,,,0x00
"I2C","data",7.47156608,2.224e-05,true,,,0x98
"I2C","data",7.47159184,2.24e-05,true,,,0x52
"I2C","data",7.47161744,2.24e-05,true,,,0x01
"I2C","data",7.47164304,2.24e-05,true,,,0x89
"I2C","data",7.47166896,2.224e-05,true,,,0x18
"I2C","data",7.47169456,2.224e-05,true,,,0x00
"I2C","data",7.47172032,2.24e-05,true,,,0x68
"I2C","data",7.47174592,2.24e-05,true,,,0x48
"I2C","data",7.47177152,2.24e-05,true,,,0x60
"I2C","data",7.47179744,2.224e-05,true,,,0x3E
"I2C","data",7.47182304,2.224e-05,true,,,0x21
"I2C","data",7.47184896,2.224e-05,true,,,0x08
"I2C","data",7.47187456,2.224e-05,true,,,0x98
"I2C","data",7.47190016,2.224e-05,true,,,0x00
"I2C","data",7.47192592,2.224e-05,true,,,0xF0
"I2C","data",7.47195152,2.224e-05,true,,,0x86
"I2C","data",7.47197744,2.224e-05,true,,,0xFE
"I2C","data",7.47200304,2.224e-05,true,,,0x00
"I2C","data",7.47202864,2.224e-05,true,,,0x98
"I2C","data",7.4720544,2.24e-05,true,,,0xC7
"I2C","data",7.47208,2.24e-05,true,,,0x72
"I2C","data",7.47210592,2.224e-05,true,,,0x7F
"I2C","data",7.47213152,2.224e-05,true,,,0x1C
"I2C","data",7.47215712,2.224e-05,true,,,0x6D
"I2C","data",7.47218288,2.24e-05,true,,,0x1C
"I2C","data",7.47220848,2.24e-05,true,,,0xED
"I2C","data",7.4722344,2.224e-05,true,,,0xB2
"I2C","data",7.47226,2.224e-05,true,,,0x07
"I2C","data",7.4722856,2.224e-05,true,,,0x98
"I2C","data",7.47231152,2.224e-05,true,,,0x85
"I2C","data",7.47233712,2.224e-05,true,,,0x42
"I2C","data",7.47236288,2.224e-05,true,,,0x17
"I2C","data",7.47238848,2.224e-05,true,,,0xD2
"I2C","data",7.47241408,2.224e-05,true,,,0x04
"I2C","data",7.47243968,2.224e-05,true,,,0x98
"I2C","data",7.4724656,2.224e-05,true,,,0x40
"I2C","data",7.47249168,2.224e-05,true,,,0x69
"I2C","data",7.47251728,2.224e-05,true,,,0x40
"I2C","data",7.47254288,2.224e-05,true,,,0x01
"I2C","data",7.47256864,2.24e-05,true,,,0xC5
"I2C","data",7.47259424,2.24e-05,true,,,0xD4
"I2C","data",7.47262016,2.224e-05,true,,,0x18
"I2C","data",7.47264576,2.224e-05,true,,,0xE0
"I2C","data",7.47267136,2.224e-05,true,,,0x11
"I2C","data",7.47269728,2.224e-05,true,,,0xE0
"I2C","data",7.47272288,2.224e-05,true,,,0x90
"I2C","data",7.47274864,2.224e-05,true,,,0x12
"I2C","data",7.47277424,2.224e-05,true,,,0x04
"I2C","data",7.47279984,2.224e-05,true,,,0x20
"I2C","data",7.47282576,2.224e-05,true,,,0xB8
"I2C","data",7.47285136,2.224e-05,true,,,0x18
"I2C","data",7.47287712,2.24e-05,true,,,0x04
"I2C","data",7.47290272,2.24e-05,true,,,0x20
"I2C","data",7.47292832,2.24e-05,true,,,0x70
"I2C","data",7.47295424,2.224e-05,true,,,0x1D
"I2C","data",7.47297984,2.224e-05,true,,,0x04
"I2C","data",7.4730056,2.24e-05,true,,,0x20
"I2C","data",7.4730312,2.24e-05,true,,,0x4C
"I2C","data",7.4730568,2.24e-05,true,,,0x4C
"I2C","data",7.47308272,2.224e-05,true,,,0x04
"I2C","data",7.47310832,2.224e-05,true,,,0x20
"I2C","data",7.47313424,2.224e-05,true,,,0x00
"I2C","data",7.47315984,2.224e-05,true,,,0x80
"I2C","data",7.47318544,2.224e-05,true,,,0x00
"I2C","data",7.4732112,2.224e-05,true,,,0xFF
"I2C","data",7.4732368,2.224e-05,true,,,0x00
"I2C","data",7.47326272,2.224e-05,true,,,0x06
"I2C","data",7.47328832,2.224e-05,true,,,0xE0
"I2C","data",7.47331392,2.224e-05,true,,,0x00
"I2C","data",7.47333968,2.24e-05,true,,,0x08
"I2C","data",7.47336528,2.24e-05,true,,,0x00
"I2C","data",7.4733912,2.224e-05,true,,,0x04
"I2C","data",7.4734168,2.224e-05,true,,,0x20
"I2C","data",7.47344256,2.24e-05,true,,,0xD0
"I2C","data",7.47346848,2.224e-05,true,,,0x20
"I2C","data",7.47349408,2.224e-05,true,,,0x04
"I2C","data",7.47352,2.224e-05,true,,,0x20
"I2C","data",7.4735456,2.224e-05,true,,,0x01
"I2C","data",7.4735712,2.224e-05,true,,,0xFF
"I2C","data",7.47359696,2.224e-05,true,,,0x00
"I2C","data",7.47362256,2.224e-05,true,,,0x00
"I2C","data",7.47364848,2.224e-05,true,,,0x04
"I2C","data",7.47367408,2.224e-05,true,,,0x98
"I2C","data",7.47369968,2.224e-05,true,,,0x40
"I2C","data",7.47372544,2.224e-05,true,,,0x69
"I2C","data",7.47375104,2.224e-05,true,,,0x40
"I2C","data",7.47377696,2.224e-05,true,,,0x01
"I2C","data",7.47380256,2.224e-05,true,,,0x01
"I2C","data",7.47382816,2.224e-05,true,,,0xD5
"I2C","data",7.47385392,2.24e-05,true,,,0x01
"I2C","data",7.47387952,2.24e-05,true,,,0x2E
"I2C","data",7.47390544,2.224e-05,true,,,0x04
"I2C","data",7.47393104,2.224e-05,true,,,0xD1
"I2C","data",7.47395664,2.224e-05,true,,,0x20
"I2C","data",7.47398256,2.224e-05,true,,,0x68
"I2C","data",7.47400816,2.224e-05,true,,,0xC0
"I2C","data",7.47403392,2.224e-05,true,,,0x21
"I2C","data",7.47405952,2.224e-05,true,,,0x88
"I2C","data",7.47408512,2.224e-05,true,,,0x43
"I2C","data",7.47411104,2.224e-05,true,,,0x80
"I2C","data",7.47413664,2.224e-05,true,,,0x30
"I2C","data",7.4741624,2.224e-05,true,,,0x20
"I2C","data",7.474188,2.224e-05,true,,,0x60
"I2C","data",7.4742136,2.224e-05,true,,,0x00
"I2C","data",7.47423952,2.224e-05,true,,,0x20
"I2C","data",7.47426512,2.224e-05,true,,,0x00
"I2C","data",7.47429088,2.24e-05,true,,,0x90
"I2C","data",7.47431648,2.24e-05,true,,,0x33
"I2C","data",7.47434208,2.24e-05,true,,,0x46
"I2C","data",7.474368,2.224e-05,true,,,0x0F
"I2C","data",7.4743936,2.224e-05,true,,,0x22
"I2C","data",7.47441952,2.224e-05,true,,,0x01
"I2C","data",7.47444528,2.224e-05,true,,,0x21
"I2C","data",7.47447088,2.224e-05,true,,,0x08
"I2C","data",7.4744968,2.224e-05,true,,,0x98
"I2C","data",7.4745224,2.224e-05,true,,,0x00
"I2C","data",7.47454816,2.224e-05,true,,,0xF0
"I2C","data",7.47457376,2.224e-05,true,,,0xD1
"I2C","data",7.47459936,2.224e-05,true,,,0xFE
"I2C","data",7.47462528,2.224e-05,true,,,0x09
"I2C","data",7.47465088,2.224e-05,true,,,0xB0
"I2C","data",7.47467664,2.24e-05,true,,,0xF0
"I2C","data",7.47470224,2.24e-05,true,,,0xBD
"I2C","data",7.47472784,2.24e-05,true,,,0x10
"I2C","data",7.47475376,2.224e-05,true,,,0xB5
"I2C","data",7.47477936,2.224e-05,true,,,0x04
"I2C","data",7.47480528,2.224e-05,true,,,0x46
"I2C","data",7.47483088,2.224e-05,true,,,0x00
"I2C","data",7.47485648,2.224e-05,true,,,0xF0
"I2C","data",7.47488224,2.224e-05,true,,,0xDD
"I2C","data",7.47490784,2.224e-05,true,,,0xFE
"I2C","data",7.47493376,2.224e-05,true,,,0x00
"I2C","data",7.47495936,2.224e-05,true,,,0x28
"I2C","data",7.47498496,2.224e-05,true,,,0x03
"I2C","data",7.47501072,2.224e-05,true,,,0xD0
"I2C","data",7.47503632,2.224e-05,true,,,0x20
"I2C","data",7.47506224,2.224e-05,true,,,0x46
"I2C","data",7.47508784,2.224e-05,true,,,0xFF
"I2C","data",7.47511344,2.224e-05,true,,,0xF7
"I2C","data",7.4751392,2.24e-05,true,,,0x04
"I2C","data",7.4751648,2.24e-05,true,,,0xFE
"I2C","data",7.47519072,2.224e-05,true,,,0x04
"I2C","data",7.47521632,2.224e-05,true,,,0xE0
"I2C","data",7.47524192,2.224e-05,true,,,0x61
"I2C","data",7.47526768,2.24e-05,true,,,0x48
"I2C","data",7.47529344,2.224e-05,true,,,0x01
"I2C","data",7.4753192,2.224e-05,true,,,0x5D
"I2C","data",7.4753448,2.224e-05,true,,,0x20
"I2C","data",7.4753704,2.224e-05,true,,,0x46
"I2C","data",7.47539632,2.224e-05,true,,,0x00
"I2C","data",7.47542192,2.224e-05,true,,,0xF0
"I2C","data",7.47544768,2.224e-05,true,,,0x6C
"I2C","data",7.47547328,2.224e-05,true,,,0xFE
"I2C","data",7.4754992,2.224e-05,true,,,0x5F
"I2C","data",7.47552528,2.224e-05,true,,,0x48
"I2C","data",7.47555088,2.224e-05,true,,,0x00
"I2C","data",7.47557648,2.224e-05,true,,,0x5D
"I2C","data",7.47560224,2.24e-05,true,,,0x10
"I2C","data",7.47562784,2.24e-05,true,,,0xBD
"I2C","data",7.47565376,2.224e-05,true,,,0x10
"I2C","data",7.47567936,2.224e-05,true,,,0xB5
"I2C","data",7.47570496,2.224e-05,true,,,0x04
"I2C","data",7.47573088,2.224e-05,true,,,0x46
"I2C","data",7.47575648,2.224e-05,true,,,0x00
"I2C","data",7.47578224,2.224e-05,true,,,0xF0
"I2C","data",7.47580784,2.224e-05,true,,,0xCB
"I2C","data",7.47583344,2.224e-05,true,,,0xFE
"I2C","data",7.47585936,2.224e-05,true,,,0x00
"I2C","data",7.47588496,2.224e-05,true,,,0x28
"I2C","data",7.47591072,2.24e-05,true,,,0x03
"I2C","data",7.47593632,2.24e-05,true,,,0xD0
"I2C","data",7.47596192,2.24e-05,true,,,0x20
"I2C","data",7.47598784,2.224e-05,true,,,0x46
"I2C","data",7.47601344,2.224e-05,true,,,0xFF
"I2C","data",7.4760392,2.24e-05,true,,,0xF7
"I2C","data",7.4760648,2.24e-05,true,,,0xA2
"I2C","data",7.4760904,2.24e-05,true,,,0xFE
"I2C","data",7.47611632,2.224e-05,true,,,0x04
"I2C","data",7.47614192,2.224e-05,true,,,0xE0
"I2C","data",7.47616784,2.224e-05,true,,,0x58
"I2C","data",7.47619344,2.224e-05,true,,,0x48
"I2C","data",7.47621904,2.224e-05,true,,,0x01
"I2C","data",7.4762448,2.224e-05,true,,,0x5D
"I2C","data",7.4762704,2.224e-05,true,,,0x20
"I2C","data",7.47629632,2.224e-05,true,,,0x46
"I2C","data",7.47632192,2.224e-05,true,,,0x00
"I2C","data",7.47634752,2.224e-05,true,,,0xF0
"I2C","data",7.47637328,2.24e-05,true,,,0x5A
"I2C","data",7.47639888,2.24e-05,true,,,0xFE
"I2C","data",7.47643008,2.224e-05,true,,,0x56
"I2C","data",7.47645584,2.24e-05,true,,,0x48
"I2C","data",7.47648192,2.24e-05,true,,,0x00
"I2C","data",7.47650752,2.24e-05,true,,,0x5D
"I2C","data",7.47653312,2.24e-05,true,,,0x10
"I2C","data",7.47655904,2.224e-05,true,,,0xBD
"I2C","data",7.47658464,2.224e-05,true,,,0x10
"I2C","data",7.47661056,2.224e-05,true,,,0xB5
"I2C","data",7.47663616,2.224e-05,true,,,0x04
"I2C","data",7.47666176,2.224e-05,true,,,0x46
"I2C","data",7.47668752,2.224e-05,true,,,0x00
"I2C","data",7.47671312,2.224e-05,true,,,0xF0
"I2C","data",7.47673904,2.224e-05,true,,,0xB9
"I2C","data",7.47676464,2.224e-05,true,,,0xFE
"I2C","data",7.47679024,2.224e-05,true,,,0x00
"I2C","data",7.476816,2.24e-05,true,,,0x28
"I2C","data",7.4768416,2.24e-05,true,,,0x03
"I2C","data",7.47686752,2.224e-05,true,,,0xD0
"I2C","data",7.47689312,2.224e-05,true,,,0x20
"I2C","data",7.47691872,2.224e-05,true,,,0x46
"I2C","data",7.47694448,2.24e-05,true,,,0xFF
"I2C","data",7.47697008,2.24e-05,true,,,0xF7
"I2C","data",7.476996,2.224e-05,true,,,0x21
"I2C","data",7.4770216,2.224e-05,true,,,0xFF
"I2C","data",7.4770472,2.224e-05,true,,,0x04
"I2C","data",7.47707312,2.224e-05,true,,,0xE0
"I2C","data",7.47709872,2.224e-05,true,,,0x4F
"I2C","data",7.47712448,2.224e-05,true,,,0x48
"I2C","data",7.47715008,2.224e-05,true,,,0x01
"I2C","data",7.47717568,2.224e-05,true,,,0x5D
"I2C","data",7.4772016,2.224e-05,true,,,0x20
"I2C","data",7.4772272,2.224e-05,true,,,0x46
"I2C","data",7.47725296,2.224e-05,true,,,0x00
"I2C","data",7.47727856,2.224e-05,true,,,0xF0
"I2C","data",7.47730416,2.24e-05,true,,,0x48
"I2C","data",7.47733008,2.224e-05,true,,,0xFE
"I2C","data",7.47735568,2.224e-05,true,,,0x4D
"I2C","data",7.47738144,2.24e-05,true,,,0x48
"I2C","data",7.47740704,2.24e-05,true,,,0x00
"I2C","data",7.47743296,2.224e-05,true,,,0x5D
"I2C","data",7.47745888,2.224e-05,true,,,0x10
"I2C","data",7.47748448,2.224e-05,true,,,0xBD
"I2C","data",7.47751024,2.224e-05,true,,,0x1C
"I2C","data",7.47753584,2.224e-05,true,,,0xB5
"I2C","data",7.47756144,2.224e-05,true,,,0x04
"I2C","data",7.47758736,2.224e-05,true,,,0x46
"I2C","data",7.47761296,2.224e-05,true,,,0x00
"I2C","data",7.47763872,2.224e-05,true,,,0xF0
"I2C","data",7.47766432,2.224e-05,true,,,0xA7
"I2C","data",7.47768992,2.224e-05,true,,,0xFE
"I2C","data",7.47771584,2.224e-05,true,,,0x00
"I2C","data",7.47774144,2.224e-05,true,,,0x28
"I2C","data",7.4777672,2.24e-05,true,,,0x14
"I2C","data",7.4777928,2.24e-05,true,,,0xD0
"I2C","data",7.4778184,2.24e-05,true,,,0xC5
"I2C","data",7.47784432,2.224e-05,true,,,0x20
"I2C","data",7.47786992,2.224e-05,true,,,0xC0
"I2C","data",7.47789584,2.224e-05,true,,,0x00
"I2C","data",7.47792144,2.224e-05,true,,,0x49
"I2C","data",7.47794704,2.224e-05,true,,,0x49
"I2C","data",7.4779728,2.224e-05,true,,,0x60
"I2C","data",7.4779984,2.224e-05,true,,,0x43
"I2C","data",7.47802432,2.224e-05,true,,,0x40
"I2C","data",7.47804992,2.224e-05,true,,,0x18
"I2C","data",7.47807552,2.224e-05,true,,,0xFF
"I2C","data",7.47810128,2.224e-05,true,,,0x30
"I2C","data",7.47812688,2.224e-05,true,,,0x81
"I2C","data",7.4781528,2.224e-05,true,,,0x30
"I2C","data",7.4781784,2.224e-05,true,,,0x00
"I2C","data",7.478204,2.224e-05,true,,,0x68
"I2C","data",7.47822976,2.24e-05,true,,,0x01
"I2C","data",7.47825536,2.24e-05,true,,,0x23
"I2C","data",7.47828128,2.224e-05,true,,,0x41
"I2C","data",7.47830688,2.224e-05,true,,,0x05
"I2C","data",7.47833248,2.224e-05,true,,,0x02
"I2C","data",7.4783584,2.224e-05,true,,,0x0C
"I2C","data",7.478384,2.224e-05,true,,,0x00
"I2C","data",7.47840976,2.224e-05,true,,,0x92
"I2C","data",7.47843568,2.224e-05,true,,,0x49
"I2C","data",7.47846128,2.224e-05,true,,,0x0F
"I2C","data",7.47848704,2.224e-05,true,,,0xC2
"I2C","data",7.47851264,2.224e-05,true,,,0x06
"I2C","data",7.47853856,2.224e-05,true,,,0x01
"I2C","data",7.47856464,2.224e-05,true,,,0x91
"I2C","data",7.47859024,2.224e-05,true,,,0xD2
"I2C","data",7.47861584,2.224e-05,true,,,0x0E
"I2C","data",7.4786416,2.24e-05,true,,,0x19
"I2C","data",7.4786672,2.24e-05,true,,,0x46
"I2C","data",7.47869312,2.224e-05,true,,,0x20
"I2C","data",7.47871872,2.224e-05,true,,,0x46
"I2C","data",7.47874432,2.224e-05,true,,,0x00
"I2C","data",7.47877024,2.224e-05,true,,,0xF0
"I2C","data",7.47879584,2.224e-05,true,,,0x97
"I2C","data",7.4788216,2.224e-05,true,,,0xFE
"I2C","data",7.4788472,2.224e-05,true,,,0x04
"I2C","data",7.4788728,2.224e-05,true,,,0xE0
"I2C","data",7.47889872,2.224e-05,true,,,0x3D
"I2C","data",7.47892432,2.224e-05,true,,,0x48
"I2C","data",7.47895008,2.24e-05,true,,,0x01
"I2C","data",7.47897568,2.24e-05,true,,,0x5D
"I2C","data",7.47900128,2.24e-05,true,,,0x20
"I2C","data",7.4790272,2.224e-05,true,,,0x46
"I2C","data",7.4790528,2.224e-05,true,,,0x00
"I2C","data",7.47907856,2.24e-05,true,,,0xF0
"I2C","data",7.47910416,2.24e-05,true,,,0x25
"I2C","data",7.47912976,2.24e-05,true,,,0xFE
"I2C","data",7.47915568,2.224e-05,true,,,0x3C
"I2C","data",7.47918128,2.224e-05,true,,,0x48
"I2C","data",7.4792072,2.224e-05,true,,,0x00
"I2C","data",7.4792328,2.224e-05,true,,,0x5D
"I2C","data",7.4792584,2.224e-05,true,,,0x1C
"I2C","data",7.47928416,2.224e-05,true,,,0xBD
"I2C","data",7.47930976,2.224e-05,true,,,0x7C
"I2C","data",7.47933568,2.224e-05,true,,,0xB5
"I2C","data",7.47936128,2.224e-05,true,,,0x06
"I2C","data",7.47938688,2.224e-05,true,,,0x9D
"I2C","data",7.47941264,2.24e-05,true,,,0x07
"I2C","data",7.47943856,2.224e-05,true,,,0x9C
"I2C","data",7.47946432,2.24e-05,true,,,0x00
"I2C","data",7.47949056,2.224e-05,true,,,0x29
"I2C","data",7.47951616,2.224e-05,true,,,0x19
"I2C","data",7.47954176,2.224e-05,true,,,0xD0
"I2C","data",7.47956752,2.224e-05,true,,,0xC5
"I2C","data",7.47959312,2.224e-05,true,,,0x21
"I2C","data",7.47961904,2.224e-05,true,,,0xC9
"I2C","data",7.47964464,2.224e-05,true,,,0x00
"I2C","data",7.47967024,2.224e-05,true,,,0x38
"I2C","data",7.479696,2.24e-05,true,,,0x4A
"I2C","data",7.4797216,2.24e-05,true,,,0x41
"I2C","data",7.47974752,2.224e-05,true,,,0x43
"I2C","data",7.47977312,2.224e-05,true,,,0x89
"I2C","data",7.47979872,2.224e-05,true,,,0x18
"I2C","data",7.47982448,2.24e-05,true,,,0xFF
"I2C","data",7.47985008,2.24e-05,true,,,0x22
"I2C","data",7.479876,2.224e-05,true,,,0xB7
"I2C","data",7.4799016,2.224e-05,true,,,0x32
"I2C","data",7.4799272,2.224e-05,true,,,0x52
"I2C","data",7.47995312,2.224e-05,true,,,0x5C
"I2C","data",7.47997872,2.224e-05,true,,,0x00
"I2C","data",7.48000448,2.224e-05,true,,,0x2A
"I2C","data",7.48003008,2.224e-05,true,,,0x0E
"I2C","data",7.48005568,2.224e-05,true,,,0xD1
"I2C","data",7.4800816,2.224e-05,true,,,0xAC
"I2C","data",7.4801072,2.224e-05,true,,,0x22
"I2C","data",7.48013296,2.24e-05,true,,,0x52
"I2C","data",7.48015856,2.24e-05,true,,,0x5C
"I2C","data",7.48018416,2.24e-05,true,,,0x92
"I2C","data",7.48021008,2.224e-05,true,,,0x06
"I2C","data",7.48023568,2.224e-05,true,,,0x52
"I2C","data",7.48026144,2.24e-05,true,,,0x0F
"I2C","data",7.48028704,2.24e-05,true,,,0x03
"I2C","data",7.48031264,2.24e-05,true,,,0x2A
"I2C","data",7.48033856,2.224e-05,true,,,0x08
"I2C","data",7.48036416,2.224e-05,true,,,0xD3
"I2C","data",7.48039008,2.224e-05,true,,,0xFF
"I2C","data",7.48041568,2.224e-05,true,,,0x31
"I2C","data",7.48044144,2.224e-05,true,,,0xE1
"I2C","data",7.48046752,2.24e-05,true,,,0x31
"I2C","data",7.48049312,2.24e-05,true,,,0x89
"I2C","data",7.48051872,2.24e-05,true,,,0x7B
"I2C","data",7.48054464,2.224e-05,true,,,0x00
"I2C","data",7.48057024,2.224e-05,true,,,0x29
"I2C","data",7.480596,2.24e-05,true,,,0x03
"I2C","data",7.4806216,2.24e-05,true,,,0xD0
"I2C","data",7.4806472,2.24e-05,true,,,0x2C
"I2C","data",7.48067312,2.224e-05,true,,,0x49
"I2C","data",7.48069872,2.224e-05,true,,,0x09
"I2C","data",7.48072464,2.224e-05,true,,,0x5C
"I2C","data",7.48075024,2.224e-05,true,,,0x00
"I2C","data",7.48077584,2.224e-05,true,,,0xF0
"I2C","data",7.4808016,2.224e-05,true,,,0x76
"I2C","data",7.4808272,2.224e-05,true,,,0xFE
"I2C","data",7.48085312,2.224e-05,true,,,0x7C
"I2C","data",7.48087872,2.224e-05,true,,,0xBD
"I2C","data",7.48090432,2.224e-05,true,,,0x00
"I2C","data",7.48093008,2.24e-05,true,,,0x95
"I2C","data",7.48095568,2.24e-05,true,,,0x01
"I2C","data",7.4809816,2.224e-05,true,,,0x94
"I2C","data",7.4810072,2.224e-05,true,,,0x00
"I2C","data",7.4810328,2.224e-05,true,,,0xF0
"I2C","data",7.48105856,2.24e-05,true,,,0x77
"I2C","data",7.48108416,2.24e-05,true,,,0xFE
"I2C","data",7.48111008,2.224e-05,true,,,0x7C
"I2C","data",7.48113568,2.224e-05,true,,,0xBD
"I2C","data",7.48116128,2.224e-05,true,,,0xC5
"I2C","data",7.4811872,2.224e-05,true,,,0x21
"I2C","data",7.4812128,2.224e-05,true,,,0xC9
"I2C","data",7.48123856,2.224e-05,true,,,0x00
"I2C","data",7.48126416,2.224e-05,true,,,0x48
"I2C","data",7.48128976,2.224e-05,true,,,0x43
"I2C","data",7.48131568,2.224e-05,true,,,0x28
"I2C","data",7.48134128,2.224e-05,true,,,0x49
"I2C","data",7.48136704,2.24e-05,true,,,0x40
"I2C","data",7.48139264,2.24e-05,true,,,0x18
"I2C","data",7.48141824,2.24e-05,true,,,0x15
"I2C","data",7.48144384,2.24e-05,true,,,0x21
"I2C","data",7.48146976,2.224e-05,true,,,0x89
"I2C","data",7.48149584,2.224e-05,true,,,0x01
"I2C","data",7.48152144,2.224e-05,true,,,0x41
"I2C","data",7.48154704,2.224e-05,true,,,0x18
"I2C","data",7.48157296,2.224e-05,true,,,0x89
"I2C","data",7.48159856,2.224e-05,true,,,0x69
"I2C","data",7.48162432,2.224e-05,true,,,0x00
"I2C","data",7.48164992,2.224e-05,true,,,0x29
"I2C","data",7.48167552,2.224e-05,true,,,0x09
"I2C","data",7.48170144,2.224e-05,true,,,0xD1
"I2C","data",7.48172704,2.224e-05,true,,,0xA0
"I2C","data",7.4817528,2.224e-05,true,,,0x30
"I2C","data",7.4817784,2.224e-05,true,,,0x00
"I2C","data",7.481804,2.224e-05,true,,,0x7B
"I2C","data",7.48182992,2.224e-05,true,,,0x80
"I2C","data",7.48185552,2.224e-05,true,,,0x06
"I2C","data",7.48188128,2.24e-05,true,,,0x40
"I2C","data",7.48190688,2.24e-05,true,,,0x0F
"I2C","data",7.48193248,2.24e-05,true,,,0x03
"I2C","data",7.4819584,2.224e-05,true,,,0x28
"I2C","data",7.481984,2.224e-05,true,,,0x03
"I2C","data",7.48200992,2.224e-05,true,,,0xD0
"I2C","data",7.48203552,2.224e-05,true,,,0x04
"I2C","data",7.48206112,2.224e-05,true,,,0x28
"I2C","data",7.48208688,2.224e-05,true,,,0x01
"I2C","data",7.48211248,2.224e-05,true,,,0xD0
"I2C","data",7.4821384,2.224e-05,true,,,0x01
"I2C","data",7.482164,2.224e-05,true,,,0x20
"I2C","data",7.4821896,2.224e-05,true,,,0x70
"I2C","data",7.48221536,2.224e-05,true,,,0x47
"I2C","data",7.48224096,2.224e-05,true,,,0x00
"I2C","data",7.48226688,2.224e-05,true,,,0x20
"I2C","data",7.48229248,2.224e-05,true,,,0x70
"I2C","data",7.48231808,2.224e-05,true,,,0x47
"I2C","data",7.48234384,2.24e-05,true,,,0xF8
"I2C","data",7.48236944,2.24e-05,true,,,0xB5
"I2C","data",7.48239536,2.224e-05,true,,,0x05
"I2C","data",7.48242096,2.224e-05,true,,,0x46
"I2C","data",7.48244688,2.224e-05,true,,,0x00
"I2C","data",7.48247264,2.224e-05,true,,,0xF0
"I2C","data",7.48249824,2.224e-05,true,,,0x61
"I2C","data",7.48252416,2.224e-05,true,,,0xFE
"I2C","data",7.48254976,2.224e-05,true,,,0x00
"I2C","data",7.48257536,2.224e-05,true,,,0x28
"I2C","data",7.48260112,2.224e-05,true,,,0x2D
"I2C","data",7.48262672,2.224e-05,true,,,0xD0
"I2C","data",7.48265264,2.224e-05,true,,,0x28
"I2C","data",7.48267824,2.224e-05,true,,,0x46
"I2C","data",7.48270384,2.224e-05,true,,,0x00
"I2C","data",7.4827296,2.24e-05,true,,,0xF0
"I2C","data",7.4827552,2.24e-05,true,,,0x08
"I2C","data",7.48278112,2.224e-05,true,,,0xFE
"I2C","data",7.48280672,2.224e-05,true,,,0x00
"I2C","data",7.48283232,2.224e-05,true,,,0x28
"I2C","data",7.48285824,2.224e-05,true,,,0x28
"I2C","data",7.48288384,2.224e-05,true,,,0xD0
"I2C","data",7.4829096,2.224e-05,true,,,0xC5
"I2C","data",7.4829352,2.224e-05,true,,,0x20
"I2C","data",7.4829608,2.224e-05,true,,,0xC0
"I2C","data",7.48298672,2.224e-05,true,,,0x00
"I2C","data",7.48301232,2.224e-05,true,,,0x17
"I2C","data",7.48303808,2.224e-05,true,,,0x49
"I2C","data",7.48306368,2.224e-05,true,,,0x68
"I2C","data",7.48308928,2.224e-05,true,,,0x43
"I2C","data",7.4831152,2.224e-05,true,,,0x44
"I2C","data",7.4831408,2.224e-05,true,,,0x18
"I2C","data",7.48316656,2.24e-05,true,,,0xAC
"I2C","data",7.48319216,2.24e-05,true,,,0x20
"I2C","data",7.48321776,2.24e-05,true,,,0x00
"I2C","data",7.48324368,2.224e-05,true,,,0x5D
"I2C","data",7.48326928,2.224e-05,true,,,0x80
"I2C","data",7.48329504,2.24e-05,true,,,0x06
"I2C","data",7.48332064,2.24e-05,true,,,0x40
"I2C","data",7.4833464,2.224e-05,true,,,0x0F
"I2C","data",7.48337216,2.224e-05,true,,,0x04
"I2C","data",7.48339776,2.224e-05,true,,,0x28
"I2C","data",7.48342368,2.224e-05,true,,,0x1D
"I2C","data",7.48344944,2.224e-05,true,,,0xD2
"I2C","data",7.48347504,2.224e-05,true,,,0x0B
"I2C","data",7.48350096,2.224e-05,true,,,0x20
"I2C","data",7.48352656,2.224e-05,true,,,0x80
"I2C","data",7.48355232,2.24e-05,true,,,0x01
"I2C","data",7.48357792,2.24e-05,true,,,0x20
"I2C","data",7.48360352,2.24e-05,true,,,0x18
"I2C","data",7.48362944,2.224e-05,true,,,0x80
"I2C","data",7.48365504,2.224e-05,true,,,0x7C
"I2C","data",7.4836808,2.24e-05,true,,,0x05
"I2C","data",7.4837064,2.24e-05,true,,,0x28
"I2C","data",7.483732,2.24e-05,true,,,0x17
"I2C","data",7.48375792,2.224e-05,true,,,0xD2
"I2C","data",7.48378352,2.224e-05,true,,,0xFF
"I2C","data",7.48380944,2.224e-05,true,,,0x34
"I2C","data",7.48383504,2.224e-05,true,,,0xA1
"I2C","data",7.48386064,2.224e-05,true,,,0x34
"I2C","data",7.4838864,2.224e-05,true,,,0x60
"I2C","data",7.483912,2.224e-05,true,,,0x7E
"I2C","data",7.48393792,2.224e-05,true,,,0x02
"I2C","data",7.48396352,2.224e-05,true,,,0x28
"I2C","data",7.48398912,2.224e-05,true,,,0x12
"I2C","data",7.48401488,2.24e-05,true,,,0xD2
"I2C","data",7.48404048,2.24e-05,true,,,0xE0
"I2C","data",7.4840664,2.224e-05,true,,,0x7C
"I2C","data",7.484092,2.224e-05,true,,,0x02
"I2C","data",7.4841176,2.224e-05,true,,,0x28
"I2C","data",7.48414336,2.24e-05,true,,,0x11
"I2C","data",7.48416896,2.24e-05,true,,,0xD0
"I2C","data",7.48419488,2.224e-05,true,,,0x0D
"I2C","data",7.48422048,2.224e-05,true,,,0x4F
"I2C","data",7.48424608,2.224e-05,true,,,0xAE
"I2C","data",7.484272,2.224e-05,true,,,0x00
"I2C","data",7.4842976,2.224e-05,true,,,0xB8
"I2C","data",7.48432336,2.224e-05,true,,,0x59
"I2C","data",7.48434896,2.224e-05,true,,,0x00
"I2C","data",7.48437456,2.224e-05,true,,,0x28
"I2C","data",7.48440048,2.224e-05,true,,,0x04
"I2C","data",7.48443152,2.224e-05,true,,,0xD0
"I2C","data",7.48445712,2.224e-05,true,,,0x28
"I2C","data",7.48448272,2.224e-05,true,,,0x46
"I2C","data",7.48450864,2.224e-05,true,,,0x00
"I2C","data",7.48453424,2.224e-05,true,,,0xF0
"I2C","data",7.48456,2.24e-05,true,,,0x3F
"I2C","data",7.4845856,2.24e-05,true,,,0xFE
"I2C","data",7.4846112,2.24e-05,true,,,0x00
"I2C","data",7.48463712,2.224e-05,true,,,0x28
"I2C","data",7.48466272,2.224e-05,true,,,0x07
"I2C","data",7.48468848,2.24e-05,true,,,0xD1
"I2C","data",7.48471408,2.24e-05,true,,,0xB8
"I2C","data",7.48473968,2.24e-05,true,,,0x59
"I2C","data",7.4847656,2.224e-05,true,,,0x00
"I2C","data",7.4847912,2.224e-05,true,,,0x28
"I2C","data",7.48481712,2.224e-05,true,,,0x02
"I2C","data",7.48484272,2.224e-05,true,,,0xD1
"I2C","data",7.48486832,2.224e-05,true,,,0x60
"I2C","data",7.48489408,2.224e-05,true,,,0x7D
"I2C","data",7.48491968,2.224e-05,true,,,0x01
"I2C","data",7.4849456,2.224e-05,true,,,0x28
"I2C","data",7.4849712,2.224e-05,true,,,0x01
"I2C","data",7.4849968,2.224e-05,true,,,0xD0
"I2C","data",7.48502256,2.24e-05,true,,,0x00
"I2C","data",7.48504816,2.24e-05,true,,,0x20
"I2C","data",7.48507408,2.224e-05,true,,,0xF8
"I2C","data",7.48509968,2.224e-05,true,,,0xBD
"I2C","data",7.48512528,2.224e-05,true,,,0x01
"I2C","data",7.48515104,2.24e-05,true,,,0x20
"I2C","data",7.48517664,2.24e-05,true,,,0xF8
"I2C","data",7.48520256,2.224e-05,true,,,0xBD
"I2C","data",7.48522816,2.224e-05,true,,,0x00
"I2C","data",7.48525376,2.224e-05,true,,,0x00
"I2C","data",7.48527968,2.224e-05,true,,,0x7E
"I2C","data",7.48530528,2.224e-05,true,,,0x21
"I2C","data",7.48533104,2.224e-05,true,,,0x04
"I2C","data",7.48535664,2.224e-05,true,,,0x20
"I2C","data",7.48538224,2.224e-05,true,,,0x7D
"I2C","data",7.48540816,2.224e-05,true,,,0x21
"I2C","data",7.48543424,2.224e-05,true,,,0x04
"I2C","data",7.48546,2.24e-05,true,,,0x20
"I2C","data",7.4854856,2.24e-05,true,,,0x90
"I2C","data",7.4855112,2.24e-05,true,,,0x12
"I2C","data",7.48553712,2.224e-05,true,,,0x04
"I2C","data",7.48556272,2.224e-05,true,,,0x20
"I2C","data",7.48558864,2.224e-05,true,,,0x74
"I2C","data",7.48561424,2.224e-05,true,,,0x21
"I2C","data",7.48563984,2.224e-05,true,,,0x04
"I2C","data",7.4856656,2.224e-05,true,,,0x20
"I2C","stop",7.48569056,1.6e-07,,,,
"I2C","start",7.4866832,1.60000001e-07,,,,
"I2C","address",7.48668624,2.24e-05,true,0x35,false,
"I2C","data",7.48671008,2.24e-05,true,,,0x10
"I2C","data",7.48673568,2.24e-05,true,,,0xB5
"I2C","data",7.4867616,2.224e-05,true,,,0x04
"I2C","data",7.4867872,2.224e-05,true,,,0x46
"I2C","data",7.48681296,2.24e-05,true,,,0x00
"I2C","data",7.48683856,2.24e-05,true,,,0xF0
"I2C","data",7.48686416,2.24e-05,true,,,0x2C
"I2C","data",7.48689008,2.224e-05,true,,,0xFE
"I2C","data",7.48691568,2.224e-05,true,,,0x0D
"I2C","data",7.4869416,2.224e-05,true,,,0x48
"I2C","data",7.4869672,2.224e-05,true,,,0x40
"I2C","data",7.4869928,2.224e-05,true,,,0x7C
"I2C","data",7.48701856,2.224e-05,true,,,0x40
"I2C","data",7.48704416,2.224e-05,true,,,0x06
"I2C","data",7.48707008,2.224e-05,true,,,0x41
"I2C","data",7.48709568,2.224e-05,true,,,0x0F
"I2C","data",7.48712128,2.224e-05,true,,,0x72
"I2C","data",7.48714704,2.24e-05,true,,,0xB6
"I2C","data",7.48717264,2.24e-05,true,,,0x02
"I2C","data",7.48719856,2.224e-05,true,,,0x29
"I2C","data",7.48722416,2.224e-05,true,,,0x0E
"I2C","data",7.48724976,2.224e-05,true,,,0xD1
"I2C","data",7.48727552,2.24e-05,true,,,0xC5
"I2C","data",7.48730112,2.24e-05,true,,,0x20
"I2C","data",7.48732704,2.224e-05,true,,,0xC0
"I2C","data",7.48735264,2.224e-05,true,,,0x00
"I2C","data",7.48737824,2.224e-05,true,,,0x44
"I2C","data",7.48740416,2.224e-05,true,,,0x43
"I2C","data",7.48743168,2.224e-05,true,,,0x09
"I2C","data",7.48745728,2.224e-05,true,,,0x48
"I2C","data",7.4874832,2.224e-05,true,,,0x20
"I2C","data",7.4875088,2.224e-05,true,,,0x18
"I2C","data",7.48753456,2.24e-05,true,,,0x80
"I2C","data",7.48756064,2.24e-05,true,,,0x30
"I2C","data",7.48758624,2.24e-05,true,,,0xC0
"I2C","data",7.48761184,2.24e-05,true,,,0x69
"I2C","data",7.48763776,2.224e-05,true,,,0xC0
"I2C","data",7.48766336,2.224e-05,true,,,0x02
"I2C","data",7.48768928,2.224e-05,true,,,0x05
"I2C","data",7.48771488,2.224e-05,true,,,0xD5
"I2C","data",7.48774048,2.224e-05,true,,,0x07
"I2C","data",7.48776624,2.224e-05,true,,,0x4A
"I2C","data",7.48779184,2.224e-05,true,,,0x50
"I2C","data",7.48781776,2.224e-05,true,,,0x21
"I2C","data",7.48784336,2.224e-05,true,,,0x09
"I2C","data",7.48786896,2.224e-05,true,,,0x20
"I2C","data",7.48789472,2.24e-05,true,,,0x00
"I2C","data",7.48792032,2.24e-05,true,,,0xF0
"I2C","data",7.48794624,2.224e-05,true,,,0xE5
"I2C","data",7.48797184,2.224e-05,true,,,0xFC
"I2C","data",7.48799744,2.224e-05,true,,,0x02
"I2C","data",7.4880232,2.24e-05,true,,,0xE0
"I2C","data",7.4880488,2.24e-05,true,,,0x09
"I2C","data",7.48807472,2.224e-05,true,,,0x20
"I2C","data",7.48810032,2.224e-05,true,,,0x00
"I2C","data",7.48812592,2.224e-05,true,,,0xF0
"I2C","data",7.48815184,2.224e-05,true,,,0x19
"I2C","data",7.48817744,2.224e-05,true,,,0xFE
"I2C","data",7.4882032,2.224e-05,true,,,0x62
"I2C","data",7.4882288,2.224e-05,true,,,0xB6
"I2C","data",7.4882544,2.224e-05,true,,,0x10
"I2C","data",7.48828032,2.224e-05,true,,,0xBD
"I2C","data",7.48830592,2.224e-05,true,,,0x00
"I2C","data",7.48833168,2.224e-05,true,,,0x00
"I2C","data",7.48835728,2.224e-05,true,,,0xD0
"I2C","data",7.48838288,2.24e-05,true,,,0x1D
"I2C","data",7.4884088,2.224e-05,true,,,0x04
"I2C","data",7.48843456,2.24e-05,true,,,0x20
"I2C","data",7.48846048,2.224e-05,true,,,0x90
"I2C","data",7.48848656,2.224e-05,true,,,0x12
"I2C","data",7.48851216,2.224e-05,true,,,0x04
"I2C","data",7.48853776,2.224e-05,true,,,0x20
"I2C","data",7.48856368,2.224e-05,true,,,0x73
"I2C","data",7.48858928,2.224e-05,true,,,0x24
"I2C","data",7.48861504,2.224e-05,true,,,0x02
"I2C","data",7.48864064,2.224e-05,true,,,0x00
"I2C","data",7.48866624,2.224e-05,true,,,0xFF
"I2C","data",7.48869216,2.224e-05,true,,,0xB5
"I2C","data",7.48871776,2.224e-05,true,,,0x83
"I2C","data",7.48874352,2.24e-05,true,,,0xB0
"I2C","data",7.48876912,2.24e-05,true,,,0x0D
"I2C","data",7.48879472,2.24e-05,true,,,0x46
"I2C","data",7.48882064,2.224e-05,true,,,0x97
"I2C","data",7.48884624,2.224e-05,true,,,0x21
"I2C","data",7.48887216,2.224e-05,true,,,0x03
"I2C","data",7.48889776,2.224e-05,true,,,0x98
"I2C","data",7.48892336,2.224e-05,true,,,0xC9
"I2C","data",7.48894912,2.224e-05,true,,,0x00
"I2C","data",7.48897472,2.224e-05,true,,,0x48
"I2C","data",7.48900064,2.224e-05,true,,,0x43
"I2C","data",7.48902624,2.224e-05,true,,,0x65
"I2C","data",7.48905184,2.224e-05,true,,,0x49
"I2C","data",7.4890776,2.224e-05,true,,,0x1F
"I2C","data",7.4891032,2.224e-05,true,,,0x46
"I2C","data",7.48912912,2.224e-05,true,,,0x41
"I2C","data",7.48915472,2.224e-05,true,,,0x18
"I2C","data",7.48918032,2.224e-05,true,,,0x07
"I2C","data",7.48920608,2.24e-05,true,,,0x20
"I2C","data",7.48923168,2.24e-05,true,,,0xC0
"I2C","data",7.4892576,2.224e-05,true,,,0x01
"I2C","data",7.4892832,2.224e-05,true,,,0x0C
"I2C","data",7.4893088,2.224e-05,true,,,0x18
"I2C","data",7.48933456,2.24e-05,true,,,0xEF
"I2C","data",7.48936016,2.24e-05,true,,,0xF3
"I2C","data",7.48938608,2.224e-05,true,,,0x10
"I2C","data",7.48941168,2.224e-05,true,,,0x80
"I2C","data",7.4894376,2.224e-05,true,,,0xC0
"I2C","data",7.48946336,2.224e-05,true,,,0x07
"I2C","data",7.48948896,2.224e-05,true,,,0xC0
"I2C","data",7.48951488,2.224e-05,true,,,0x0F
"I2C","data",7.48954096,2.224e-05,true,,,0x02
"I2C","data",7.48956656,2.224e-05,true,,,0x94
"I2C","data",7.48959216,2.224e-05,true,,,0x72
"I2C","data",7.48961792,2.24e-05,true,,,0xB6
"I2C","data",7.48964352,2.24e-05,true,,,0xC5
"I2C","data",7.48966944,2.224e-05,true,,,0x22
"I2C","data",7.48969504,2.224e-05,true,,,0x03
"I2C","data",7.48972064,2.224e-05,true,,,0x99
"I2C","data",7.48974656,2.224e-05,true,,,0xD2
"I2C","data",7.48977216,2.224e-05,true,,,0x00
"I2C","data",7.48979792,2.224e-05,true,,,0x51
"I2C","data",7.48982352,2.224e-05,true,,,0x43
"I2C","data",7.48984912,2.224e-05,true,,,0x5E
"I2C","data",7.48987504,2.224e-05,true,,,0x4A
"I2C","data",7.48990064,2.224e-05,true,,,0x8E
"I2C","data",7.4899264,2.24e-05,true,,,0x18
"I2C","data",7.489952,2.24e-05,true,,,0x1D
"I2C","data",7.4899776,2.24e-05,true,,,0x22
"I2C","data",7.49000352,2.224e-05,true,,,0x52
"I2C","data",7.49002912,2.224e-05,true,,,0x01
"I2C","data",7.49005488,2.24e-05,true,,,0xB1
"I2C","data",7.49008048,2.24e-05,true,,,0x18
"I2C","data",7.49010608,2.24e-05,true,,,0x01
"I2C","data",7.490132,2.224e-05,true,,,0x91
"I2C","data",7.4901576,2.224e-05,true,,,0xC9
"I2C","data",7.49018352,2.224e-05,true,,,0x7A
"I2C","data",7.49020912,2.224e-05,true,,,0x00
"I2C","data",7.49023472,2.224e-05,true,,,0x29
"I2C","data",7.49026048,2.224e-05,true,,,0x04
"I2C","data",7.49028608,2.224e-05,true,,,0xD0
"I2C","data",7.490312,2.224e-05,true,,,0x00
"I2C","data",7.4903376,2.224e-05,true,,,0x28
"I2C","data",7.4903632,2.224e-05,true,,,0x00
"I2C","data",7.49038896,2.24e-05,true,,,0xD1
"I2C","data",7.49041456,2.24e-05,true,,,0x62
"I2C","data",7.49044048,2.224e-05,true,,,0xB6
"I2C","data",7.49046608,2.224e-05,true,,,0x07
"I2C","data",7.49049184,2.24e-05,true,,,0xB0
"I2C","data",7.49051808,2.224e-05,true,,,0xF0
"I2C","data",7.49054368,2.224e-05,true,,,0xBD
"I2C","data",7.49056928,2.224e-05,true,,,0x01
"I2C","data",7.49059504,2.224e-05,true,,,0x9A
"I2C","data",7.49062064,2.224e-05,true,,,0x01
"I2C","data",7.49064656,2.224e-05,true,,,0x21
"I2C","data",7.49067216,2.224e-05,true,,,0xD1
"I2C","data",7.49069776,2.224e-05,true,,,0x72
"I2C","data",7.49072352,2.24e-05,true,,,0x00
"I2C","data",7.49074912,2.24e-05,true,,,0x28
"I2C","data",7.49077504,2.224e-05,true,,,0x00
"I2C","data",7.49080064,2.224e-05,true,,,0xD1
"I2C","data",7.49082624,2.224e-05,true,,,0x62
"I2C","data",7.490852,2.24e-05,true,,,0xB6
"I2C","data",7.4908776,2.24e-05,true,,,0x30
"I2C","data",7.49090352,2.224e-05,true,,,0x46
"I2C","data",7.49092912,2.224e-05,true,,,0xFF
"I2C","data",7.49095472,2.224e-05,true,,,0x30
"I2C","data",7.49098064,2.224e-05,true,,,0xA1
"I2C","data",7.49100624,2.224e-05,true,,,0x30
"I2C","data",7.491032,2.224e-05,true,,,0x00
"I2C","data",7.4910576,2.224e-05,true,,,0x90
"I2C","data",7.4910832,2.224e-05,true,,,0x05
"I2C","data",7.49110912,2.224e-05,true,,,0x76
"I2C","data",7.49113472,2.224e-05,true,,,0x01
"I2C","data",7.49116048,2.24e-05,true,,,0x20
"I2C","data",7.49118608,2.24e-05,true,,,0xA8
"I2C","data",7.49121168,2.24e-05,true,,,0x40
"I2C","data",7.4912376,2.224e-05,true,,,0x01
"I2C","data",7.4912632,2.224e-05,true,,,0x21
"I2C","data",7.49128896,2.24e-05,true,,,0x08
"I2C","data",7.49131456,2.24e-05,true,,,0x43
"I2C","data",7.49134016,2.24e-05,true,,,0xC1
"I2C","data",7.49136608,2.224e-05,true,,,0xB2
"I2C","data",7.49139168,2.224e-05,true,,,0x03
"I2C","data",7.4914176,2.224e-05,true,,,0x98
"I2C","data",7.49144336,2.224e-05,true,,,0x00
"I2C","data",7.49146896,2.224e-05,true,,,0xF0
"I2C","data",7.49149488,2.224e-05,true,,,0x8A
"I2C","data",7.49152048,2.224e-05,true,,,0xFD
"I2C","data",7.49154624,2.24e-05,true,,,0x1D
"I2C","data",7.49157184,2.24e-05,true,,,0x20
"I2C","data",7.49159744,2.24e-05,true,,,0x71
"I2C","data",7.49162336,2.224e-05,true,,,0x19
"I2C","data",7.49164896,2.224e-05,true,,,0x40
"I2C","data",7.49167472,2.24e-05,true,,,0x01
"I2C","data",7.49170032,2.24e-05,true,,,0x08
"I2C","data",7.49172592,2.24e-05,true,,,0x18
"I2C","data",7.49175184,2.224e-05,true,,,0x81
"I2C","data",7.49177744,2.224e-05,true,,,0x7D
"I2C","data",7.49180336,2.224e-05,true,,,0x01
"I2C","data",7.49182896,2.224e-05,true,,,0x20
"I2C","data",7.49185456,2.224e-05,true,,,0xA0
"I2C","data",7.49188032,2.224e-05,true,,,0x70
"I2C","data",7.49190592,2.224e-05,true,,,0x25
"I2C","data",7.49193184,2.224e-05,true,,,0x70
"I2C","data",7.49195744,2.224e-05,true,,,0xA0
"I2C","data",7.49198304,2.224e-05,true,,,0x88
"I2C","data",7.4920088,2.24e-05,true,,,0x05
"I2C","data",7.4920344,2.24e-05,true,,,0x9A
"I2C","data",7.49206032,2.224e-05,true,,,0x40
"I2C","data",7.49208592,2.224e-05,true,,,0x09
"I2C","data",7.49211152,2.224e-05,true,,,0xD2
"I2C","data",7.49213728,2.24e-05,true,,,0x06
"I2C","data",7.49216288,2.24e-05,true,,,0x40
"I2C","data",7.4921888,2.224e-05,true,,,0x01
"I2C","data",7.4922144,2.224e-05,true,,,0xD2
"I2C","data",7.49224,2.224e-05,true,,,0x0E
"I2C","data",7.49226592,2.224e-05,true,,,0x10
"I2C","data",7.49229152,2.224e-05,true,,,0x43
"I2C","data",7.49231728,2.224e-05,true,,,0x42
"I2C","data",7.49234288,2.224e-05,true,,,0x04
"I2C","data",7.49236848,2.224e-05,true,,,0x0C
"I2C","data",7.4923944,2.224e-05,true,,,0x98
"I2C","data",7.49242,2.224e-05,true,,,0x52
"I2C","data",7.49244608,2.224e-05,true,,,0x0C
"I2C","data",7.49247168,2.224e-05,true,,,0xC0
"I2C","data",7.49249728,2.224e-05,true,,,0x03
"I2C","data",7.49252304,2.24e-05,true,,,0x02
"I2C","data",7.49254864,2.24e-05,true,,,0x43
"I2C","data",7.49257456,2.224e-05,true,,,0xC0
"I2C","data",7.49260016,2.224e-05,true,,,0x20
"I2C","data",7.49262576,2.224e-05,true,,,0x82
"I2C","data",7.49265168,2.224e-05,true,,,0x43
"I2C","data",7.49267728,2.224e-05,true,,,0x30
"I2C","data",7.49270304,2.224e-05,true,,,0x46
"I2C","data",7.49272864,2.224e-05,true,,,0xFF
"I2C","data",7.49275424,2.224e-05,true,,,0x30
"I2C","data",7.49278016,2.224e-05,true,,,0xC1
"I2C","data",7.49280576,2.224e-05,true,,,0x30
"I2C","data",7.49283152,2.224e-05,true,,,0x83
"I2C","data",7.49285712,2.224e-05,true,,,0x7C
"I2C","data",7.49288272,2.224e-05,true,,,0x49
"I2C","data",7.49290864,2.224e-05,true,,,0x07
"I2C","data",7.49293424,2.224e-05,true,,,0x9B
"I2C","data",7.49296,2.24e-05,true,,,0x07
"I2C","data",7.4929856,2.24e-05,true,,,0x1B
"I2C","data",7.4930112,2.24e-05,true,,,0x0E
"I2C","data",7.49303712,2.224e-05,true,,,0x1A
"I2C","data",7.49306272,2.224e-05,true,,,0x43
"I2C","data",7.49308864,2.224e-05,true,,,0x07
"I2C","data",7.49311424,2.224e-05,true,,,0x23
"I2C","data",7.49313984,2.224e-05,true,,,0x5B
"I2C","data",7.4931656,2.224e-05,true,,,0x02
"I2C","data",7.4931912,2.224e-05,true,,,0x9A
"I2C","data",7.49321712,2.224e-05,true,,,0x43
"I2C","data",7.49324272,2.224e-05,true,,,0x09
"I2C","data",7.49326832,2.224e-05,true,,,0x0D
"I2C","data",7.49329408,2.224e-05,true,,,0x0A
"I2C","data",7.49331968,2.224e-05,true,,,0x43
"I2C","data",7.4933456,2.224e-05,true,,,0xA2
"I2C","data",7.4933712,2.224e-05,true,,,0x80
"I2C","data",7.4933968,2.224e-05,true,,,0x00
"I2C","data",7.49342256,2.24e-05,true,,,0x21
"I2C","data",7.49344848,2.224e-05,true,,,0x61
"I2C","data",7.4934744,2.224e-05,true,,,0x70
"I2C","data",7.49350048,2.224e-05,true,,,0x21
"I2C","data",7.49352608,2.224e-05,true,,,0x78
"I2C","data",7.49355168,2.224e-05,true,,,0x20
"I2C","data",7.49357744,2.224e-05,true,,,0x22
"I2C","data",7.49360304,2.224e-05,true,,,0x00
"I2C","data",7.49362896,2.224e-05,true,,,0x29
"I2C","data",7.49365456,2.224e-05,true,,,0x0B
"I2C","data",7.49368016,2.224e-05,true,,,0xD0
"I2C","data",7.49370592,2.24e-05,true,,,0xC0
"I2C","data",7.49373152,2.24e-05,true,,,0x7C
"I2C","data",7.49375744,2.224e-05,true,,,0xA1
"I2C","data",7.49378304,2.224e-05,true,,,0x88
"I2C","data",7.49380864,2.224e-05,true,,,0xC0
"I2C","data",7.4938344,2.24e-05,true,,,0x23
"I2C","data",7.49386,2.24e-05,true,,,0x80
"I2C","data",7.49388592,2.224e-05,true,,,0x07
"I2C","data",7.49391152,2.224e-05,true,,,0x99
"I2C","data",7.49393712,2.224e-05,true,,,0x43
"I2C","data",7.49396304,2.224e-05,true,,,0x00
"I2C","data",7.49398864,2.224e-05,true,,,0x0E
"I2C","data",7.4940144,2.224e-05,true,,,0x01
"I2C","data",7.49404,2.224e-05,true,,,0x43
"I2C","data",7.4940656,2.224e-05,true,,,0x91
"I2C","data",7.49409152,2.224e-05,true,,,0x43
"I2C","data",7.49411712,2.224e-05,true,,,0xA1
"I2C","data",7.49414288,2.24e-05,true,,,0x80
"I2C","data",7.49416848,2.24e-05,true,,,0x01
"I2C","data",7.49419408,2.24e-05,true,,,0x2D
"I2C","data",7.49422,2.224e-05,true,,,0x11
"I2C","data",7.4942456,2.224e-05,true,,,0xD0
"I2C","data",7.49427136,2.24e-05,true,,,0x1A
"I2C","data",7.49429696,2.24e-05,true,,,0xE0
"I2C","data",7.49432256,2.24e-05,true,,,0xA0
"I2C","data",7.49434848,2.224e-05,true,,,0x88
"I2C","data",7.49437408,2.224e-05,true,,,0xFF
"I2C","data",7.4944,2.224e-05,true,,,0x21
"I2C","data",7.49443104,2.224e-05,true,,,0x01
"I2C","data",7.49445712,2.224e-05,true,,,0x31
"I2C","data",7.49448272,2.224e-05,true,,,0x88
"I2C","data",7.49450832,2.224e-05,true,,,0x43
"I2C","data",7.49453424,2.224e-05,true,,,0x00
"I2C","data",7.49455984,2.224e-05,true,,,0x99
"I2C","data",7.4945856,2.24e-05,true,,,0x49
"I2C","data",7.4946112,2.24e-05,true,,,0x7D
"I2C","data",7.4946368,2.24e-05,true,,,0xC9
"I2C","data",7.49466272,2.224e-05,true,,,0x07
"I2C","data",7.49468832,2.224e-05,true,,,0xC9
"I2C","data",7.49471408,2.24e-05,true,,,0x0D
"I2C","data",7.49473968,2.24e-05,true,,,0x08
"I2C","data",7.49476528,2.24e-05,true,,,0x43
"I2C","data",7.4947912,2.224e-05,true,,,0x00
"I2C","data",7.4948168,2.224e-05,true,,,0x99
"I2C","data",7.49484272,2.224e-05,true,,,0x90
"I2C","data",7.49486832,2.224e-05,true,,,0x43
"I2C","data",7.49489392,2.224e-05,true,,,0x89
"I2C","data",7.49491968,2.224e-05,true,,,0x7D
"I2C","data",7.49494528,2.224e-05,true,,,0xC9
"I2C","data",7.4949712,2.224e-05,true,,,0x07
"I2C","data",7.4949968,2.224e-05,true,,,0x89
"I2C","data",7.4950224,2.224e-05,true,,,0x0E
"I2C","data",7.49504816,2.24e-05,true,,,0x08
"I2C","data",7.49507376,2.24e-05,true,,,0x43
"I2C","data",7.49509968,2.224e-05,true,,,0xA0
"I2C","data",7.49512528,2.224e-05,true,,,0x80
"I2C","data",7.49515088,2.224e-05,true,,,0x0E
"I2C","data",7.49517664,2.24e-05,true,,,0xE0
"I2C","data",7.49520224,2.24e-05,true,,,0xA0
"I2C","data",7.49522816,2.224e-05,true,,,0x36
"I2C","data",7.49525376,2.224e-05,true,,,0x30
"I2C","data",7.49527936,2.224e-05,true,,,0x7B
"I2C","data",7.49530528,2.224e-05,true,,,0x80
"I2C","data",7.49533088,2.224e-05,true,,,0x06
"I2C","data",7.49535664,2.224e-05,true,,,0x40
"I2C","data",7.49538224,2.224e-05,true,,,0x0F
"I2C","data",7.49540784,2.224e-05,true,,,0x03
"I2C","data",7.49543424,2.224e-05,true,,,0x28
"I2C","data",7.49545984,2.224e-05,true,,,0x03
"I2C","data",7.4954856,2.24e-05,true,,,0xD3
"I2C","data",7.4955112,2.24e-05,true,,,0x00
"I2C","data",7.4955368,2.24e-05,true,,,0x98
"I2C","data",7.49556272,2.224e-05,true,,,0x80
"I2C","data",7.49558832,2.224e-05,true,,,0x7D
"I2C","data",7.49561424,2.224e-05,true,,,0x00
"I2C","data",7.49563984,2.224e-05,true,,,0x28
"I2C","data",7.49566544,2.224e-05,true,,,0x16
"I2C","data",7.4956912,2.224e-05,true,,,0xD0
"I2C","data",7.4957168,2.224e-05,true,,,0xFF
"I2C","data",7.49574272,2.224e-05,true,,,0x20
"I2C","data",7.49576832,2.224e-05,true,,,0x01
"I2C","data",7.49579392,2.224e-05,true,,,0x30
"I2C","data",7.49581968,2.224e-05,true,,,0x81
"I2C","data",7.49584528,2.224e-05,true,,,0x43
"I2C","data",7.4958712,2.224e-05,true,,,0x02
"I2C","data",7.4958968,2.224e-05,true,,,0x98
"I2C","data",7.4959224,2.224e-05,true,,,0x81
"I2C","data",7.49594816,2.24e-05,true,,,0x80
"I2C","data",7.49597376,2.24e-05,true,,,0x07
"I2C","data",7.49599968,2.224e-05,true,,,0x21
"I2C","data",7.49602528,2.224e-05,true,,,0x0C
"I2C","data",7.49605088,2.224e-05,true,,,0x98
"I2C","data",7.4960768,2.224e-05,true,,,0x09
"I2C","data",7.4961024,2.224e-05,true,,,0x03
"I2C","data",7.49612816,2.224e-05,true,,,0x00
"I2C","data",7.49615376,2.224e-05,true,,,0x28
"I2C","data",7.49617936,2.224e-05,true,,,0x02
"I2C","data",7.49620528,2.224e-05,true,,,0xD0
"I2C","data",7.49623088,2.224e-05,true,,,0xE0
"I2C","data",7.49625664,2.224e-05,true,,,0x88
"I2C","data",7.49628224,2.224e-05,true,,,0xC0
"I2C","data",7.49630784,2.224e-05,true,,,0x0B
"I2C","data",7.49633376,2.224e-05,true,,,0x0D
"I2C","data",7.49635936,2.224e-05,true,,,0xD0
"I2C","data",7.49638512,2.24e-05,true,,,0xA0
"I2C","data",7.49641072,2.24e-05,true,,,0x88
"I2C","data",7.49643664,2.224e-05,true,,,0x88
"I2C","data",7.49646256,2.224e-05,true,,,0x43
"I2C","data",7.49648816,2.224e-05,true,,,0x79
"I2C","data",7.49651392,2.224e-05,true,,,0x07
"I2C","data",7.49654,2.224e-05,true,,,0x49
"I2C","data",7.4965656,2.224e-05,true,,,0x0C
"I2C","data",7.4965912,2.224e-05,true,,,0x08
"I2C","data",7.49661712,2.224e-05,true,,,0x43
"I2C","data",7.49664272,2.224e-05,true,,,0xA0
"I2C","data",7.49666848,2.24e-05,true,,,0x80
"I2C","data",7.49669408,2.24e-05,true,,,0xB8
"I2C","data",7.49671968,2.24e-05,true,,,0x00
"I2C","data",7.4967456,2.224e-05,true,,,0x80
"I2C","data",7.4967712,2.224e-05,true,,,0x1C
"I2C","data",7.49679696,2.24e-05,true,,,0x80
"I2C","data",7.49682256,2.24e-05,true,,,0xB2
"I2C","data",7.49684816,2.24e-05,true,,,0x0F
"I2C","data",7.49687408,2.224e-05,true,,,0xE0
"I2C","data",7.49689968,2.224e-05,true,,,0xFF
"I2C","data",7.4969256,2.224e-05,true,,,0x20
"I2C","data",7.4969512,2.224e-05,true,,,0x01
"I2C","data",7.4969768,2.224e-05,true,,,0x30
"I2C","data",7.49700256,2.224e-05,true,,,0x01
"I2C","data",7.49702816,2.224e-05,true,,,0x43
"I2C","data",7.49705408,2.224e-05,true,,,0xE7
"I2C","data",7.49707968,2.224e-05,true,,,0xE7
"I2C","data",7.49710528,2.224e-05,true,,,0xA0
"I2C","data",7.49713104,2.24e-05,true,,,0x88
"I2C","data",7.49715664,2.24e-05,true,,,0x88
"I2C","data",7.49718256,2.224e-05,true,,,0x43
"I2C","data",7.49720816,2.224e-05,true,,,0xA0
"I2C","data",7.49723376,2.224e-05,true,,,0x80
"I2C","data",7.49725952,2.24e-05,true,,,0xE0
"I2C","data",7.49728512,2.24e-05,true,,,0x88
"I2C","data",7.49731104,2.224e-05,true,,,0xF9
"I2C","data",7.49733664,2.224e-05,true,,,0x05
"I2C","data",7.49736224,2.224e-05,true,,,0x40
"I2C","data",7.49738816,2.224e-05,true,,,0x0A
"I2C","data",7.49741376,2.224e-05,true,,,0x40
"I2C","data",7.49743936,2.224e-05,true,,,0x02
"I2C","data",7.49746496,2.224e-05,true,,,0xC9
"I2C","data",7.49749072,2.224e-05,true,,,0x0D
"I2C","data",7.49751632,2.224e-05,true,,,0x08
"I2C","data",7.49754224,2.224e-05,true,,,0x43
"I2C","data",7.49756784,2.224e-05,true,,,0xE0
"I2C","data",7.49759344,2.224e-05,true,,,0x80
"I2C","data",7.4976192,2.24e-05,true,,,0x3F
"I2C","data",7.4976448,2.24e-05,true,,,0x1D
"I2C","data",7.49767072,2.224e-05,true,,,0xB8
"I2C","data",7.49769632,2.224e-05,true,,,0xB2
"I2C","data",7.49772192,2.224e-05,true,,,0x03
"I2C","data",7.49774768,2.24e-05,true,,,0x99
"I2C","data",7.49777328,2.24e-05,true,,,0x0A
"I2C","data",7.4977992,2.224e-05,true,,,0x02
"I2C","data",7.4978248,2.224e-05,true,,,0x11
"I2C","data",7.4978504,2.224e-05,true,,,0x49
"I2C","data",7.49787632,2.224e-05,true,,,0x51
"I2C","data",7.49790192,2.224e-05,true,,,0x18
"I2C","data",7.49792768,2.224e-05,true,,,0x4A
"I2C","data",7.49795328,2.224e-05,true,,,0x68
"I2C","data",7.49797888,2.224e-05,true,,,0x11
"I2C","data",7.4980048,2.224e-05,true,,,0x4B
"I2C","data",7.4980304,2.224e-05,true,,,0xC0
"I2C","data",7.49805616,2.24e-05,true,,,0x04
"I2C","data",7.49808176,2.24e-05,true,,,0x1A
"I2C","data",7.49810736,2.24e-05,true,,,0x40
"I2C","data",7.49813328,2.224e-05,true,,,0x10
"I2C","data",7.49815888,2.224e-05,true,,,0x30
"I2C","data",7.49818464,2.24e-05,true,,,0x2B
"I2C","data",7.49821024,2.24e-05,true,,,0x02
"I2C","data",7.49823584,2.24e-05,true,,,0x18
"I2C","data",7.49826176,2.224e-05,true,,,0x43
"I2C","data",7.49828736,2.224e-05,true,,,0x10
"I2C","data",7.49831328,2.224e-05,true,,,0x43
"I2C","data",7.49833888,2.224e-05,true,,,0x48
"I2C","data",7.49836448,2.224e-05,true,,,0x60
"I2C","data",7.49839024,2.224e-05,true,,,0xEF
"I2C","data",7.49841584,2.224e-05,true,,,0xF3
"I2C","data",7.49844192,2.24e-05,true,,,0x10
"I2C","data",7.49846752,2.24e-05,true,,,0x80
"I2C","data",7.49849312,2.24e-05,true,,,0xC0
"I2C","data",7.49851904,2.224e-05,true,,,0x07
"I2C","data",7.49854464,2.224e-05,true,,,0xC0
"I2C","data",7.4985704,2.24e-05,true,,,0x0F
"I2C","data",7.498596,2.24e-05,true,,,0x72
"I2C","data",7.4986216,2.24e-05,true,,,0xB6
"I2C","data",7.49864752,2.224e-05,true,,,0x01
"I2C","data",7.49867312,2.224e-05,true,,,0x99
"I2C","data",7.49869904,2.224e-05,true,,,0x49
"I2C","data",7.49872464,2.224e-05,true,,,0x7B
"I2C","data",7.49875024,2.224e-05,true,,,0x00
"I2C","data",7.498776,2.224e-05,true,,,0x29
"I2C","data",7.4988016,2.224e-05,true,,,0x03
"I2C","data",7.49882752,2.224e-05,true,,,0xD0
"I2C","data",7.49885312,2.224e-05,true,,,0x01
"I2C","data",7.49887872,2.224e-05,true,,,0x9A
"I2C","data",7.49890448,2.24e-05,true,,,0x01
"I2C","data",7.49893008,2.24e-05,true,,,0x21
"I2C","data",7.498956,2.224e-05,true,,,0x91
"I2C","data",7.4989816,2.224e-05,true,,,0x71
"I2C","data",7.4990072,2.224e-05,true,,,0x55
"I2C","data",7.49903296,2.24e-05,true,,,0xE7
"I2C","data",7.49905856,2.24e-05,true,,,0x00
"I2C","data",7.49908448,2.224e-05,true,,,0x28
"I2C","data",7.49911008,2.224e-05,true,,,0x00
"I2C","data",7.49913568,2.224e-05,true,,,0xD1
"I2C","data",7.4991616,2.224e-05,true,,,0x62
"I2C","data",7.4991872,2.224e-05,true,,,0xB6
"I2C","data",7.49921296,2.224e-05,true,,,0x03
"I2C","data",7.49923856,2.224e-05,true,,,0x98
"I2C","data",7.49926416,2.224e-05,true,,,0x00
"I2C","data",7.49929008,2.224e-05,true,,,0xF0
"I2C","data",7.49931568,2.224e-05,true,,,0x46
"I2C","data",7.49934144,2.24e-05,true,,,0xFD
"I2C","data",7.49936704,2.24e-05,true,,,0x51
"I2C","data",7.49939264,2.24e-05,true,,,0xE7
"I2C","data",7.49941856,2.224e-05,true,,,0x00
"I2C","data",7.49944432,2.24e-05,true,,,0x00
"I2C","data",7.49947024,2.224e-05,true,,,0xB8
"I2C","data",7.49949584,2.224e-05,true,,,0x18
"I2C","data",7.49952144,2.224e-05,true,,,0x04
"I2C","data",7.49954736,2.224e-05,true,,,0x20
"I2C","data",7.49957296,2.224e-05,true,,,0x90
"I2C","data",7.49959872,2.224e-05,true,,,0x12
"I2C","data",7.49962432,2.224e-05,true,,,0x04
"I2C","data",7.49964992,2.224e-05,true,,,0x20
"I2C","data",7.49967584,2.224e-05,true,,,0x00
"I2C","data",7.49970144,2.224e-05,true,,,0x09
"I2C","data",7.4997272,2.24e-05,true,,,0x00
"I2C","data",7.4997528,2.24e-05,true,,,0x40
"I2C","data",7.4997784,2.24e-05,true,,,0x0F
"I2C","data",7.49980432,2.224e-05,true,,,0xF0
"I2C","data",7.49982992,2.224e-05,true,,,0x00
"I2C","data",7.49985568,2.24e-05,true,,,0xF0
"I2C","data",7.49988128,2.24e-05,true,,,0xFF
"I2C","data",7.49990688,2.24e-05,true,,,0xB5
"I2C","data",7.4999328,2.224e-05,true,,,0x81
"I2C","data",7.4999584,2.224e-05,true,,,0xB0
"I2C","data",7.49998432,2.224e-05,true,,,0x00
"I2C","data",7.50000992,2.224e-05,true,,,0x24
"I2C","data",7.50003552,2.224e-05,true,,,0xF6
"I2C","data",7.50006128,2.224e-05,true,,,0x4D
"I2C","data",7.50008688,2.224e-05,true,,,0x40
"I2C","data",7.5001128,2.224e-05,true,,,0x00
"I2C","data",7.5001384,2.224e-05,true,,,0x0A
"I2C","data",7.500164,2.224e-05,true,,,0x9F
"I2C","data",7.50018976,2.24e-05,true,,,0x1E
"I2C","data",7.50021536,2.24e-05,true,,,0x46
"I2C","data",7.50024128,2.224e-05,true,,,0x28
"I2C","data",7.50026688,2.224e-05,true,,,0x60
"I2C","data",7.50029248,2.224e-05,true,,,0x08
"I2C","data",7.50031824,2.24e-05,true,,,0x46
"I2C","data",7.50034384,2.24e-05,true,,,0x00
"I2C","data",7.50036976,2.224e-05,true,,,0xF0
"I2C","data",7.50039536,2.224e-05,true,,,0x37
"I2C","data",7.50042096,2.224e-05,true,,,0xFD
"I2C","data",7.50044688,2.224e-05,true,,,0x01
"I2C","data",7.50047248,2.224e-05,true,,,0x28
"I2C","data",7.50049824,2.224e-05,true,,,0x21
"I2C","data",7.50052384,2.224e-05,true,,,0xD0
"I2C","data",7.50054976,2.224e-05,true,,,0x00
"I2C","data",7.50057536,2.224e-05,true,,,0x2F
"I2C","data",7.50060096,2.224e-05,true,,,0x17
"I2C","data",7.50062672,2.24e-05,true,,,0xD0
"I2C","data",7.50065232,2.24e-05,true,,,0xAE
"I2C","data",7.50067824,2.224e-05,true,,,0x60
"I2C","data",7.50070384,2.224e-05,true,,,0x01
"I2C","data",7.50072944,2.224e-05,true,,,0x20
"I2C","data",7.5007552,2.24e-05,true,,,0x68
"I2C","data",7.5007808,2.24e-05,true,,,0x60
"I2C","data",7.50080672,2.224e-05,true,,,0x00
"I2C","data",7.50083232,2.224e-05,true,,,0xF0
"I2C","data",7.50085792,2.224e-05,true,,,0x34
"I2C","data",7.50088384,2.224e-05,true,,,0xFD
"I2C","data",7.50090944,2.224e-05,true,,,0x00
"I2C","data",7.5009352,2.224e-05,true,,,0x28
"I2C","data",7.5009608,2.224e-05,true,,,0x17
"I2C","data",7.5009864,2.224e-05,true,,,0xD1
"I2C","data",7.50101232,2.224e-05,true,,,0x0F
"I2C","data",7.50103792,2.224e-05,true,,,0xE0
"I2C","data",7.50106368,2.24e-05,true,,,0x03
"I2C","data",7.50108928,2.24e-05,true,,,0x98
"I2C","data",7.50111488,2.24e-05,true,,,0x00
"I2C","data",7.5011408,2.224e-05,true,,,0x5D
"I2C","data",7.5011664,2.224e-05,true,,,0xA8
"I2C","data",7.50119216,2.24e-05,true,,,0x60
"I2C","data",7.50121776,2.24e-05,true,,,0xBC
"I2C","data",7.50124336,2.24e-05,true,,,0x42
"I2C","data",7.50126928,2.224e-05,true,,,0x01
"I2C","data",7.50129488,2.224e-05,true,,,0xDA
"I2C","data",7.5013208,2.224e-05,true,,,0x01
"I2C","data",7.5013464,2.224e-05,true,,,0x20
"I2C","data",7.501372,2.224e-05,true,,,0x00
"I2C","data",7.50139776,2.224e-05,true,,,0xE0
"I2C","data",7.50142336,2.224e-05,true,,,0x05
"I2C","data",7.50144896,2.224e-05,true,,,0x20
"I2C","data",7.50147488,2.224e-05,true,,,0x68
"I2C","data",7.50150048,2.224e-05,true,,,0x60
"I2C","data",7.50152608,2.224e-05,true,,,0x00
"I2C","data",7.50155184,2.24e-05,true,,,0xF0
"I2C","data",7.50157744,2.24e-05,true,,,0x26
"I2C","data",7.50160336,2.224e-05,true,,,0xFD
"I2C","data",7.50162896,2.224e-05,true,,,0x00
"I2C","data",7.50165456,2.224e-05,true,,,0x28
"I2C","data",7.50168032,2.24e-05,true,,,0x09
"I2C","data",7.50170592,2.24e-05,true,,,0xD1
"I2C","data",7.50173184,2.224e-05,true,,,0x64
"I2C","data",7.50175744,2.224e-05,true,,,0x1C
"I2C","data",7.50178304,2.224e-05,true,,,0xE4
"I2C","data",7.50180896,2.224e-05,true,,,0xB2
"I2C","data",7.50183456,2.224e-05,true,,,0x00
"I2C","data",7.50186032,2.224e-05,true,,,0xE0
"I2C","data",7.50188592,2.224e-05,true,,,0x77
"I2C","data",7.50191152,2.224e-05,true,,,0x1E
"I2C","data",7.50193744,2.224e-05,true,,,0xB4
"I2C","data",7.50196304,2.224e-05,true,,,0x42
"I2C","data",7.5019888,2.24e-05,true,,,0xEC
"I2C","data",7.5020144,2.24e-05,true,,,0xD3
"I2C","data",7.50204,2.24e-05,true,,,0x00
"I2C","data",7.50206592,2.224e-05,true,,,0xF0
"I2C","data",7.50209152,2.224e-05,true,,,0x1C
"I2C","data",7.50211728,2.24e-05,true,,,0xFD
"I2C","data",7.50214288,2.24e-05,true,,,0x00
"I2C","data",7.50216848,2.24e-05,true,,,0x28
"I2C","data",7.5021944,2.224e-05,true,,,0x00
"I2C","data",7.50222,2.224e-05,true,,,0xD0
"I2C","data",7.50224592,2.224e-05,true,,,0x01
"I2C","data",7.50227152,2.224e-05,true,,,0x20
"I2C","data",7.50229712,2.224e-05,true,,,0x05
"I2C","data",7.50232288,2.224e-05,true,,,0xB0
"I2C","data",7.50234848,2.224e-05,true,,,0xF0
"I2C","data",7.5023744,2.224e-05,true,,,0xBD
"I2C","data",7.5024,2.224e-05,true,,,0x08
"I2C","data",7.50243104,2.224e-05,true,,,0xB5
"I2C","data",7.50245664,2.224e-05,true,,,0x00
"I2C","data",7.50248256,2.224e-05,true,,,0x23
"I2C","data",7.50250816,2.224e-05,true,,,0x00
"I2C","data",7.50253376,2.224e-05,true,,,0x93
"I2C","data",7.50255952,2.224e-05,true,,,0xC5
"I2C","data",7.50258512,2.224e-05,true,,,0x23
"I2C","data",7.50261104,2.224e-05,true,,,0xDB
"I2C","data",7.50263664,2.224e-05,true,,,0x00
"I2C","data",7.50266224,2.224e-05,true,,,0x58
"I2C","data",7.502688,2.24e-05,true,,,0x43
"I2C","data",7.5027136,2.24e-05,true,,,0xDD
"I2C","data",7.50273952,2.224e-05,true,,,0x4B
"I2C","data",7.50276512,2.224e-05,true,,,0xC0
"I2C","data",7.50279072,2.224e-05,true,,,0x18
"I2C","data",7.50281648,2.24e-05,true,,,0x2F
"I2C","data",7.50284208,2.24e-05,true,,,0x23
"I2C","data",7.502868,2.224e-05,true,,,0x5B
"I2C","data",7.5028936,2.224e-05,true,,,0x01
"I2C","data",7.5029192,2.224e-05,true,,,0xC0
"I2C","data",7.50294512,2.224e-05,true,,,0x18
"I2C","data",7.50297072,2.224e-05,true,,,0x40
"I2C","data",7.50299648,2.224e-05,true,,,0x7B
"I2C","data",7.50302208,2.224e-05,true,,,0x02
"I2C","data",7.50304768,2.224e-05,true,,,0x23
"I2C","data",7.5030736,2.224e-05,true,,,0x40
"I2C","data",7.5030992,2.224e-05,true,,,0x06
"I2C","data",7.50312496,2.24e-05,true,,,0x40
"I2C","data",7.50315056,2.24e-05,true,,,0x0E
"I2C","data",7.50317616,2.24e-05,true,,,0xFF
"I2C","data",7.50320208,2.224e-05,true,,,0xF7
"I2C","data",7.50322768,2.224e-05,true,,,0xBE
"I2C","data",7.50325344,2.24e-05,true,,,0xFF
"I2C","data",7.50327904,2.24e-05,true,,,0x08
"I2C","data",7.50330464,2.24e-05,true,,,0xBD
"I2C","data",7.50333056,2.224e-05,true,,,0x10
"I2C","data",7.50335616,2.224e-05,true,,,0xB5
"I2C","data",7.50338208,2.224e-05,true,,,0x04
"I2C","data",7.50340768,2.224e-05,true,,,0x46
"I2C","data",7.50343344,2.224e-05,true,,,0x00
"I2C","data",7.50345936,2.224e-05,true,,,0xF0
"I2C","data",7.50348496,2.224e-05,true,,,0x07
"I2C","data",7.50351072,2.24e-05,true,,,0xFD
"I2C","data",7.50353632,2.24e-05,true,,,0x00
"I2C","data",7.50356192,2.24e-05,true,,,0x28
"I2C","data",7.50358784,2.224e-05,true,,,0x16
"I2C","data",7.50361344,2.224e-05,true,,,0xD0
"I2C","data",7.5036392,2.24e-05,true,,,0xD5
"I2C","data",7.5036648,2.24e-05,true,,,0x48
"I2C","data",7.5036904,2.24e-05,true,,,0x00
"I2C","data",7.50371632,2.224e-05,true,,,0x7E
"I2C","data",7.50374192,2.224e-05,true,,,0xC0
"I2C","data",7.50376784,2.224e-05,true,,,0x06
"I2C","data",7.50379344,2.224e-05,true,,,0x40
"I2C","data",7.50381904,2.224e-05,true,,,0x0F
"I2C","data",7.5038448,2.224e-05,true,,,0x04
"I2C","data",7.5038704,2.224e-05,true,,,0x28
"I2C","data",7.50389632,2.224e-05,true,,,0x0F
"I2C","data",7.50392192,2.224e-05,true,,,0xD2
"I2C","data",7.50394752,2.224e-05,true,,,0xC5
"I2C","data",7.50397328,2.24e-05,true,,,0x21
"I2C","data",7.50399888,2.24e-05,true,,,0x20
"I2C","data",7.5040248,2.224e-05,true,,,0x46
"I2C","data",7.5040504,2.224e-05,true,,,0xC9
"I2C","data",7.504076,2.224e-05,true,,,0x00
"I2C","data",7.50410176,2.24e-05,true,,,0x48
"I2C","data",7.50412736,2.24e-05,true,,,0x43
"I2C","data",7.50415328,2.224e-05,true,,,0xCF
"I2C","data",7.50417888,2.224e-05,true,,,0x49
"I2C","data",7.50420448,2.224e-05,true,,,0x40
"I2C","data",7.5042304,2.224e-05,true,,,0x18
"I2C","data",7.504256,2.224e-05,true,,,0xC0
"I2C","data",7.50428176,2.224e-05,true,,,0x30
"I2C","data",7.50430736,2.224e-05,true,,,0x40
"I2C","data",7.50433296,2.224e-05,true,,,0x78
"I2C","data",7.50435888,2.224e-05,true,,,0xC0
"I2C","data",7.50438448,2.224e-05,true,,,0x06
"I2C","data",7.50441024,2.24e-05,true,,,0x05
"I2C","data",7.50443616,2.224e-05,true,,,0xD4
"I2C","data",7.50446176,2.224e-05,true,,,0x23
"I2C","data",7.50448752,2.24e-05,true,,,0x46
"I2C","data",7.50451312,2.24e-05,true,,,0x01
"I2C","data",7.50453904,2.224e-05,true,,,0x22
"I2C","data",7.50456464,2.224e-05,true,,,0x00
"I2C","data",7.50459024,2.224e-05,true,,,0x21
"I2C","data",7.50461616,2.224e-05,true,,,0x32
"I2C","data",7.50464176,2.224e-05,true,,,0x20
"I2C","data",7.50466752,2.224e-05,true,,,0x00
"I2C","data",7.50469312,2.224e-05,true,,,0xF0
"I2C","data",7.50471872,2.224e-05,true,,,0x75
"I2C","data",7.50474464,2.224e-05,true,,,0xFB
"I2C","data",7.50477024,2.224e-05,true,,,0x10
"I2C","data",7.504796,2.24e-05,true,,,0xBD
"I2C","data",7.5048216,2.24e-05,true,,,0x7D
"I2C","data",7.5048472,2.24e-05,true,,,0x22
"I2C","data",7.50487312,2.224e-05,true,,,0xCA
"I2C","data",7.50489872,2.224e-05,true,,,0x4B
"I2C","data",7.50492448,2.24e-05,true,,,0x12
"I2C","data",7.50495008,2.24e-05,true,,,0x01
"I2C","data",7.50497568,2.24e-05,true,,,0x21
"I2C","data",7.5050016,2.224e-05,true,,,0x21
"I2C","data",7.5050272,2.224e-05,true,,,0x20
"I2C","data",7.50505312,2.224e-05,true,,,0x46
"I2C","data",7.50507872,2.224e-05,true,,,0x00
"I2C","data",7.50510432,2.224e-05,true,,,0xF0
"I2C","data",7.50513008,2.224e-05,true,,,0xED
"I2C","data",7.50515568,2.224e-05,true,,,0xFC
"I2C","data",7.5051816,2.224e-05,true,,,0x10
"I2C","data",7.5052072,2.224e-05,true,,,0xBD
"I2C","data",7.5052328,2.224e-05,true,,,0xF0
"I2C","data",7.50525856,2.24e-05,true,,,0xB5
"I2C","data",7.50528416,2.24e-05,true,,,0xC7
"I2C","data",7.50531008,2.224e-05,true,,,0xA0
"I2C","data",7.50533568,2.224e-05,true,,,0x89
"I2C","data",7.50536128,2.224e-05,true,,,0xB0
"I2C","data",7.50538704,2.24e-05,true,,,0x00
"I2C","data",7.50541264,2.24e-05,true,,,0x68
"I2C","data",7.50543856,2.224e-05,true,,,0x04
"I2C","data",7.50546416,2.224e-05,true,,,0x90
"I2C","data",7.50549008,2.224e-05,true,,,0xC6
"I2C","data",7.50551568,2.224e-05,true,,,0xA0
"I2C","data",7.50554128,2.224e-05,true,,,0x00
"I2C","data",7.50556704,2.224e-05,true,,,0x68
"I2C","data",7.50559264,2.224e-05,true,,,0x05
"I2C","data",7.50561856,2.224e-05,true,,,0x90
"I2C","data",7.50564416,2.224e-05,true,,,0xC5
"I2C","data",7.50566976,2.224e-05,true,,,0xA0
"I2C","data",7.50569552,2.24e-05,true,,,0x00
"I2C","data",7.50572112,2.24e-05,true,,,0x68
"I2C","data",7.50574704,2.224e-05,true,,,0x06
"I2C","data",7.50577264,2.224e-05,true,,,0x90
"I2C","data",7.50579824,2.224e-05,true,,,0xC4
"I2C","data",7.505824,2.24e-05,true,,,0xA0
"I2C","data",7.5058496,2.24e-05,true,,,0x00
"I2C","data",7.50587552,2.224e-05,true,,,0x68
"I2C","data",7.50590112,2.224e-05,true,,,0x07
"I2C","data",7.50592672,2.224e-05,true,,,0x90
"I2C","data",7.50595264,2.224e-05,true,,,0xC3
"I2C","data",7.50597824,2.224e-05,true,,,0xA0
"I2C","data",7.506004,2.224e-05,true,,,0x00
"I2C","data",7.5060296,2.224e-05,true,,,0x68
"I2C","data",7.5060552,2.224e-05,true,,,0x00
"I2C","data",7.50608112,2.224e-05,true,,,0x24
"I2C","data",7.50610672,2.224e-05,true,,,0xC3
"I2C","data",7.50613248,2.24e-05,true,,,0x4D
"I2C","data",7.50615808,2.24e-05,true,,,0x7D
"I2C","data",7.50618368,2.24e-05,true,,,0x26
"I2C","data",7.5062096,2.224e-05,true,,,0x36
"I2C","data",7.5062352,2.224e-05,true,,,0x01
"I2C","data",7.50626096,2.24e-05,true,,,0x08
"I2C","data",7.50628656,2.24e-05,true,,,0x90
"I2C","data",7.50631216,2.24e-05,true,,,0x3C
"I2C","data",7.50633808,2.224e-05,true,,,0x20
"I2C","data",7.50636368,2.224e-05,true,,,0x60
"I2C","data",7.5063896,2.224e-05,true,,,0x43
"I2C","data",7.5064152,2.224e-05,true,,,0x28
"I2C","data",7.50644096,2.224e-05,true,,,0x5C
"I2C","data",7.50646688,2.224e-05,true,,,0x00
"I2C","data",7.50649248,2.224e-05,true,,,0x28
"I2C","data",7.50651824,2.24e-05,true,,,0x05
"I2C","data",7.50654432,2.24e-05,true,,,0xD0
"I2C","data",7.50656992,2.24e-05,true,,,0xB9
"I2C","data",7.50659552,2.24e-05,true,,,0x4B
"I2C","data",7.50662144,2.224e-05,true,,,0x32
"I2C","data",7.50664704,2.224e-05,true,,,0x46
"I2C","data",7.50667296,2.224e-05,true,,,0x21
"I2C","data",7.50669856,2.224e-05,true,,,0x21
"I2C","data",7.50672416,2.224e-05,true,,,0x20
"I2C","data",7.50674992,2.224e-05,true,,,0x46
"I2C","data",7.50677552,2.224e-05,true,,,0x00
"I2C","data",7.50680144,2.224e-05,true,,,0xF0
"I2C","data",7.50682704,2.224e-05,true,,,0xCC
"I2C","data",7.50685264,2.224e-05,true,,,0xFC
"I2C","data",7.5068784,2.224e-05,true,,,0x64
"I2C","data",7.506904,2.224e-05,true,,,0x1C
"I2C","data",7.50692992,2.224e-05,true,,,0x24
"I2C","data",7.50695552,2.224e-05,true,,,0x06
"I2C","data",7.50698112,2.224e-05,true,,,0x24
"I2C","data",7.50700688,2.24e-05,true,,,0x0E
"I2C","data",7.50703248,2.24e-05,true,,,0xF0
"I2C","data",7.5070584,2.224e-05,true,,,0xD0
"I2C","data",7.507084,2.224e-05,true,,,0x00
"I2C","data",7.5071096,2.224e-05,true,,,0x20
"I2C","data",7.50713552,2.224e-05,true,,,0xBA
"I2C","data",7.50716112,2.224e-05,true,,,0x4C
"I2C","data",7.50718688,2.224e-05,true,,,0x01
"I2C","data",7.50721248,2.224e-05,true,,,0x90
"I2C","data",7.50723808,2.224e-05,true,,,0xC5
"I2C","data",7.507264,2.224e-05,true,,,0x21
"I2C","data",7.5072896,2.224e-05,true,,,0xC9
"I2C","data",7.50731536,2.224e-05,true,,,0x00
"I2C","data",7.50734096,2.224e-05,true,,,0x48
"I2C","data",7.50736656,2.224e-05,true,,,0x43
"I2C","data",7.50739248,2.224e-05,true,,,0xAF
"I2C","data",7.50741808,2.224e-05,true,,,0x49
"I2C","data",7.50744416,2.224e-05,true,,,0x47
"I2C","data",7.50746976,2.224e-05,true,,,0x18
"I2C","data",7.50749536,2.224e-05,true,,,0x2F
"I2C","data",7.50752128,2.224e-05,true,,,0x20
"I2C","data",7.50754688,2.224e-05,true,,,0x40
"I2C","data",7.50757264,2.224e-05,true,,,0x01
"I2C","data",7.50759824,2.224e-05,true,,,0x3D
"I2C","data",7.50762384,2.224e-05,true,,,0x18
"I2C","data",7.50764976,2.224e-05,true,,,0x68
"I2C","data",7.50767536,2.224e-05,true,,,0x7B
"I2C","data",7.50770112,2.224e-05,true,,,0x40
"I2C","data",7.50772672,2.224e-05,true,,,0x06
"I2C","data",7.50775232,2.224e-05,true,,,0x6E
"I2C","data",7.50777824,2.224e-05,true,,,0xD0
"I2C","data",7.50780384,2.224e-05,true,,,0x31
"I2C","data",7.5078296,2.24e-05,true,,,0x20
"I2C","data",7.5078552,2.24e-05,true,,,0x40
"I2C","data",7.5078808,2.24e-05,true,,,0x01
"I2C","data",7.50790672,2.224e-05,true,,,0x38
"I2C","data",7.50793232,2.224e-05,true,,,0x18
"I2C","data",7.50795808,2.24e-05,true,,,0x03
"I2C","data",7.50798368,2.24e-05,true,,,0x90
"I2C","data",7.50800928,2.24e-05,true,,,0x40
"I2C","data",7.5080352,2.224e-05,true,,,0x78
"I2C","data",7.5080608,2.224e-05,true,,,0x80
"I2C","data",7.50808672,2.224e-05,true,,,0x07
"I2C","data",7.50811232,2.224e-05,true,,,0x67
"I2C","data",7.50813792,2.224e-05,true,,,0xD5
"I2C","data",7.50816368,2.224e-05,true,,,0x00
"I2C","data",7.50818928,2.224e-05,true,,,0x20
"I2C","data",7.5082152,2.224e-05,true,,,0x00
"I2C","data",7.5082408,2.224e-05,true,,,0xF0
"I2C","data",7.5082664,2.224e-05,true,,,0xB6
"I2C","data",7.50829216,2.24e-05,true,,,0xFC
"I2C","data",7.50831776,2.24e-05,true,,,0xA5
"I2C","data",7.50834368,2.224e-05,true,,,0x48
"I2C","data",7.50836928,2.224e-05,true,,,0x01
"I2C","data",7.50839488,2.224e-05,true,,,0x69
"I2C","data",7.50842064,2.24e-05,true,,,0x80
"I2C","data",7.50844656,2.224e-05,true,,,0x22
"I2C","data",7.50847248,2.224e-05,true,,,0x11
"I2C","data",7.50849808,2.224e-05,true,,,0x43
"I2C","data",7.50852368,2.224e-05,true,,,0x01
"I2C","data",7.50854944,2.224e-05,true,,,0x61
"I2C","data",7.50857504,2.224e-05,true,,,0xA1
"I2C","data",7.50860096,2.224e-05,true,,,0x7F
"I2C","data",7.50862656,2.224e-05,true,,,0x02
"I2C","data",7.50865216,2.224e-05,true,,,0x20
"I2C","data",7.50867792,2.24e-05,true,,,0x01
"I2C","data",7.50870352,2.24e-05,true,,,0x43
"I2C","data",7.50872944,2.224e-05,true,,,0xA1
"I2C","data",7.50875504,2.224e-05,true,,,0x77
"I2C","data",7.50878064,2.224e-05,true,,,0x00
"I2C","data",7.5088064,2.24e-05,true,,,0x21
"I2C","data",7.508832,2.24e-05,true,,,0x02
"I2C","data",7.50885792,2.224e-05,true,,,0x91
"I2C","data",7.50888352,2.224e-05,true,,,0x00
"I2C","data",7.50890912,2.224e-05,true,,,0x90
"I2C","data",7.50893504,2.224e-05,true,,,0x68
"I2C","data",7.50896064,2.224e-05,true,,,0x7B
"I2C","data",7.5089864,2.224e-05,true,,,0x02
"I2C","data",7.509012,2.224e-05,true,,,0xAB
"I2C","data",7.5090376,2.224e-05,true,,,0x40
"I2C","data",7.50906352,2.224e-05,true,,,0x06
"I2C","data",7.50908912,2.224e-05,true,,,0x40
"I2C","data",7.50911488,2.24e-05,true,,,0x0E
"I2C","data",7.50914048,2.24e-05,true,,,0x25
"I2C","data",7.50916608,2.24e-05,true,,,0x22
"I2C","data",7.509192,2.224e-05,true,,,0x00
"I2C","data",7.5092176,2.224e-05,true,,,0xF0
"I2C","data",7.50924336,2.24e-05,true,,,0xA9
"I2C","data",7.50926896,2.24e-05,true,,,0xFC
"I2C","data",7.50929456,2.24e-05,true,,,0x00
"I2C","data",7.50932048,2.224e-05,true,,,0x28
"I2C","data",7.50934608,2.224e-05,true,,,0x77
"I2C","data",7.509372,2.224e-05,true,,,0xD1
"I2C","data",7.5093976,2.224e-05,true,,,0x9B
"I2C","data",7.5094232,2.224e-05,true,,,0x48
"I2C","data",7.5094488,2.224e-05,true,,,0x01
"I2C","data",7.5094744,2.224e-05,true,,,0x69
"I2C","data",7.50950016,2.224e-05,true,,,0x80
"I2C","data",7.50952576,2.224e-05,true,,,0x22
"I2C","data",7.50955168,2.224e-05,true,,,0x91
"I2C","data",7.50957728,2.224e-05,true,,,0x43
"I2C","data",7.50960288,2.224e-05,true,,,0x01
"I2C","data",7.50962864,2.24e-05,true,,,0x61
"I2C","data",7.50965424,2.24e-05,true,,,0xA1
"I2C","data",7.50968016,2.224e-05,true,,,0x7F
"I2C","data",7.50970576,2.224e-05,true,,,0xFD
"I2C","data",7.50973136,2.224e-05,true,,,0x23
"I2C","data",7.50975712,2.24e-05,true,,,0x19
"I2C","data",7.50978272,2.24e-05,true,,,0x40
"I2C","data",7.50980864,2.224e-05,true,,,0xA1
"I2C","data",7.50983424,2.224e-05,true,,,0x77
"I2C","data",7.50985984,2.224e-05,true,,,0x69
"I2C","data",7.50988576,2.224e-05,true,,,0x46
"I2C","data",7.50991136,2.224e-05,true,,,0x09
"I2C","data",7.50993712,2.224e-05,true,,,0x89
"I2C","data",7.50996272,2.224e-05,true,,,0x49
"I2C","data",7.50998832,2.224e-05,true,,,0xBA
"I2C","data",7.51001424,2.224e-05,true,,,0x8E
"I2C","data",7.51003984,2.224e-05,true,,,0x08
"I2C","data",7.5100656,2.24e-05,true,,,0x01
"I2C","data",7.5100912,2.24e-05,true,,,0x69
"I2C","data",7.5101168,2.24e-05,true,,,0x11
"I2C","data",7.51014272,2.224e-05,true,,,0x43
"I2C","data",7.51016832,2.224e-05,true,,,0x01
"I2C","data",7.51019408,2.24e-05,true,,,0x61
"I2C","data",7.51021968,2.24e-05,true,,,0xA0
"I2C","data",7.51024528,2.24e-05,true,,,0x7F
"I2C","data",7.5102712,2.224e-05,true,,,0x02
"I2C","data",7.5102968,2.224e-05,true,,,0x21
"I2C","data",7.51032272,2.224e-05,true,,,0x08
"I2C","data",7.51034832,2.224e-05,true,,,0x43
"I2C","data",7.51037392,2.224e-05,true,,,0xA0
"I2C","data",7.51039968,2.224e-05,true,,,0x77
"I2C","data",7.5104336,2.224e-05,true,,,0x00
"I2C","data",7.5104592,2.224e-05,true,,,0x20
"I2C","data",7.51048496,2.24e-05,true,,,0x00
"I2C","data",7.51051104,2.24e-05,true,,,0x91
"I2C","data",7.51053664,2.24e-05,true,,,0x02
"I2C","data",7.51056224,2.24e-05,true,,,0x90
"I2C","data",7.51058816,2.224e-05,true,,,0x68
"I2C","data",7.51061376,2.224e-05,true,,,0x7B
"I2C","data",7.51063968,2.224e-05,true,,,0x02
"I2C","data",7.51066528,2.224e-05,true,,,0xAB
"I2C","data",7.51069088,2.224e-05,true,,,0x40
"I2C","data",7.51071664,2.224e-05,true,,,0x06
"I2C","data",7.51074224,2.224e-05,true,,,0x40
"I2C","data",7.51076816,2.224e-05,true,,,0x0E
"I2C","data",7.51079376,2.224e-05,true,,,0x26
"I2C","data",7.51081936,2.224e-05,true,,,0x22
"I2C","data",7.51084512,2.24e-05,true,,,0x00
"I2C","data",7.51087072,2.24e-05,true,,,0x21
"I2C","data",7.51089664,2.224e-05,true,,,0x00
"I2C","data",7.51092224,2.224e-05,true,,,0xF0
"I2C","data",7.51094784,2.224e-05,true,,,0x88
"I2C","data",7.5109736,2.24e-05,true,,,0xFC
"I2C","data",7.5109992,2.24e-05,true,,,0x00
"I2C","data",7.51102512,2.224e-05,true,,,0x28
"I2C","data",7.51105072,2.224e-05,true,,,0x56
"I2C","data",7.51107632,2.224e-05,true,,,0xD1
"I2C","data",7.51110224,2.224e-05,true,,,0x8A
"I2C","data",7.51112784,2.224e-05,true,,,0x49
"I2C","data",7.5111536,2.224e-05,true,,,0x08
"I2C","data",7.5111792,2.224e-05,true,,,0x69
"I2C","data",7.5112048,2.224e-05,true,,,0x80
"I2C","data",7.51123072,2.224e-05,true,,,0x22
"I2C","data",7.51125632,2.224e-05,true,,,0x90
"I2C","data",7.51128208,2.24e-05,true,,,0x43
"I2C","data",7.51130768,2.24e-05,true,,,0x08
"I2C","data",7.51133328,2.24e-05,true,,,0x61
"I2C","data",7.5113592,2.224e-05,true,,,0xA0
"I2C","data",7.5113848,2.224e-05,true,,,0x7F
"I2C","data",7.51141056,2.24e-05,true,,,0xFD
"I2C","data",7.51143648,2.224e-05,true,,,0x21
"I2C","data",7.51146208,2.224e-05,true,,,0x08
"I2C","data",7.511488,2.224e-05,true,,,0x40
"I2C","data",7.5115136,2.224e-05,true,,,0xA0
"I2C","data",7.51153936,2.224e-05,true,,,0x77
"I2C","data",7.51156496,2.224e-05,true,,,0x68
"I2C","data",7.51159056,2.224e-05,true,,,0x46
"I2C","data",7.51161648,2.224e-05,true,,,0x00
"I2C","data",7.51164208,2.224e-05,true,,,0x89
"I2C","data",7.51166784,2.24e-05,true,,,0x40
"I2C","data",7.51169344,2.24e-05,true,,,0xBA
"I2C","data",7.51171904,2.24e-05,true,,,0x85
"I2C","data",7.51174496,2.224e-05,true,,,0x08
"I2C","data",7.51177056,2.224e-05,true,,,0x00
"I2C","data",7.51179632,2.24e-05,true,,,0x2E
"I2C","data",7.51182192,2.24e-05,true,,,0x01
"I2C","data",7.51184752,2.24e-05,true,,,0xD0
"I2C","data",7.51187344,2.224e-05,true,,,0x00
"I2C","data",7.51189904,2.224e-05,true,,,0x2D
"I2C","data",7.51192496,2.224e-05,true,,,0x22
"I2C","data",7.51195056,2.224e-05,true,,,0xD1
"I2C","data",7.51197616,2.224e-05,true,,,0x04
"I2C","data",7.51200192,2.224e-05,true,,,0xAA
"I2C","data",7.51202752,2.224e-05,true,,,0xD1
"I2C","data",7.51205344,2.224e-05,true,,,0x21
"I2C","data",7.51207904,2.224e-05,true,,,0x01
"I2C","data",7.51210464,2.224e-05,true,,,0x98
"I2C","data",7.5121304,2.24e-05,true,,,0xFF
"I2C","data",7.512156,2.24e-05,true,,,0xF7
"I2C","data",7.51218192,2.224e-05,true,,,0x41
"I2C","data",7.51220752,2.224e-05,true,,,0xFF
"I2C","data",7.51223312,2.224e-05,true,,,0x05
"I2C","data",7.51225888,2.24e-05,true,,,0xAA
"I2C","data",7.51228448,2.24e-05,true,,,0xD3
"I2C","data",7.5123104,2.224e-05,true,,,0x21
"I2C","data",7.512336,2.224e-05,true,,,0x01
"I2C","data",7.5123616,2.224e-05,true,,,0x98
"I2C","data",7.51238752,2.224e-05,true,,,0xFF
"I2C","data",7.51241312,2.224e-05,true,,,0xF7
"I2C","data",7.5124392,2.224e-05,true,,,0x3C
"I2C","data",7.5124648,2.224e-05,true,,,0xFF
"I2C","data",7.5124904,2.224e-05,true,,,0x06
"I2C","data",7.51251616,2.224e-05,true,,,0xAA
"I2C","data",7.51254176,2.224e-05,true,,,0x21
"I2C","data",7.51256768,2.224e-05,true,,,0x21
"I2C","data",7.51259328,2.224e-05,true,,,0x01
"I2C","data",7.51261888,2.224e-05,true,,,0x98
"I2C","data",7.51264464,2.24e-05,true,,,0xFF
"I2C","data",7.51267024,2.24e-05,true,,,0xF7
"I2C","data",7.51269616,2.224e-05,true,,,0x37
"I2C","data",7.51272176,2.224e-05,true,,,0xFF
"I2C","data",7.51274736,2.224e-05,true,,,0x07
"I2C","data",7.51277328,2.224e-05,true,,,0xAA
"I2C","data",7.51279888,2.224e-05,true,,,0x25
"I2C","data",7.51282464,2.224e-05,true,,,0x21
"I2C","data",7.51285024,2.224e-05,true,,,0x01
"I2C","data",7.51287584,2.224e-05,true,,,0x98
"I2C","data",7.51290176,2.224e-05,true,,,0xFF
"I2C","data",7.51292736,2.224e-05,true,,,0xF7
"I2C","data",7.51295312,2.224e-05,true,,,0x32
"I2C","data",7.51297872,2.224e-05,true,,,0xFF
"I2C","data",7.51300432,2.224e-05,true,,,0x08
"I2C","data",7.51303024,2.224e-05,true,,,0xAA
"I2C","data",7.51305584,2.224e-05,true,,,0x26
"I2C","data",7.5130816,2.24e-05,true,,,0x21
"I2C","data",7.5131072,2.24e-05,true,,,0x01
"I2C","data",7.5131328,2.24e-05,true,,,0x98
"I2C","data",7.51315872,2.224e-05,true,,,0xFF
"I2C","data",7.51318432,2.224e-05,true,,,0xF7
"I2C","data",7.51321024,2.224e-05,true,,,0x2D
"I2C","data",7.51323584,2.224e-05,true,,,0xFF
"I2C","data",7.51326144,2.224e-05,true,,,0x00
"I2C","data",7.5132872,2.224e-05,true,,,0x2D
"I2C","data",7.5133128,2.224e-05,true,,,0x03
"I2C","data",7.51333872,2.224e-05,true,,,0xD0
"I2C","data",7.51336432,2.224e-05,true,,,0x00
"I2C","data",7.51338992,2.224e-05,true,,,0x2E
"I2C","data",7.51341568,2.224e-05,true,,,0x04
"I2C","data",7.5134416,2.224e-05,true,,,0xD0
"I2C","data",7.51346736,2.24e-05,true,,,0x04
"I2C","data",7.51349296,2.24e-05,true,,,0xE0
"I2C","data",7.51351856,2.24e-05,true,,,0x26
"I2C","data",7.51354448,2.224e-05,true,,,0xE0
"I2C","data",7.51357008,2.224e-05,true,,,0xFF
"I2C","data",7.513596,2.224e-05,true,,,0x25
"I2C","data",7.5136216,2.224e-05,true,,,0xF5
"I2C","data",7.5136472,2.224e-05,true,,,0x35
"I2C","data",7.51367296,2.224e-05,true,,,0x00
"I2C","data",7.51369856,2.224e-05,true,,,0xE0
"I2C","data",7.51372448,2.224e-05,true,,,0x7B
"I2C","data",7.51375008,2.224e-05,true,,,0x4E
"I2C","data",7.51377568,2.224e-05,true,,,0x30
"I2C","data",7.51380144,2.224e-05,true,,,0x46
"I2C","data",7.51382704,2.224e-05,true,,,0x01
"I2C","data",7.51385296,2.224e-05,true,,,0x26
"I2C","data",7.51387856,2.224e-05,true,,,0x30
"I2C","data",7.51390416,2.224e-05,true,,,0x43
"I2C","data",7.51392992,2.24e-05,true,,,0x00
"I2C","data",7.51395552,2.24e-05,true,,,0x90
"I2C","data",7.51398144,2.224e-05,true,,,0x79
"I2C","data",7.51400704,2.224e-05,true,,,0x48
"I2C","data",7.51403264,2.224e-05,true,,,0x35
"I2C","data",7.5140584,2.24e-05,true,,,0x43
"I2C","data",7.51408416,2.224e-05,true,,,0x39
"I2C","data",7.51410992,2.224e-05,true,,,0x18
"I2C","data",7.51413552,2.224e-05,true,,,0x63
"I2C","data",7.51416112,2.224e-05,true,,,0x20
"I2C","data",7.51418704,2.224e-05,true,,,0xC0
"I2C","data",7.51421264,2.224e-05,true,,,0x43
"I2C","data",7.5142384,2.224e-05,true,,,0x68
"I2C","data",7.514264,2.224e-05,true,,,0x43
"I2C","data",7.5142896,2.224e-05,true,,,0x00
"I2C","data",7.51431552,2.224e-05,true,,,0xF0
"I2C","data",7.51434112,2.224e-05,true,,,0x4C
"I2C","data",7.51436688,2.24e-05,true,,,0xFC
"I2C","data",7.51439248,2.24e-05,true,,,0x75
"I2C","data",7.51441808,2.24e-05,true,,,0x48
"I2C","data",7.51444368,2.24e-05,true,,,0x00
"I2C","data",7.51446928,2.24e-05,true,,,0x1D
"I2C","data",7.5144952,2.224e-05,true,,,0x39
"I2C","data",7.5145208,2.224e-05,true,,,0x18
"I2C","data",7.51454672,2.224e-05,true,,,0x00
"I2C","data",7.51457216,2.24e-05,true,,,0x98
"I2C","data",7.51459792,2.224e-05,true,,,0x45
"I2C","data",7.51462368,2.224e-05,true,,,0x43
"I2C","data",7.51464928,2.224e-05,true,,,0x64
"I2C","data",7.5146752,2.224e-05,true,,,0x20
"I2C","data",7.5147008,2.224e-05,true,,,0x45
"I2C","data",7.5147264,2.224e-05,true,,,0x43
"I2C","data",7.51475216,2.224e-05,true,,,0x73
"I2C","data",7.51477776,2.224e-05,true,,,0x48
"I2C","data",7.51480368,2.224e-05,true,,,0x28
"I2C","data",7.51482928,2.224e-05,true,,,0x18
"I2C","data",7.51485488,2.224e-05,true,,,0x00
"I2C","data",7.51488064,2.24e-05,true,,,0xF0
"I2C","data",7.51490624,2.24e-05,true,,,0x41
"I2C","data",7.51493216,2.224e-05,true,,,0xFC
"I2C","data",7.51495776,2.224e-05,true,,,0x03
"I2C","data",7.51498336,2.224e-05,true,,,0x20
"I2C","data",7.51500912,2.24e-05,true,,,0x40
"I2C","data",7.51503472,2.24e-05,true,,,0x02
"I2C","data",7.51506064,2.224e-05,true,,,0x12
"I2C","data",7.51508624,2.224e-05,true,,,0x21
"I2C","data",7.51511184,2.224e-05,true,,,0x38
"I2C","data",7.51513776,2.224e-05,true,,,0x18
"I2C","data",7.51516336,2.224e-05,true,,,0x41
"I2C","data",7.51518912,2.224e-05,true,,,0x77
"I2C","data",7.51521472,2.224e-05,true,,,0x0A
"I2C","data",7.51524032,2.224e-05,true,,,0x21
"I2C","data",7.51526624,2.224e-05,true,,,0x81
"I2C","data",7.51529184,2.224e-05,true,,,0x77
"I2C","data",7.5153176,2.24e-05,true,,,0x03
"I2C","data",7.5153432,2.24e-05,true,,,0x98
"I2C","data",7.5153688,2.24e-05,true,,,0x03
"I2C","data",7.51539472,2.224e-05,true,,,0x99
"I2C","data",7.51542032,2.224e-05,true,,,0x40
"I2C","data",7.51544608,2.24e-05,true,,,0x78
"I2C","data",7.51547168,2.24e-05,true,,,0x30
"I2C","data",7.5154976,2.224e-05,true,,,0x43
"I2C","data",7.5155232,2.224e-05,true,,,0x48
"I2C","data",7.5155488,2.224e-05,true,,,0x70
"I2C","data",7.51557472,2.224e-05,true,,,0x01
"I2C","data",7.51560032,2.224e-05,true,,,0x98
"I2C","data",7.51562608,2.224e-05,true,,,0x40
"I2C","data",7.51565168,2.224e-05,true,,,0x1C
"I2C","data",7.51567728,2.224e-05,true,,,0x00
"I2C","data",7.5157032,2.224e-05,true,,,0x06
"I2C","data",7.5157288,2.224e-05,true,,,0x00
"I2C","data",7.51575456,2.24e-05,true,,,0x0E
"I2C","data",7.51578016,2.24e-05,true,,,0x01
"I2C","data",7.51580576,2.24e-05,true,,,0x90
"I2C","data",7.51583168,2.224e-05,true,,,0x00
"I2C","data",7.51585728,2.224e-05,true,,,0xD1
"I2C","data",7.51588304,2.24e-05,true,,,0x56
"I2C","data",7.51590864,2.24e-05,true,,,0xE7
"I2C","data",7.51593424,2.24e-05,true,,,0x09
"I2C","data",7.51596016,2.224e-05,true,,,0xB0
"I2C","data",7.51598576,2.224e-05,true,,,0xF0
"I2C","data",7.51601168,2.224e-05,true,,,0xBD
"I2C","data",7.51603728,2.224e-05,true,,,0x3E
"I2C","data",7.51606288,2.224e-05,true,,,0xB5
"I2C","data",7.51608864,2.224e-05,true,,,0x67
"I2C","data",7.51611424,2.224e-05,true,,,0x4D
"I2C","data",7.51614016,2.224e-05,true,,,0x02
"I2C","data",7.51616576,2.224e-05,true,,,0xAC
"I2C","data",7.51619136,2.224e-05,true,,,0x2A
"I2C","data",7.51621712,2.24e-05,true,,,0x68
"I2C","data",7.51624272,2.24e-05,true,,,0x02
"I2C","data",7.51626864,2.224e-05,true,,,0x92
"I2C","data",7.51629424,2.224e-05,true,,,0x00
"I2C","data",7.51631984,2.224e-05,true,,,0x22
"I2C","data",7.5163456,2.24e-05,true,,,0x83
"I2C","data",7.5163712,2.24e-05,true,,,0x00
"I2C","data",7.51639712,2.224e-05,true,,,0xE4
"I2C","data",7.51642272,2.224e-05,true,,,0x58
"I2C","data",7.51644864,2.224e-05,true,,,0x0A
"I2C","data",7.5164744,2.224e-05,true,,,0xE0
"I2C","data",7.5165,2.224e-05,true,,,0x8B
"I2C","data",7.51652592,2.224e-05,true,,,0x42
"I2C","data",7.51655152,2.224e-05,true,,,0x06
"I2C","data",7.51657712,2.224e-05,true,,,0xD1
"I2C","data",7.51660288,2.24e-05,true,,,0x90
"I2C","data",7.51662848,2.24e-05,true,,,0x00
"I2C","data",7.5166544,2.224e-05,true,,,0x10
"I2C","data",7.51668,2.224e-05,true,,,0x18
"I2C","data",7.5167056,2.224e-05,true,,,0x40
"I2C","data",7.51673136,2.24e-05,true,,,0x1C
"I2C","data",7.51675696,2.24e-05,true,,,0x20
"I2C","data",7.51678288,2.224e-05,true,,,0x18
"I2C","data",7.51680848,2.224e-05,true,,,0x00
"I2C","data",7.51683408,2.224e-05,true,,,0xF0
"I2C","data",7.51686,2.224e-05,true,,,0x53
"I2C","data",7.5168856,2.224e-05,true,,,0xFA
"I2C","data",7.51691136,2.224e-05,true,,,0x3E
"I2C","data",7.51693696,2.224e-05,true,,,0xBD
"I2C","data",7.51696256,2.224e-05,true,,,0x52
"I2C","data",7.51698848,2.224e-05,true,,,0x1C
"I2C","data",7.51701408,2.224e-05,true,,,0xD2
"I2C","data",7.51703984,2.24e-05,true,,,0xB2
"I2C","data",7.51706544,2.24e-05,true,,,0x93
"I2C","data",7.51709104,2.24e-05,true,,,0x00
"I2C","data",7.51711696,2.224e-05,true,,,0xD3
"I2C","data",7.51714256,2.224e-05,true,,,0x18
"I2C","data",7.51716832,2.24e-05,true,,,0xE3
"I2C","data",7.51719392,2.24e-05,true,,,0x5C
"I2C","data",7.51721952,2.24e-05,true,,,0xFF
"I2C","data",7.51724544,2.224e-05,true,,,0x2B
"I2C","data",7.51727104,2.224e-05,true,,,0xEF
"I2C","data",7.51729696,2.224e-05,true,,,0xD1
"I2C","data",7.51732256,2.224e-05,true,,,0x47
"I2C","data",7.51734816,2.224e-05,true,,,0x29
"I2C","data",7.51737392,2.224e-05,true,,,0x01
"I2C","data",7.51739952,2.224e-05,true,,,0xD1
"I2C","data",7.51743072,2.224e-05,true,,,0x00
"I2C","data",7.51745648,2.224e-05,true,,,0x28
"I2C","data",7.51748256,2.224e-05,true,,,0x01
"I2C","data",7.51750816,2.224e-05,true,,,0xD0
"I2C","data",7.51753376,2.224e-05,true,,,0x00
"I2C","data",7.51755968,2.224e-05,true,,,0x20
"I2C","data",7.51758528,2.224e-05,true,,,0x3E
"I2C","data",7.51761104,2.24e-05,true,,,0xBD
"I2C","data",7.51763664,2.24e-05,true,,,0xA9
"I2C","data",7.51766224,2.24e-05,true,,,0x68
"I2C","data",7.51768816,2.224e-05,true,,,0x68
"I2C","data",7.51771376,2.224e-05,true,,,0x68
"I2C","data",7.51773968,2.224e-05,true,,,0x01
"I2C","data",7.51776528,2.224e-05,true,,,0x91
"I2C","data",7.51779088,2.224e-05,true,,,0x00
"I2C","data",7.51781664,2.224e-05,true,,,0x90
"I2C","data",7.51784224,2.224e-05,true,,,0x06
"I2C","data",7.51786816,2.224e-05,true,,,0x22
"I2C","data",7.51789376,2.224e-05,true,,,0x69
"I2C","data",7.51791936,2.224e-05,true,,,0x46
"I2C","data",7.51794512,2.224e-05,true,,,0x56
"I2C","data",7.51797072,2.224e-05,true,,,0x48
"I2C","data",7.51799664,2.224e-05,true,,,0x00
"I2C","data",7.51802224,2.224e-05,true,,,0xF0
"I2C","data",7.51804784,2.224e-05,true,,,0x5A
"I2C","data",7.5180736,2.24e-05,true,,,0xFA
"I2C","data",7.5180992,2.24e-05,true,,,0x54
"I2C","data",7.51812512,2.224e-05,true,,,0x48
"I2C","data",7.51815072,2.224e-05,true,,,0x3E
"I2C","data",7.51817632,2.224e-05,true,,,0xBD
"I2C","data",7.51820224,2.224e-05,true,,,0xFF
"I2C","data",7.51822784,2.224e-05,true,,,0xB5
"I2C","data",7.5182536,2.224e-05,true,,,0x85
"I2C","data",7.5182792,2.224e-05,true,,,0xB0
"I2C","data",7.5183048,2.224e-05,true,,,0x01
"I2C","data",7.51833072,2.224e-05,true,,,0x20
"I2C","data",7.51835632,2.224e-05,true,,,0x03
"I2C","data",7.51838208,2.224e-05,true,,,0x90
"I2C","data",7.51840768,2.224e-05,true,,,0x06
"I2C","data",7.5184336,2.224e-05,true,,,0x98
"I2C","data",7.51845936,2.24e-05,true,,,0x0F
"I2C","data",7.51848496,2.24e-05,true,,,0x9D
"I2C","data",7.51851088,2.224e-05,true,,,0xFF
"I2C","data",7.51853648,2.224e-05,true,,,0x38
"I2C","data",7.51856208,2.224e-05,true,,,0x14
"I2C","data",7.51858784,2.24e-05,true,,,0x46
"I2C","data",7.51861344,2.24e-05,true,,,0x08
"I2C","data",7.51863936,2.224e-05,true,,,0x38
"I2C","data",7.51866496,2.224e-05,true,,,0x7F
"I2C","data",7.51869056,2.224e-05,true,,,0xD1
"I2C","data",7.51871648,2.224e-05,true,,,0x97
"I2C","data",7.51874208,2.224e-05,true,,,0x21
"I2C","data",7.51876784,2.224e-05,true,,,0x05
"I2C","data",7.51879344,2.224e-05,true,,,0x98
"I2C","data",7.51881904,2.224e-05,true,,,0xC9
"I2C","data",7.51884496,2.224e-05,true,,,0x00
"I2C","data",7.51887056,2.224e-05,true,,,0x48
"I2C","data",7.51889632,2.24e-05,true,,,0x43
"I2C","data",7.51892192,2.24e-05,true,,,0x4D
"I2C","data",7.51894752,2.24e-05,true,,,0x49
"I2C","data",7.51897344,2.224e-05,true,,,0xC5
"I2C","data",7.51899904,2.224e-05,true,,,0x22
"I2C","data",7.5190248,2.24e-05,true,,,0x40
"I2C","data",7.5190504,2.24e-05,true,,,0x18
"I2C","data",7.519076,2.24e-05,true,,,0x47
"I2C","data",7.51910192,2.224e-05,true,,,0x49
"I2C","data",7.51912752,2.224e-05,true,,,0xD2
"I2C","data",7.51915344,2.224e-05,true,,,0x00
"I2C","data",7.51917904,2.224e-05,true,,,0xE7
"I2C","data",7.51920464,2.224e-05,true,,,0x31
"I2C","data",7.5192304,2.224e-05,true,,,0x41
"I2C","data",7.519256,2.224e-05,true,,,0x18
"I2C","data",7.51928192,2.224e-05,true,,,0x01
"I2C","data",7.51930752,2.224e-05,true,,,0x91
"I2C","data",7.51933312,2.224e-05,true,,,0x21
"I2C","data",7.51935888,2.24e-05,true,,,0x78
"I2C","data",7.51938448,2.24e-05,true,,,0x4F
"I2C","data",7.5194104,2.224e-05,true,,,0x07
"I2C","data",7.51943616,2.24e-05,true,,,0x00
"I2C","data",7.51946176,2.24e-05,true,,,0x21
"I2C","data",7.51948768,2.224e-05,true,,,0x29
"I2C","data",7.51951328,2.224e-05,true,,,0x60
"I2C","data",7.5195392,2.224e-05,true,,,0x05
"I2C","data",7.5195648,2.224e-05,true,,,0x99
"I2C","data",7.5195904,2.224e-05,true,,,0x7F
"I2C","data",7.51961616,2.224e-05,true,,,0x0F
"I2C","data",7.51964176,2.224e-05,true,,,0x51
"I2C","data",7.51966768,2.224e-05,true,,,0x43
"I2C","data",7.51969328,2.224e-05,true,,,0x38
"I2C","data",7.51971888,2.224e-05,true,,,0x4A
"I2C","data",7.51974464,2.24e-05,true,,,0x8E
"I2C","data",7.51977024,2.24e-05,true,,,0x18
"I2C","data",7.51979616,2.224e-05,true,,,0x89
"I2C","data",7.51982176,2.224e-05,true,,,0x21
"I2C","data",7.51984736,2.224e-05,true,,,0x89
"I2C","data",7.51987312,2.24e-05,true,,,0x00
"I2C","data",7.51989872,2.24e-05,true,,,0x89
"I2C","data",7.51992464,2.224e-05,true,,,0x59
"I2C","data",7.51995024,2.224e-05,true,,,0x00
"I2C","data",7.51997584,2.224e-05,true,,,0x29
"I2C","data",7.52000176,2.224e-05,true,,,0x01
"I2C","data",7.52002736,2.224e-05,true,,,0xD1
"I2C","data",7.52005312,2.224e-05,true,,,0x03
"I2C","data",7.52007872,2.224e-05,true,,,0x21
"I2C","data",7.52010432,2.224e-05,true,,,0x29
"I2C","data",7.52013024,2.224e-05,true,,,0x60
"I2C","data",7.52015584,2.224e-05,true,,,0x00
"I2C","data",7.5201816,2.24e-05,true,,,0x2F
"I2C","data",7.5202072,2.24e-05,true,,,0x26
"I2C","data",7.5202328,2.24e-05,true,,,0xD0
"I2C","data",7.52025872,2.224e-05,true,,,0x09
"I2C","data",7.52028432,2.224e-05,true,,,0x21
"I2C","data",7.52031008,2.24e-05,true,,,0xC9
"I2C","data",7.52033568,2.24e-05,true,,,0x01
"I2C","data",7.52036128,2.24e-05,true,,,0x40
"I2C","data",7.5203872,2.224e-05,true,,,0x18
"I2C","data",7.5204128,2.224e-05,true,,,0x02
"I2C","data",7.52043872,2.224e-05,true,,,0x90
"I2C","data",7.52046432,2.224e-05,true,,,0x80
"I2C","data",7.52049008,2.224e-05,true,,,0x8A
"I2C","data",7.52051616,2.24e-05,true,,,0xBA
"I2C","data",7.52054176,2.24e-05,true,,,0x00
"I2C","data",7.52056736,2.24e-05,true,,,0x41
"I2C","data",7.52059328,2.224e-05,true,,,0x09
"I2C","data",7.52061888,2.224e-05,true,,,0x49
"I2C","data",7.52064464,2.24e-05,true,,,0x01
"I2C","data",7.52067024,2.24e-05,true,,,0x07
"I2C","data",7.52069584,2.24e-05,true,,,0x20
"I2C","data",7.52072176,2.224e-05,true,,,0x0F
"I2C","data",7.52074736,2.224e-05,true,,,0x31
"I2C","data",7.52077328,2.224e-05,true,,,0x00
"I2C","data",7.52079888,2.224e-05,true,,,0x03
"I2C","data",7.52082448,2.224e-05,true,,,0x81
"I2C","data",7.52085024,2.224e-05,true,,,0x43
"I2C","data",7.52087584,2.224e-05,true,,,0x38
"I2C","data",7.52090176,2.224e-05,true,,,0x03
"I2C","data",7.52092736,2.224e-05,true,,,0x01
"I2C","data",7.52095296,2.224e-05,true,,,0x43
"I2C","data",7.52097872,2.24e-05,true,,,0x02
"I2C","data",7.52100432,2.24e-05,true,,,0x98
"I2C","data",7.52103024,2.224e-05,true,,,0x81
"I2C","data",7.52105584,2.224e-05,true,,,0x82
"I2C","data",7.52108144,2.224e-05,true,,,0x01
"I2C","data",7.5211072,2.24e-05,true,,,0x98
"I2C","data",7.5211328,2.24e-05,true,,,0x61
"I2C","data",7.52115872,2.224e-05,true,,,0x1C
"I2C","data",7.52118432,2.224e-05,true,,,0x00
"I2C","data",7.52120992,2.224e-05,true,,,0x92
"I2C","data",7.52123584,2.224e-05,true,,,0x00
"I2C","data",7.52126144,2.224e-05,true,,,0x1D
"I2C","data",7.5212872,2.224e-05,true,,,0x00
"I2C","data",7.5213128,2.224e-05,true,,,0xF0
"I2C","data",7.5213384,2.224e-05,true,,,0x1A
"I2C","data",7.52136432,2.224e-05,true,,,0xFA
"I2C","data",7.52138992,2.224e-05,true,,,0x07
"I2C","data",7.52141568,2.24e-05,true,,,0x20
"I2C","data",7.5214416,2.224e-05,true,,,0xC0
"I2C","data",7.5214672,2.224e-05,true,,,0x1B
"I2C","data",7.52149296,2.24e-05,true,,,0x81
"I2C","data",7.52151856,2.24e-05,true,,,0x00
"I2C","data",7.52154448,2.224e-05,true,,,0x00
"I2C","data",7.52157056,2.224e-05,true,,,0x9A
"I2C","data",7.52159616,2.224e-05,true,,,0x01
"I2C","data",7.52162176,2.224e-05,true,,,0x98
"I2C","data",7.52164768,2.224e-05,true,,,0x10
"I2C","data",7.52167328,2.224e-05,true,,,0x18
"I2C","data",7.52169904,2.24e-05,true,,,0x00
"I2C","data",7.52172464,2.24e-05,true,,,0x1D
"I2C","data",7.52175024,2.24e-05,true,,,0x00
"I2C","data",7.52177616,2.224e-05,true,,,0xF0
"I2C","data",7.52180176,2.224e-05,true,,,0xC1
"I2C","data",7.52182752,2.24e-05,true,,,0xFB
"I2C","data",7.52185312,2.24e-05,true,,,0x20
"I2C","data",7.52187872,2.24e-05,true,,,0x78
"I2C","data",7.52190464,2.224e-05,true,,,0x80
"I2C","data",7.52193024,2.224e-05,true,,,0x06
"I2C","data",7.52195616,2.224e-05,true,,,0x80
"I2C","data",7.52198176,2.224e-05,true,,,0x0F
"I2C","data",7.52200736,2.224e-05,true,,,0x01
"I2C","data",7.52203312,2.224e-05,true,,,0x28
"I2C","data",7.52205872,2.224e-05,true,,,0x05
"I2C","data",7.52208464,2.224e-05,true,,,0xD0
"I2C","data",7.52211024,2.224e-05,true,,,0x02
"I2C","data",7.52213584,2.224e-05,true,,,0x28
"I2C","data",7.5221616,2.24e-05,true,,,0x03
"I2C","data",7.5221872,2.24e-05,true,,,0xD0
"I2C","data",7.52221312,2.224e-05,true,,,0x0A
"I2C","data",7.52223872,2.224e-05,true,,,0xE0
"I2C","data",7.52226432,2.224e-05,true,,,0x03
"I2C","data",7.52229008,2.24e-05,true,,,0x20
"I2C","data",7.52231568,2.24e-05,true,,,0x28
"I2C","data",7.5223416,2.224e-05,true,,,0x60
"I2C","data",7.5223672,2.224e-05,true,,,0x37
"I2C","data",7.5223928,2.224e-05,true,,,0xE0
"I2C","data",7.52241872,2.224e-05,true,,,0xAC
"I2C","data",7.52244448,2.224e-05,true,,,0x21
"I2C","data",7.5224704,2.224e-05,true,,,0x89
"I2C","data",7.522496,2.224e-05,true,,,0x5D
"I2C","data",7.52252176,2.224e-05,true,,,0x89
"I2C","data",7.52254784,2.24e-05,true,,,0x06
"I2C","data",7.52257344,2.24e-05,true,,,0x49
"I2C","data",7.52259904,2.24e-05,true,,,0x0F
"I2C","data",7.52262496,2.224e-05,true,,,0x03
"I2C","data",7.52265056,2.224e-05,true,,,0x29
"I2C","data",7.52267648,2.224e-05,true,,,0xF6
"I2C","data",7.52270208,2.224e-05,true,,,0xD0
"I2C","data",7.52272768,2.224e-05,true,,,0x04
"I2C","data",7.52275344,2.224e-05,true,,,0x29
"I2C","data",7.52277904,2.224e-05,true,,,0xF4
"I2C","data",7.52280496,2.224e-05,true,,,0xD0
"I2C","data",7.52283056,2.224e-05,true,,,0x03
"I2C","data",7.52285616,2.224e-05,true,,,0x28
"I2C","data",7.52288192,2.224e-05,true,,,0x05
"I2C","data",7.52290752,2.224e-05,true,,,0xD1
"I2C","data",7.52293344,2.224e-05,true,,,0xFF
"I2C","data",7.52295904,2.224e-05,true,,,0x21
"I2C","data",7.52298464,2.224e-05,true,,,0xB6
"I2C","data",7.5230104,2.24e-05,true,,,0x31
"I2C","data",7.523036,2.24e-05,true,,,0x89
"I2C","data",7.52306192,2.224e-05,true,,,0x5D
"I2C","data",7.52308752,2.224e-05,true,,,0x00
"I2C","data",7.52311312,2.224e-05,true,,,0x29
"I2C","data",7.52313904,2.224e-05,true,,,0x00
"I2C","data",7.52316464,2.224e-05,true,,,0xD1
"I2C","data",7.5231904,2.224e-05,true,,,0x04
"I2C","data",7.523216,2.224e-05,true,,,0x20
"I2C","data",7.5232416,2.224e-05,true,,,0x02
"I2C","data",7.52326752,2.224e-05,true,,,0x99
"I2C","data",7.52329312,2.224e-05,true,,,0x08
"I2C","data",7.52331888,2.224e-05,true,,,0x74
"I2C","data",7.52334448,2.224e-05,true,,,0x20
"I2C","data",7.52337008,2.224e-05,true,,,0x78
"I2C","data",7.523396,2.224e-05,true,,,0x00
"I2C","data",7.5234216,2.224e-05,true,,,0x07
"I2C","data",7.52344768,2.224e-05,true,,,0xC1
"I2C","data",7.52347328,2.224e-05,true,,,0x0F
"I2C","data",7.52349888,2.224e-05,true,,,0x21
"I2C","data",7.52352464,2.24e-05,true,,,0x20
"I2C","data",7.52355024,2.24e-05,true,,,0x40
"I2C","data",7.52357616,2.224e-05,true,,,0x01
"I2C","data",7.52360176,2.224e-05,true,,,0x30
"I2C","data",7.52362736,2.224e-05,true,,,0x18
"I2C","data",7.52365328,2.224e-05,true,,,0x81
"I2C","data",7.52367888,2.224e-05,true,,,0x71
"I2C","data",7.52370464,2.224e-05,true,,,0x61
"I2C","data",7.52373024,2.224e-05,true,,,0x7F
"I2C","data",7.52375584,2.224e-05,true,,,0xC9
"I2C","data",7.52378176,2.224e-05,true,,,0x07
"I2C","data",7.52380736,2.224e-05,true,,,0xC9
"I2C","data",7.52383312,2.24e-05,true,,,0x0F
"I2C","data",7.52385872,2.24e-05,true,,,0xC1
"I2C","data",7.52388432,2.24e-05,true,,,0x71
"I2C","data",7.52391024,2.224e-05,true,,,0xA1
"I2C","data",7.52393584,2.224e-05,true,,,0x7F
"I2C","data",7.5239616,2.24e-05,true,,,0x01
"I2C","data",7.5239872,2.24e-05,true,,,0x72
"I2C","data",7.5240128,2.24e-05,true,,,0xEF
"I2C","data",7.52403872,2.224e-05,true,,,0xF3
"I2C","data",7.52406432,2.224e-05,true,,,0x10
"I2C","data",7.52409024,2.224e-05,true,,,0x81
"I2C","data",7.52411584,2.224e-05,true,,,0xCC
"I2C","data",7.52414144,2.224e-05,true,,,0x07
"I2C","data",7.5241672,2.224e-05,true,,,0xE4
"I2C","data",7.5241928,2.224e-05,true,,,0x0F
"I2C","data",7.52421872,2.224e-05,true,,,0x72
"I2C","data",7.52424432,2.224e-05,true,,,0xB6
"I2C","data",7.52426992,2.224e-05,true,,,0x01
"I2C","data",7.52429568,2.24e-05,true,,,0x21
"I2C","data",7.52432128,2.24e-05,true,,,0x41
"I2C","data",7.5243472,2.224e-05,true,,,0x71
"I2C","data",7.5243728,2.224e-05,true,,,0x18
"I2C","data",7.5243984,2.224e-05,true,,,0x21
"I2C","data",7.52442944,2.24e-05,true,,,0x08
"I2C","data",7.52445536,2.224e-05,true,,,0x9B
"I2C","data",7.52448096,2.224e-05,true,,,0x06
"I2C","data",7.52450672,2.24e-05,true,,,0x9A
"I2C","data",7.52453296,2.224e-05,true,,,0x05
"I2C","data",7.52455856,2.224e-05,true,,,0x98
"I2C","data",7.52458416,2.224e-05,true,,,0x00
"I2C","data",7.52460992,2.224e-05,true,,,0xF0
"I2C","data",7.52463552,2.224e-05,true,,,0x90
"I2C","data",7.52466144,2.224e-05,true,,,0xFB
"I2C","data",7.52468704,2.224e-05,true,,,0x00
"I2C","data",7.52471264,2.224e-05,true,,,0x28
"I2C","data",7.5247384,2.24e-05,true,,,0x00
"I2C","data",7.524764,2.24e-05,true,,,0xD0
"I2C","data",7.52478992,2.224e-05,true,,,0x01
"I2C","data",7.52481552,2.224e-05,true,,,0x20
"I2C","data",7.52484112,2.224e-05,true,,,0x00
"I2C","data",7.52486688,2.24e-05,true,,,0x28
"I2C","data",7.52489248,2.24e-05,true,,,0x01
"I2C","data",7.5249184,2.224e-05,true,,,0xD1
"I2C","data",7.524944,2.224e-05,true,,,0x03
"I2C","data",7.5249696,2.224e-05,true,,,0x20
"I2C","data",7.52499552,2.224e-05,true,,,0x28
"I2C","data",7.52502112,2.224e-05,true,,,0x60
"I2C","data",7.52504688,2.224e-05,true,,,0x00
"I2C","data",7.52507248,2.224e-05,true,,,0x2C
"I2C","data",7.52509808,2.224e-05,true,,,0x00
"I2C","data",7.525124,2.224e-05,true,,,0xD1
"I2C","data",7.5251496,2.224e-05,true,,,0x62
"I2C","data",7.52517536,2.24e-05,true,,,0xB6
"I2C","data",7.52520096,2.24e-05,true,,,0x00
"I2C","data",7.52522656,2.24e-05,true,,,0x20
"I2C","data",7.52525248,2.224e-05,true,,,0x03
"I2C","data",7.52527808,2.224e-05,true,,,0x90
"I2C","data",7.52530384,2.24e-05,true,,,0x03
"I2C","data",7.52532944,2.24e-05,true,,,0x98
"I2C","data",7.52535504,2.24e-05,true,,,0x47
"I2C","data",7.52538096,2.224e-05,true,,,0xE7
"I2C","data",7.52540656,2.224e-05,true,,,0x00
"I2C","data",7.52543408,2.24e-05,true,,,0x00
"I2C","data",7.52545968,2.24e-05,true,,,0x07
"I2C","data",7.52548528,2.24e-05,true,,,0x40
"I2C","data",7.5255112,2.224e-05,true,,,0x90
"I2C","data",7.5255368,2.224e-05,true,,,0x12
"I2C","data",7.52556272,2.224e-05,true,,,0x04
"I2C","data",7.52558832,2.224e-05,true,,,0x20
"I2C","data",7.52561392,2.224e-05,true,,,0x70
"I2C","data",7.52563968,2.224e-05,true,,,0x1D
"I2C","data",7.52566528,2.224e-05,true,,,0x04
"I2C","data",7.5256912,2.224e-05,true,,,0x20
"I2C","data",7.5257168,2.224e-05,true,,,0x3F
"I2C","data",7.5257424,2.224e-05,true,,,0x41
"I2C","data",7.52576816,2.24e-05,true,,,0x04
"I2C","data",7.52579376,2.24e-05,true,,,0x20
"I2C","data",7.52581968,2.224e-05,true,,,0x01
"I2C","data",7.52584528,2.224e-05,true,,,0x67
"I2C","data",7.52587088,2.224e-05,true,,,0x00
"I2C","data",7.52589664,2.24e-05,true,,,0x00
"I2C","data",7.52592224,2.24e-05,true,,,0x00
"I2C","data",7.52594816,2.224e-05,true,,,0x18
"I2C","data",7.52597376,2.224e-05,true,,,0x00
"I2C","data",7.52599936,2.224e-05,true,,,0x00
"I2C","data",7.52602528,2.224e-05,true,,,0x0E
"I2C","data",7.52605088,2.224e-05,true,,,0xB4
"I2C","data",7.52607664,2.224e-05,true,,,0x00
"I2C","data",7.52610224,2.224e-05,true,,,0x00
"I2C","data",7.52612784,2.224e-05,true,,,0x07
"I2C","data",7.52615376,2.224e-05,true,,,0xD0
"I2C","data",7.52617936,2.224e-05,true,,,0x00
"I2C","data",7.52620512,2.24e-05,true,,,0x00
"I2C","data",7.52623072,2.24e-05,true,,,0x4C
"I2C","data",7.52625632,2.24e-05,true,,,0x4C
"I2C","data",7.52628224,2.224e-05,true,,,0x04
"I2C","data",7.52630784,2.224e-05,true,,,0x20
"I2C","data",7.5263336,2.24e-05,true,,,0x90
"I2C","data",7.5263592,2.24e-05,true,,,0x1E
"I2C","data",7.5263848,2.24e-05,true,,,0x04
"I2C","data",7.52641072,2.224e-05,true,,,0x20
"I2C","data",7.52643664,2.224e-05,true,,,0xAD
"I2C","data",7.5264624,2.224e-05,true,,,0x03
"I2C","data",7.52648848,2.24e-05,true,,,0x00
"I2C","data",7.52651408,2.24e-05,true,,,0x00
"I2C","data",7.52653968,2.24e-05,true,,,0x0D
"I2C","data",7.5265656,2.224e-05,true,,,0x06
"I2C","data",7.5265912,2.224e-05,true,,,0x00
"I2C","data",7.52661696,2.24e-05,true,,,0x00
"I2C","data",7.52664256,2.24e-05,true,,,0x40
"I2C","data",7.52666816,2.24e-05,true,,,0x4B
"I2C","data",7.52669408,2.224e-05,true,,,0x4C
"I2C","data",7.52671968,2.224e-05,true,,,0x00
"I2C","data",7.5267456,2.224e-05,true,,,0x38
"I2C","data",7.5267712,2.224e-05,true,,,0x4C
"I2C","data",7.5267968,2.224e-05,true,,,0x04
"I2C","data",7.52682256,2.224e-05,true,,,0x20
"I2C","data",7.52684816,2.224e-05,true,,,0x46
"I2C","data",7.52687408,2.224e-05,true,,,0x4C
"I2C","data",7.52689968,2.224e-05,true,,,0x04
"I2C","data",7.52692528,2.224e-05,true,,,0x20
"I2C","data",7.52695104,2.24e-05,true,,,0xB8
"I2C","data",7.52697664,2.24e-05,true,,,0x18
"I2C","data",7.52700256,2.224e-05,true,,,0x04
"I2C","data",7.52702816,2.224e-05,true,,,0x20
"I2C","data",7.52705376,2.224e-05,true,,,0x70
"I2C","data",7.52707952,2.24e-05,true,,,0xB5
"I2C","data",7.52710512,2.24e-05,true,,,0x06
"I2C","data",7.52713104,2.224e-05,true,,,0x46
"I2C","data",7.52715664,2.224e-05,true,,,0xFF
"I2C","data",7.52718224,2.224e-05,true,,,0x20
"I2C","data",7.52720816,2.224e-05,true,,,0x91
"I2C","data",7.52723376,2.224e-05,true,,,0x30
"I2C","data",7.52725952,2.224e-05,true,,,0x00
"I2C","data",7.52728512,2.224e-05,true,,,0xF0
"I2C","data",7.52731072,2.224e-05,true,,,0x62
"I2C","data",7.52733664,2.224e-05,true,,,0xFB
"I2C","data",7.52736224,2.224e-05,true,,,0x12
"I2C","data",7.527388,2.24e-05,true,,,0x48
"I2C","data",7.5274136,2.24e-05,true,,,0x31
"I2C","data",7.52743952,2.224e-05,true,,,0x02
"I2C","data",7.52746528,2.24e-05,true,,,0x0C
"I2C","data",7.52749088,2.24e-05,true,,,0x18
"I2C","data",7.5275168,2.224e-05,true,,,0x65
"I2C","data",7.5275424,2.224e-05,true,,,0x68
"I2C","data",7.527568,2.224e-05,true,,,0x68
"I2C","data",7.52759392,2.224e-05,true,,,0x00
"I2C","data",7.52761952,2.224e-05,true,,,0x80
"I2C","data",7.52764528,2.224e-05,true,,,0x0F
"I2C","data",7.52767088,2.224e-05,true,,,0x03
"I2C","data",7.52769648,2.224e-05,true,,,0x28
"I2C","data",7.5277224,2.224e-05,true,,,0x09
"I2C","data",7.527748,2.224e-05,true,,,0xD1
"I2C","data",7.52777376,2.24e-05,true,,,0x01
"I2C","data",7.52779936,2.24e-05,true,,,0x20
"I2C","data",7.52782496,2.24e-05,true,,,0x80
"I2C","data",7.52785088,2.224e-05,true,,,0x07
"I2C","data",7.52787648,2.224e-05,true,,,0x60
"I2C","data",7.52790224,2.24e-05,true,,,0x60
"I2C","data",7.52792784,2.24e-05,true,,,0x40
"I2C","data",7.52795344,2.24e-05,true,,,0x10
"I2C","data",7.52797936,2.224e-05,true,,,0x60
"I2C","data",7.52800496,2.224e-05,true,,,0x60
"I2C","data",7.52803088,2.224e-05,true,,,0x00
"I2C","data",7.52805648,2.224e-05,true,,,0xF0
"I2C","data",7.52808208,2.224e-05,true,,,0x59
"I2C","data",7.52810784,2.224e-05,true,,,0xFB
"I2C","data",7.52813344,2.224e-05,true,,,0x30
"I2C","data",7.52815936,2.224e-05,true,,,0x46
"I2C","data",7.52818496,2.224e-05,true,,,0x00
"I2C","data",7.52821056,2.224e-05,true,,,0xF0
"I2C","data",7.52823632,2.24e-05,true,,,0x5C
"I2C","data",7.52826192,2.24e-05,true,,,0xFB
"I2C","data",7.52828784,2.224e-05,true,,,0xE8
"I2C","data",7.52831344,2.224e-05,true,,,0x07
"I2C","data",7.52833904,2.224e-05,true,,,0x0C
"I2C","data",7.5283648,2.24e-05,true,,,0xD0
"I2C","data",7.5283904,2.24e-05,true,,,0x20
"I2C","data",7.52841632,2.224e-05,true,,,0x22
"I2C","data",7.52844224,2.224e-05,true,,,0x05
"I2C","data",7.52846784,2.224e-05,true,,,0x21
"I2C","data",7.5284936,2.224e-05,true,,,0x30
"I2C","data",7.5285192,2.224e-05,true,,,0x46
"I2C","data",7.52854512,2.224e-05,true,,,0x00
"I2C","data",7.52857072,2.224e-05,true,,,0xF0
"I2C","data",7.52859632,2.224e-05,true,,,0xF3
"I2C","data",7.52862208,2.224e-05,true,,,0xF9
"I2C","data",7.52864768,2.224e-05,true,,,0x21
"I2C","data",7.5286736,2.224e-05,true,,,0x68
"I2C","data",7.5286992,2.224e-05,true,,,0x03
"I2C","data",7.5287248,2.224e-05,true,,,0x20
"I2C","data",7.52875056,2.24e-05,true,,,0x40
"I2C","data",7.52877616,2.24e-05,true,,,0x07
"I2C","data",7.52880208,2.224e-05,true,,,0x81
"I2C","data",7.52882768,2.224e-05,true,,,0x43
"I2C","data",7.52885328,2.224e-05,true,,,0x21
"I2C","data",7.5288792,2.224e-05,true,,,0x60
"I2C","data",7.5289048,2.224e-05,true,,,0xA1
"I2C","data",7.52893056,2.224e-05,true,,,0x68
"I2C","data",7.52895616,2.224e-05,true,,,0x81
"I2C","data",7.52898176,2.224e-05,true,,,0x43
"I2C","data",7.52900768,2.224e-05,true,,,0xA1
"I2C","data",7.52903328,2.224e-05,true,,,0x60
"I2C","data",7.52905904,2.224e-05,true,,,0x30
"I2C","data",7.52908464,2.224e-05,true,,,0x46
"I2C","data",7.52911024,2.224e-05,true,,,0x00
"I2C","data",7.52913616,2.224e-05,true,,,0xF0
"I2C","data",7.52916176,2.224e-05,true,,,0x50
"I2C","data",7.52918752,2.24e-05,true,,,0xFB
"I2C","data",7.52921312,2.24e-05,true,,,0x70
"I2C","data",7.52923872,2.24e-05,true,,,0xBD
"I2C","data",7.52926464,2.224e-05,true,,,0x00
"I2C","data",7.52929024,2.224e-05,true,,,0x00
"I2C","data",7.52931616,2.224e-05,true,,,0x00
"I2C","data",7.52934176,2.224e-05,true,,,0x09
"I2C","data",7.52936736,2.224e-05,true,,,0x09
"I2C","data",7.52939312,2.224e-05,true,,,0x40
"I2C","data",7.52941872,2.224e-05,true,,,0x70
"I2C","data",7.5294448,2.224e-05,true,,,0xB5
"I2C","data",7.5294704,2.224e-05,true,,,0x05
"I2C","data",7.529496,2.224e-05,true,,,0x46
"I2C","data",7.52952192,2.224e-05,true,,,0xC0
"I2C","data",7.52954752,2.224e-05,true,,,0x1C
"I2C","data",7.52957328,2.24e-05,true,,,0xC1
"I2C","data",7.52959888,2.24e-05,true,,,0xB2
"I2C","data",7.52962448,2.24e-05,true,,,0xC5
"I2C","data",7.5296504,2.224e-05,true,,,0x20
"I2C","data",7.529676,2.224e-05,true,,,0xC0
"I2C","data",7.52970192,2.224e-05,true,,,0x00
"I2C","data",7.52972752,2.224e-05,true,,,0x26
"I2C","data",7.52975312,2.224e-05,true,,,0x4A
"I2C","data",7.52977888,2.224e-05,true,,,0x68
"I2C","data",7.52980448,2.224e-05,true,,,0x43
"I2C","data",7.5298304,2.224e-05,true,,,0x80
"I2C","data",7.529856,2.224e-05,true,,,0x18
"I2C","data",7.5298816,2.224e-05,true,,,0xC0
"I2C","data",7.52990736,2.224e-05,true,,,0x30
"I2C","data",7.52993296,2.224e-05,true,,,0x02
"I2C","data",7.52995888,2.224e-05,true,,,0x7E
"I2C","data",7.52998448,2.224e-05,true,,,0x00
"I2C","data",7.53001008,2.224e-05,true,,,0x24
"I2C","data",7.53003584,2.24e-05,true,,,0x00
"I2C","data",7.53006144,2.24e-05,true,,,0x2A
"I2C","data",7.53008736,2.224e-05,true,,,0x02
"I2C","data",7.53011296,2.224e-05,true,,,0xD1
"I2C","data",7.53013856,2.224e-05,true,,,0x40
"I2C","data",7.53016432,2.24e-05,true,,,0x7E
"I2C","data",7.53018992,2.24e-05,true,,,0x00
"I2C","data",7.53021584,2.224e-05,true,,,0x28
"I2C","data",7.53024144,2.224e-05,true,,,0x01
"I2C","data",7.53026704,2.224e-05,true,,,0xD0
"I2C","data",7.53029296,2.224e-05,true,,,0x01
"I2C","data",7.53031856,2.224e-05,true,,,0x24
"I2C","data",7.53034432,2.224e-05,true,,,0x09
"I2C","data",7.53036992,2.224e-05,true,,,0xE0
"I2C","data",7.53039552,2.224e-05,true,,,0x08
"I2C","data",7.53042144,2.224e-05,true,,,0x46
"I2C","data",7.53044704,2.224e-05,true,,,0x00
"I2C","data",7.5304728,2.24e-05,true,,,0xF0
"I2C","data",7.5304984,2.24e-05,true,,,0x98
"I2C","data",7.53052432,2.224e-05,true,,,0xF9
"I2C","data",7.5305504,2.224e-05,true,,,0x01
"I2C","data",7.530576,2.224e-05,true,,,0x46
"I2C","data",7.5306016,2.224e-05,true,,,0x27
"I2C","data",7.53062752,2.224e-05,true,,,0x39
"I2C","data",7.53065312,2.224e-05,true,,,0x10
"I2C","data",7.53067888,2.224e-05,true,,,0x29
"I2C","data",7.53070448,2.224e-05,true,,,0x00
"I2C","data",7.53073008,2.224e-05,true,,,0xD8
"I2C","data",7.530756,2.224e-05,true,,,0x01
"I2C","data",7.5307816,2.224e-05,true,,,0x24
"I2C","data",7.53080736,2.24e-05,true,,,0x37
"I2C","data",7.53083296,2.24e-05,true,,,0x28
"I2C","data",7.53085856,2.24e-05,true,,,0x03
"I2C","data",7.53088448,2.224e-05,true,,,0xD8
"I2C","data",7.53091008,2.224e-05,true,,,0x00
"I2C","data",7.53093584,2.24e-05,true,,,0x21
"I2C","data",7.53096144,2.24e-05,true,,,0x28
"I2C","data",7.53098704,2.24e-05,true,,,0x46
"I2C","data",7.53101296,2.224e-05,true,,,0x00
"I2C","data",7.53103856,2.224e-05,true,,,0xF0
"I2C","data",7.53106448,2.224e-05,true,,,0x31
"I2C","data",7.53109008,2.224e-05,true,,,0xFB
"I2C","data",7.53111568,2.224e-05,true,,,0x20
"I2C","data",7.53114144,2.224e-05,true,,,0x46
"I2C","data",7.53116704,2.224e-05,true,,,0x70
"I2C","data",7.53119296,2.224e-05,true,,,0xBD
"I2C","data",7.53121856,2.224e-05,true,,,0xF8
"I2C","data",7.53124416,2.224e-05,true,,,0xB5
"I2C","data",7.53126992,2.24e-05,true,,,0x06
"I2C","data",7.53129552,2.24e-05,true,,,0x46
"I2C","data",7.53132144,2.224e-05,true,,,0xC5
"I2C","data",7.53134704,2.224e-05,true,,,0x20
"I2C","data",7.53137264,2.224e-05,true,,,0xC0
"I2C","data",7.5313984,2.24e-05,true,,,0x00
"I2C","data",7.5314296,2.224e-05,true,,,0x16
"I2C","data",7.5314552,2.224e-05,true,,,0x49
"I2C","data",7.53148096,2.24e-05,true,,,0x70
"I2C","data",7.5315072,2.224e-05,true,,,0x43
"I2C","data",7.5315328,2.224e-05,true,,,0x40
"I2C","data",7.5315584,2.224e-05,true,,,0x18
"I2C","data",7.53158416,2.224e-05,true,,,0x1D
"I2C","data",7.53160976,2.224e-05,true,,,0x21
"I2C","data",7.53163568,2.224e-05,true,,,0x49
"I2C","data",7.53166128,2.224e-05,true,,,0x01
"I2C","data",7.53168688,2.224e-05,true,,,0x40
"I2C","data",7.53171264,2.24e-05,true,,,0x18
"I2C","data",7.53173824,2.24e-05,true,,,0x80
"I2C","data",7.53176416,2.224e-05,true,,,0x7C
"I2C","data",7.53178976,2.224e-05,true,,,0x08
"I2C","data",7.53181536,2.224e-05,true,,,0x28
"I2C","data",7.53184112,2.24e-05,true,,,0x1E
"I2C","data",7.53186672,2.24e-05,true,,,0xD1
"I2C","data",7.53189264,2.224e-05,true,,,0x1D
"I2C","data",7.53191824,2.224e-05,true,,,0x22
"I2C","data",7.53194384,2.224e-05,true,,,0x05
"I2C","data",7.53196976,2.224e-05,true,,,0x21
"I2C","data",7.53199536,2.224e-05,true,,,0x30
"I2C","data",7.53202112,2.224e-05,true,,,0x46
"I2C","data",7.53204672,2.224e-05,true,,,0x00
"I2C","data",7.53207232,2.224e-05,true,,,0xF0
"I2C","data",7.53209824,2.224e-05,true,,,0xAF
"I2C","data",7.53212384,2.224e-05,true,,,0xF9
"I2C","data",7.5321496,2.224e-05,true,,,0x10
"I2C","data",7.5321752,2.224e-05,true,,,0x48
"I2C","data",7.5322008,2.24e-05,true,,,0x37
"I2C","data",7.53222672,2.224e-05,true,,,0x02
"I2C","data",7.53225232,2.224e-05,true,,,0x3D
"I2C","data",7.53227808,2.24e-05,true,,,0x18
"I2C","data",7.53230368,2.24e-05,true,,,0x6C
"I2C","data",7.53232928,2.24e-05,true,,,0x68
"I2C","data",7.5323552,2.224e-05,true,,,0x03
"I2C","data",7.5323808,2.224e-05,true,,,0x20
"I2C","data",7.53240672,2.224e-05,true,,,0x80
"I2C","data",7.53243248,2.224e-05,true,,,0x05
"I2C","data",7.53245808,2.224e-05,true,,,0x04
"I2C","data",7.532484,2.224e-05,true,,,0x43
"I2C","data",7.5325096,2.224e-05,true,,,0x6C
"I2C","data",7.53253536,2.224e-05,true,,,0x60
"I2C","data",7.53256096,2.224e-05,true,,,0x3C
"I2C","data",7.53258656,2.224e-05,true,,,0x20
"I2C","data",7.53261248,2.224e-05,true,,,0x00
"I2C","data",7.53263808,2.224e-05,true,,,0xF0
"I2C","data",7.53266384,2.24e-05,true,,,0xFA
"I2C","data",7.53268944,2.24e-05,true,,,0xFA
"I2C","data",7.53271504,2.24e-05,true,,,0x03
"I2C","data",7.53274096,2.224e-05,true,,,0x20
"I2C","data",7.53276656,2.224e-05,true,,,0x80
"I2C","data",7.53279248,2.224e-05,true,,,0x05
"I2C","data",7.53281808,2.224e-05,true,,,0x84
"I2C","data",7.53284368,2.224e-05,true,,,0x43
"I2C","data",7.53286944,2.224e-05,true,,,0x6C
"I2C","data",7.53289504,2.224e-05,true,,,0x60
"I2C","data",7.53292096,2.224e-05,true,,,0x08
"I2C","data",7.53294656,2.224e-05,true,,,0x48
"I2C","data",7.53297216,2.224e-05,true,,,0x80
"I2C","data",7.53299792,2.224e-05,true,,,0x38
"I2C","data",7.53302352,2.224e-05,true,,,0x39
"I2C","data",7.53304944,2.224e-05,true,,,0x18
"I2C","data",7.53307504,2.224e-05,true,,,0x0A
"I2C","data",7.53310064,2.224e-05,true,,,0x68
"I2C","data",7.5331264,2.24e-05,true,,,0x03
"I2C","data",7.533152,2.24e-05,true,,,0x20
"I2C","data",7.53317792,2.224e-05,true,,,0x40
"I2C","data",7.53320352,2.224e-05,true,,,0x07
"I2C","data",7.53322912,2.224e-05,true,,,0x02
"I2C","data",7.53325504,2.224e-05,true,,,0x43
"I2C","data",7.53328064,2.224e-05,true,,,0x0A
"I2C","data",7.5333064,2.224e-05,true,,,0x60
"I2C","data",7.533332,2.224e-05,true,,,0x8A
"I2C","data",7.5333576,2.224e-05,true,,,0x68
"I2C","data",7.53338352,2.224e-05,true,,,0x02
"I2C","data",7.53340912,2.224e-05,true,,,0x43
"I2C","data",7.5334352,2.224e-05,true,,,0x8A
"I2C","data",7.5334608,2.224e-05,true,,,0x60
"I2C","data",7.5334864,2.224e-05,true,,,0x30
"I2C","data",7.53351216,2.24e-05,true,,,0x46
"I2C","data",7.53353776,2.24e-05,true,,,0x00
"I2C","data",7.53356368,2.224e-05,true,,,0xF0
"I2C","data",7.53358928,2.224e-05,true,,,0x06
"I2C","data",7.53361488,2.224e-05,true,,,0xFB
"I2C","data",7.53364064,2.24e-05,true,,,0xF8
"I2C","data",7.53366624,2.24e-05,true,,,0xBD
"I2C","data",7.53369216,2.224e-05,true,,,0x00
"I2C","data",7.53371776,2.224e-05,true,,,0x00
"I2C","data",7.53374336,2.224e-05,true,,,0x90
"I2C","data",7.53376928,2.224e-05,true,,,0x12
"I2C","data",7.53379488,2.224e-05,true,,,0x04
"I2C","data",7.53382064,2.224e-05,true,,,0x20
"I2C","data",7.53384624,2.224e-05,true,,,0x80
"I2C","data",7.53387184,2.224e-05,true,,,0x09
"I2C","data",7.53389776,2.224e-05,true,,,0x09
"I2C","data",7.53392336,2.224e-05,true,,,0x40
"I2C","data",7.53394912,2.24e-05,true,,,0x03
"I2C","data",7.53397472,2.24e-05,true,,,0x46
"I2C","data",7.53400032,2.24e-05,true,,,0x08
"I2C","data",7.53402624,2.224e-05,true,,,0x46
"I2C","data",7.53405184,2.224e-05,true,,,0x00
"I2C","data",7.5340776,2.24e-05,true,,,0x2A
"I2C","data",7.5341032,2.24e-05,true,,,0x0B
"I2C","data",7.5341288,2.24e-05,true,,,0xD0
"I2C","data",7.53415472,2.224e-05,true,,,0xC5
"I2C","data",7.53418032,2.224e-05,true,,,0x20
"I2C","data",7.53420624,2.224e-05,true,,,0xC0
"I2C","data",7.53423184,2.224e-05,true,,,0x00
"I2C","data",7.53425744,2.224e-05,true,,,0x43
"I2C","data",7.5342832,2.224e-05,true,,,0x43
"I2C","data",7.5343088,2.224e-05,true,,,0x1E
"I2C","data",7.53433472,2.224e-05,true,,,0x48
"I2C","data",7.53436032,2.224e-05,true,,,0x31
"I2C","data",7.53438592,2.224e-05,true,,,0x22
"I2C","data",7.53441168,2.24e-05,true,,,0x18
"I2C","data",7.5344376,2.224e-05,true,,,0x18
"I2C","data",7.53446336,2.24e-05,true,,,0x52
"I2C","data",7.53448896,2.24e-05,true,,,0x01
"I2C","data",7.53451488,2.224e-05,true,,,0x80
"I2C","data",7.53454096,2.224e-05,true,,,0x18
"I2C","data",7.53456656,2.224e-05,true,,,0x80
"I2C","data",7.53459216,2.224e-05,true,,,0x79
"I2C","data",7.53461808,2.224e-05,true,,,0x48
"I2C","data",7.53464368,2.224e-05,true,,,0x43
"I2C","data",7.53466944,2.24e-05,true,,,0x40
"I2C","data",7.53469504,2.24e-05,true,,,0x02
"I2C","data",7.53472064,2.24e-05,true,,,0x00
"I2C","data",7.53474656,2.224e-05,true,,,0x0C
"I2C","data",7.53477216,2.224e-05,true,,,0x70
"I2C","data",7.53479792,2.24e-05,true,,,0x47
"I2C","data",7.53482352,2.24e-05,true,,,0x10
"I2C","data",7.53484912,2.24e-05,true,,,0xB5
"I2C","data",7.53487504,2.224e-05,true,,,0x04
"I2C","data",7.53490064,2.224e-05,true,,,0x46
"I2C","data",7.53492656,2.224e-05,true,,,0xC5
"I2C","data",7.53495216,2.224e-05,true,,,0x20
"I2C","data",7.53497776,2.224e-05,true,,,0xC0
"I2C","data",7.53500352,2.224e-05,true,,,0x00
"I2C","data",7.53502912,2.224e-05,true,,,0x21
"I2C","data",7.53505504,2.224e-05,true,,,0x46
"I2C","data",7.53508064,2.224e-05,true,,,0x41
"I2C","data",7.53510624,2.224e-05,true,,,0x43
"I2C","data",7.535132,2.24e-05,true,,,0x16
"I2C","data",7.5351576,2.24e-05,true,,,0x48
"I2C","data",7.53518352,2.224e-05,true,,,0x00
"I2C","data",7.53520912,2.224e-05,true,,,0x22
"I2C","data",7.53523472,2.224e-05,true,,,0x08
"I2C","data",7.53526048,2.24e-05,true,,,0x18
"I2C","data",7.53528608,2.24e-05,true,,,0x01
"I2C","data",7.535312,2.224e-05,true,,,0x46
"I2C","data",7.5353376,2.224e-05,true,,,0xFF
"I2C","data",7.5353632,2.224e-05,true,,,0x31
"I2C","data",7.53538912,2.224e-05,true,,,0xA1
"I2C","data",7.53541472,2.224e-05,true,,,0x31
"I2C","data",7.53544048,2.224e-05,true,,,0x8A
"I2C","data",7.53546608,2.224e-05,true,,,0x73
"I2C","data",7.535492,2.224e-05,true,,,0xFF
"I2C","data",7.5355176,2.224e-05,true,,,0x30
"I2C","data",7.5355432,2.224e-05,true,,,0xCA
"I2C","data",7.53556896,2.24e-05,true,,,0x73
"I2C","data",7.53559456,2.24e-05,true,,,0x81
"I2C","data",7.53562048,2.224e-05,true,,,0x30
"I2C","data",7.53564608,2.224e-05,true,,,0xC2
"I2C","data",7.53567168,2.224e-05,true,,,0x77
"I2C","data",7.53569744,2.24e-05,true,,,0x0A
"I2C","data",7.53572304,2.24e-05,true,,,0x81
"I2C","data",7.53574896,2.224e-05,true,,,0x4A
"I2C","data",7.53577456,2.224e-05,true,,,0x80
"I2C","data",7.53580016,2.224e-05,true,,,0x4A
"I2C","data",7.53582608,2.224e-05,true,,,0x7D
"I2C","data",7.53585168,2.224e-05,true,,,0x01
"I2C","data",7.53587744,2.224e-05,true,,,0x2A
"I2C","data",7.53590304,2.224e-05,true,,,0x19
"I2C","data",7.53592864,2.224e-05,true,,,0xD0
"I2C","data",7.53595456,2.224e-05,true,,,0x0F
"I2C","data",7.53598016,2.224e-05,true,,,0x4A
"I2C","data",7.53600592,2.24e-05,true,,,0x12
"I2C","data",7.53603152,2.24e-05,true,,,0x5D
"I2C","data",7.53605712,2.24e-05,true,,,0x3A
"I2C","data",7.53608304,2.224e-05,true,,,0x2A
"I2C","data",7.53610864,2.224e-05,true,,,0x15
"I2C","data",7.5361344,2.24e-05,true,,,0xD0
"I2C","data",7.53616,2.24e-05,true,,,0x50
"I2C","data",7.5361856,2.24e-05,true,,,0x22
"I2C","data",7.53621152,2.224e-05,true,,,0xFF
"I2C","data",7.53623712,2.224e-05,true,,,0x23
"I2C","data",7.53626304,2.224e-05,true,,,0xFE
"I2C","data",7.53628864,2.224e-05,true,,,0x33
"I2C","data",7.53631424,2.224e-05,true,,,0x53
"I2C","data",7.53634,2.224e-05,true,,,0x43
"I2C","data",7.5363656,2.224e-05,true,,,0x9B
"I2C","data",7.53639152,2.224e-05,true,,,0x0A
"I2C","data",7.53641712,2.224e-05,true,,,0x83
"I2C","data",7.53644288,2.24e-05,true,,,0x77
"I2C","data",7.5364688,2.224e-05,true,,,0xCA
"I2C","data",7.5364944,2.224e-05,true,,,0x80
"I2C","data",7.53652016,2.24e-05,true,,,0x0A
"I2C","data",7.53654576,2.24e-05,true,,,0x80
"I2C","data",7.53657136,2.24e-05,true,,,0x01
"I2C","data",7.53659728,2.224e-05,true,,,0x22
"I2C","data",7.53662288,2.224e-05,true,,,0x00
"I2C","data",7.5366488,2.224e-05,true,,,0x21
"I2C","data",7.5366744,2.224e-05,true,,,0x20
"I2C","data",7.5367,2.224e-05,true,,,0x46
"I2C","data",7.53672576,2.224e-05,true,,,0x00
"I2C","data",7.53675136,2.224e-05,true,,,0xF0
"I2C","data",7.53677728,2.224e-05,true,,,0xCE
"I2C","data",7.53680288,2.224e-05,true,,,0xFA
"I2C","data",7.53682848,2.224e-05,true,,,0x01
"I2C","data",7.53685424,2.24e-05,true,,,0x22
"I2C","data",7.53687984,2.24e-05,true,,,0x6E
"I2C","data",7.53690576,2.224e-05,true,,,0x21
"I2C","data",7.53693136,2.224e-05,true,,,0x20
"I2C","data",7.53695696,2.224e-05,true,,,0x46
"I2C","data",7.53698272,2.24e-05,true,,,0x00
"I2C","data",7.53700832,2.24e-05,true,,,0xF0
"I2C","data",7.53703424,2.224e-05,true,,,0xCF
"I2C","data",7.53705984,2.224e-05,true,,,0xFA
"I2C","data",7.53708544,2.224e-05,true,,,0x20
"I2C","data",7.53711136,2.224e-05,true,,,0x46
"I2C","data",7.53713696,2.224e-05,true,,,0x00
"I2C","data",7.53716272,2.224e-05,true,,,0xF0
"I2C","data",7.53718832,2.224e-05,true,,,0xD2
"I2C","data",7.53721392,2.224e-05,true,,,0xFA
"I2C","data",7.53723984,2.224e-05,true,,,0x10
"I2C","data",7.53726544,2.224e-05,true,,,0xBD
"I2C","data",7.5372912,2.24e-05,true,,,0x5F
"I2C","data",7.5373168,2.24e-05,true,,,0x22
"I2C","data",7.5373424,2.24e-05,true,,,0xE8
"I2C","data",7.53736832,2.224e-05,true,,,0xE7
"I2C","data",7.53739392,2.224e-05,true,,,0x00
"I2C","data",7.53741968,2.24e-05,true,,,0x00
"I2C","data",7.5374456,2.224e-05,true,,,0x90
"I2C","data",7.5374712,2.224e-05,true,,,0x12
"I2C","data",7.53749712,2.224e-05,true,,,0x04
"I2C","data",7.53752272,2.224e-05,true,,,0x20
"I2C","data",7.53754848,2.224e-05,true,,,0x7D
"I2C","data",7.53757408,2.224e-05,true,,,0x21
"I2C","data",7.53759968,2.224e-05,true,,,0x04
"I2C","data",7.5376256,2.224e-05,true,,,0x20
"I2C","data",7.5376512,2.224e-05,true,,,0x70
"I2C","data",7.53767696,2.224e-05,true,,,0xB5
"I2C","data",7.53770256,2.224e-05,true,,,0x05
"I2C","data",7.53772816,2.224e-05,true,,,0x46
"I2C","data",7.53775408,2.224e-05,true,,,0x3C
"I2C","data",7.53777968,2.224e-05,true,,,0x20
"I2C","data",7.53780544,2.24e-05,true,,,0x56
"I2C","data",7.53783104,2.24e-05,true,,,0x49
"I2C","data",7.53785664,2.24e-05,true,,,0x68
"I2C","data",7.53788256,2.224e-05,true,,,0x43
"I2C","data",7.53790816,2.224e-05,true,,,0x41
"I2C","data",7.53793408,2.224e-05,true,,,0x18
"I2C","data",7.53795968,2.224e-05,true,,,0xC8
"I2C","data",7.53798528,2.224e-05,true,,,0x7A
"I2C","data",7.53801104,2.224e-05,true,,,0xC5
"I2C","data",7.53803664,2.224e-05,true,,,0x23
"I2C","data",7.53806256,2.224e-05,true,,,0x40
"I2C","data",7.53808816,2.224e-05,true,,,0x06
"I2C","data",7.53811376,2.224e-05,true,,,0x42
"I2C","data",7.53813952,2.224e-05,true,,,0x0F
"I2C","data",7.53816512,2.224e-05,true,,,0x53
"I2C","data",7.53819104,2.224e-05,true,,,0x48
"I2C","data",7.53821664,2.224e-05,true,,,0xDB
"I2C","data",7.53824224,2.224e-05,true,,,0x00
"I2C","data",7.538268,2.24e-05,true,,,0x6B
"I2C","data",7.5382936,2.24e-05,true,,,0x43
"I2C","data",7.53831952,2.224e-05,true,,,0x1C
"I2C","data",7.53834512,2.224e-05,true,,,0x18
"I2C","data",7.53837072,2.224e-05,true,,,0x00
"I2C","data",7.53839664,2.224e-05,true,,,0x2A
"I2C","data",7.53842224,2.224e-05,true,,,0x0B
"I2C","data",7.53844832,2.224e-05,true,,,0xD0
"I2C","data",7.53847392,2.224e-05,true,,,0x15
"I2C","data",7.53849952,2.224e-05,true,,,0x20
"I2C","data",7.53852528,2.224e-05,true,,,0x80
"I2C","data",7.53855088,2.224e-05,true,,,0x01
"I2C","data",7.5385768,2.224e-05,true,,,0x40
"I2C","data",7.5386024,2.224e-05,true,,,0x23
"I2C","data",7.538628,2.224e-05,true,,,0x20
"I2C","data",7.53865376,2.24e-05,true,,,0x18
"I2C","data",7.53867936,2.24e-05,true,,,0x13
"I2C","data",7.53870528,2.224e-05,true,,,0x43
"I2C","data",7.53873088,2.224e-05,true,,,0xC3
"I2C","data",7.53875648,2.224e-05,true,,,0x72
"I2C","data",7.5387824,2.224e-05,true,,,0x4E
"I2C","data",7.538808,2.224e-05,true,,,0x48
"I2C","data",7.53883376,2.224e-05,true,,,0x92
"I2C","data",7.53885936,2.224e-05,true,,,0x00
"I2C","data",7.53888496,2.224e-05,true,,,0x24
"I2C","data",7.53891088,2.224e-05,true,,,0x31
"I2C","data",7.53893648,2.224e-05,true,,,0x20
"I2C","data",7.53896224,2.224e-05,true,,,0x18
"I2C","data",7.53898784,2.224e-05,true,,,0x00
"I2C","data",7.53901344,2.224e-05,true,,,0xF0
"I2C","data",7.53903936,2.224e-05,true,,,0xC4
"I2C","data",7.53906496,2.224e-05,true,,,0xF9
"I2C","data",7.53909072,2.24e-05,true,,,0xA0
"I2C","data",7.53911632,2.24e-05,true,,,0x20
"I2C","data",7.53914192,2.24e-05,true,,,0x4C
"I2C","data",7.53916784,2.224e-05,true,,,0x4A
"I2C","data",7.53919344,2.224e-05,true,,,0x00
"I2C","data",7.5392192,2.24e-05,true,,,0x21
"I2C","data",7.5392448,2.24e-05,true,,,0x68
"I2C","data",7.53927056,2.224e-05,true,,,0x43
"I2C","data",7.53929632,2.224e-05,true,,,0x80
"I2C","data",7.53932192,2.224e-05,true,,,0x18
"I2C","data",7.53934784,2.224e-05,true,,,0x01
"I2C","data",7.53937344,2.224e-05,true,,,0x74
"I2C","stop",7.5393984,1.60000001e-07,,,,
"I2C","start",7.54017824,1.60000001e-07,,,,
"I2C","address",7.54018128,2.24e-05,true,0x35,false,
"I2C","data",7.54020528,2.224e-05,true,,,0xA0
"I2C","data",7.54023088,2.224e-05,true,,,0x8C
"I2C","data",7.54025664,2.224e-05,true,,,0x05
"I2C","data",7.54028224,2.224e-05,true,,,0x21
"I2C","data",7.54030816,2.224e-05,true,,,0xC9
"I2C","data",7.54033376,2.224e-05,true,,,0x01
"I2C","data",7.54035936,2.224e-05,true,,,0x61
"I2C","data",7.54038512,2.24e-05,true,,,0x18
"I2C","data",7.54041072,2.24e-05,true,,,0x08
"I2C","data",7.54043664,2.224e-05,true,,,0x82
"I2C","data",7.54046224,2.224e-05,true,,,0x19
"I2C","data",7.540488,2.24e-05,true,,,0x21
"I2C","data",7.54051376,2.224e-05,true,,,0x28
"I2C","data",7.54053936,2.224e-05,true,,,0x46
"I2C","data",7.54056512,2.224e-05,true,,,0x00
"I2C","data",7.54059072,2.224e-05,true,,,0xF0
"I2C","data",7.54061664,2.224e-05,true,,,0x73
"I2C","data",7.54064224,2.224e-05,true,,,0xF9
"I2C","data",7.54066784,2.224e-05,true,,,0x70
"I2C","data",7.5406936,2.224e-05,true,,,0xBD
"I2C","data",7.5407192,2.224e-05,true,,,0xF1
"I2C","data",7.54074512,2.224e-05,true,,,0xB5
"I2C","data",7.54077072,2.224e-05,true,,,0x84
"I2C","data",7.54079632,2.224e-05,true,,,0xB0
"I2C","data",7.54082208,2.24e-05,true,,,0xC5
"I2C","data",7.54084768,2.24e-05,true,,,0x21
"I2C","data",7.5408736,2.224e-05,true,,,0x04
"I2C","data",7.5408992,2.224e-05,true,,,0x98
"I2C","data",7.5409248,2.224e-05,true,,,0xC9
"I2C","data",7.54095056,2.24e-05,true,,,0x00
"I2C","data",7.54097616,2.24e-05,true,,,0x48
"I2C","data",7.54100208,2.224e-05,true,,,0x43
"I2C","data",7.54102768,2.224e-05,true,,,0x3F
"I2C","data",7.54105328,2.224e-05,true,,,0x49
"I2C","data",7.5410792,2.224e-05,true,,,0x47
"I2C","data",7.5411048,2.224e-05,true,,,0x18
"I2C","data",7.54113056,2.224e-05,true,,,0xFF
"I2C","data",7.54115616,2.224e-05,true,,,0x20
"I2C","data",7.54118176,2.224e-05,true,,,0x81
"I2C","data",7.54120768,2.224e-05,true,,,0x30
"I2C","data",7.54123328,2.224e-05,true,,,0xC0
"I2C","data",7.54125904,2.24e-05,true,,,0x59
"I2C","data",7.54128464,2.24e-05,true,,,0x01
"I2C","data",7.54131024,2.24e-05,true,,,0x90
"I2C","data",7.54133616,2.224e-05,true,,,0x01
"I2C","data",7.54136176,2.224e-05,true,,,0x06
"I2C","data",7.54138752,2.24e-05,true,,,0x89
"I2C","data",7.54141312,2.24e-05,true,,,0x0F
"I2C","data",7.54143904,2.224e-05,true,,,0x02
"I2C","data",7.54146496,2.224e-05,true,,,0x91
"I2C","data",7.54149056,2.224e-05,true,,,0x41
"I2C","data",7.54151632,2.224e-05,true,,,0x05
"I2C","data",7.54154192,2.224e-05,true,,,0x4A
"I2C","data",7.54156752,2.224e-05,true,,,0x0F
"I2C","data",7.54159344,2.224e-05,true,,,0x05
"I2C","data",7.54161904,2.224e-05,true,,,0x21
"I2C","data",7.5416448,2.24e-05,true,,,0xC9
"I2C","data",7.5416704,2.24e-05,true,,,0x01
"I2C","data",7.541696,2.24e-05,true,,,0x7E
"I2C","data",7.54172192,2.224e-05,true,,,0x18
"I2C","data",7.54174752,2.224e-05,true,,,0xC4
"I2C","data",7.54177328,2.24e-05,true,,,0x06
"I2C","data",7.54179888,2.24e-05,true,,,0x01
"I2C","data",7.54182448,2.24e-05,true,,,0x0C
"I2C","data",7.5418504,2.224e-05,true,,,0x0B
"I2C","data",7.541876,2.224e-05,true,,,0x20
"I2C","data",7.54190192,2.224e-05,true,,,0x80
"I2C","data",7.54192752,2.224e-05,true,,,0x01
"I2C","data",7.54195312,2.224e-05,true,,,0x72
"I2C","data",7.54197888,2.224e-05,true,,,0x70
"I2C","data",7.54200448,2.224e-05,true,,,0x38
"I2C","data",7.5420304,2.224e-05,true,,,0x18
"I2C","data",7.542056,2.224e-05,true,,,0x00
"I2C","data",7.5420816,2.224e-05,true,,,0x90
"I2C","data",7.54210736,2.24e-05,true,,,0x41
"I2C","data",7.54213296,2.24e-05,true,,,0x80
"I2C","data",7.54215888,2.224e-05,true,,,0xE4
"I2C","data",7.54218448,2.224e-05,true,,,0x0E
"I2C","data",7.54221008,2.224e-05,true,,,0x04
"I2C","data",7.54223584,2.24e-05,true,,,0x98
"I2C","data",7.54226144,2.24e-05,true,,,0x00
"I2C","data",7.54228736,2.224e-05,true,,,0xF0
"I2C","data",7.54231296,2.224e-05,true,,,0xD6
"I2C","data",7.54233856,2.224e-05,true,,,0xF9
"I2C","data",7.54236448,2.224e-05,true,,,0xFF
"I2C","data",7.54239008,2.224e-05,true,,,0x37
"I2C","data",7.54241584,2.224e-05,true,,,0x05
"I2C","data",7.54244176,2.224e-05,true,,,0x46
"I2C","data",7.54246736,2.224e-05,true,,,0xC1
"I2C","data",7.54249312,2.24e-05,true,,,0x37
"I2C","data",7.54251872,2.24e-05,true,,,0x38
"I2C","data",7.54254464,2.224e-05,true,,,0x7E
"I2C","data",7.54257024,2.224e-05,true,,,0x00
"I2C","data",7.54259584,2.224e-05,true,,,0x28
"I2C","data",7.5426216,2.24e-05,true,,,0x01
"I2C","data",7.5426472,2.24e-05,true,,,0xD0
"I2C","data",7.54267312,2.224e-05,true,,,0x01
"I2C","data",7.54269872,2.224e-05,true,,,0x23
"I2C","data",7.54272432,2.224e-05,true,,,0x00
"I2C","data",7.54275024,2.224e-05,true,,,0xE0
"I2C","data",7.54277584,2.224e-05,true,,,0x00
"I2C","data",7.5428016,2.224e-05,true,,,0x23
"I2C","data",7.5428272,2.224e-05,true,,,0xFA
"I2C","data",7.5428528,2.224e-05,true,,,0x79
"I2C","data",7.54287872,2.224e-05,true,,,0xB9
"I2C","data",7.54290432,2.224e-05,true,,,0x7C
"I2C","data",7.54293008,2.24e-05,true,,,0x04
"I2C","data",7.54295568,2.24e-05,true,,,0x98
"I2C","data",7.54298128,2.24e-05,true,,,0x00
"I2C","data",7.5430072,2.224e-05,true,,,0xF0
"I2C","data",7.5430328,2.224e-05,true,,,0x76
"I2C","data",7.54305856,2.24e-05,true,,,0xFA
"I2C","data",7.54308416,2.24e-05,true,,,0x02
"I2C","data",7.54310976,2.24e-05,true,,,0x98
"I2C","data",7.54313568,2.224e-05,true,,,0x00
"I2C","data",7.54316128,2.224e-05,true,,,0x28
"I2C","data",7.5431872,2.224e-05,true,,,0x09
"I2C","data",7.5432128,2.224e-05,true,,,0xD1
"I2C","data",7.5432384,2.224e-05,true,,,0x01
"I2C","data",7.54326416,2.224e-05,true,,,0x2C
"I2C","data",7.54328976,2.224e-05,true,,,0x01
"I2C","data",7.54331568,2.224e-05,true,,,0xD0
"I2C","data",7.54334128,2.224e-05,true,,,0x02
"I2C","data",7.54336688,2.224e-05,true,,,0x2C
"I2C","data",7.54339264,2.24e-05,true,,,0x07
"I2C","data",7.54341824,2.24e-05,true,,,0xD1
"I2C","data",7.54344432,2.24e-05,true,,,0x00
"I2C","data",7.54346992,2.24e-05,true,,,0x98
"I2C","data",7.54349552,2.24e-05,true,,,0xFF
"I2C","data",7.54352144,2.224e-05,true,,,0x21
"I2C","data",7.54354704,2.224e-05,true,,,0x40
"I2C","data",7.54357296,2.224e-05,true,,,0x88
"I2C","data",7.54359856,2.224e-05,true,,,0x09
"I2C","data",7.54362416,2.224e-05,true,,,0x02
"I2C","data",7.54364992,2.224e-05,true,,,0x88
"I2C","data",7.54367552,2.224e-05,true,,,0x42
"I2C","data",7.54370144,2.224e-05,true,,,0x01
"I2C","data",7.54372704,2.224e-05,true,,,0xD0
"I2C","data",7.54375264,2.224e-05,true,,,0x4C
"I2C","data",7.5437784,2.24e-05,true,,,0x21
"I2C","data",7.543804,2.24e-05,true,,,0x3F
"I2C","data",7.54382992,2.224e-05,true,,,0xE0
"I2C","data",7.54385552,2.224e-05,true,,,0x05
"I2C","data",7.54388112,2.224e-05,true,,,0x2D
"I2C","data",7.54390688,2.24e-05,true,,,0x04
"I2C","data",7.54393248,2.24e-05,true,,,0xD3
"I2C","data",7.5439584,2.224e-05,true,,,0x01
"I2C","data",7.543984,2.224e-05,true,,,0x2C
"I2C","data",7.5440096,2.224e-05,true,,,0x04
"I2C","data",7.54403552,2.224e-05,true,,,0xD0
"I2C","data",7.54406112,2.224e-05,true,,,0x02
"I2C","data",7.54408688,2.224e-05,true,,,0x2C
"I2C","data",7.54411248,2.224e-05,true,,,0xF7
"I2C","data",7.54413808,2.224e-05,true,,,0xD1
"I2C","data",7.544164,2.224e-05,true,,,0x01
"I2C","data",7.5441896,2.224e-05,true,,,0xE0
"I2C","data",7.54421536,2.24e-05,true,,,0x04
"I2C","data",7.54424096,2.24e-05,true,,,0x2C
"I2C","data",7.54426656,2.24e-05,true,,,0x02
"I2C","data",7.54429248,2.224e-05,true,,,0xD2
"I2C","data",7.54431808,2.224e-05,true,,,0x70
"I2C","data",7.54434384,2.24e-05,true,,,0x78
"I2C","data",7.54436944,2.24e-05,true,,,0x00
"I2C","data",7.54439504,2.24e-05,true,,,0x28
"I2C","data",7.54442096,2.224e-05,true,,,0xF1
"I2C","data",7.54444688,2.224e-05,true,,,0xD1
"I2C","data",7.54447264,2.224e-05,true,,,0x03
"I2C","data",7.54449872,2.224e-05,true,,,0x2C
"I2C","data",7.54452432,2.224e-05,true,,,0x06
"I2C","data",7.54454992,2.24e-05,true,,,0xD3
"I2C","data",7.54457584,2.224e-05,true,,,0x05
"I2C","data",7.54460144,2.224e-05,true,,,0x2D
"I2C","data",7.5446272,2.24e-05,true,,,0xED
"I2C","data",7.5446528,2.24e-05,true,,,0xD0
"I2C","data",7.5446784,2.24e-05,true,,,0x04
"I2C","data",7.54470432,2.224e-05,true,,,0x2C
"I2C","data",7.54472992,2.224e-05,true,,,0x02
"I2C","data",7.54475584,2.224e-05,true,,,0xD3
"I2C","data",7.54478144,2.224e-05,true,,,0x70
"I2C","data",7.54480704,2.224e-05,true,,,0x78
"I2C","data",7.5448328,2.224e-05,true,,,0x00
"I2C","data",7.5448584,2.224e-05,true,,,0x28
"I2C","data",7.54488432,2.224e-05,true,,,0xE8
"I2C","data",7.54490992,2.224e-05,true,,,0xD0
"I2C","data",7.54493552,2.224e-05,true,,,0x04
"I2C","data",7.54496128,2.224e-05,true,,,0x98
"I2C","data",7.54498688,2.224e-05,true,,,0x50
"I2C","data",7.5450128,2.224e-05,true,,,0x21
"I2C","data",7.5450384,2.224e-05,true,,,0x48
"I2C","data",7.545064,2.224e-05,true,,,0x43
"I2C","data",7.54508976,2.24e-05,true,,,0x1B
"I2C","data",7.54511536,2.24e-05,true,,,0x49
"I2C","data",7.54514128,2.224e-05,true,,,0x40
"I2C","data",7.54516688,2.224e-05,true,,,0x18
"I2C","data",7.54519248,2.224e-05,true,,,0x29
"I2C","data",7.5452184,2.224e-05,true,,,0x01
"I2C","data",7.545244,2.224e-05,true,,,0x41
"I2C","data",7.54526976,2.224e-05,true,,,0x18
"I2C","data",7.54529536,2.224e-05,true,,,0x0A
"I2C","data",7.54532096,2.224e-05,true,,,0x79
"I2C","data",7.54534688,2.224e-05,true,,,0x70
"I2C","data",7.54537248,2.224e-05,true,,,0x78
"I2C","data",7.54539824,2.224e-05,true,,,0x82
"I2C","data",7.54543216,2.224e-05,true,,,0x42
"I2C","data",7.54545824,2.224e-05,true,,,0x03
"I2C","data",7.54548384,2.224e-05,true,,,0xD2
"I2C","data",7.54550944,2.224e-05,true,,,0x07
"I2C","data",7.5455352,2.24e-05,true,,,0x28
"I2C","data",7.5455608,2.24e-05,true,,,0xDB
"I2C","data",7.54558672,2.224e-05,true,,,0xD1
"I2C","data",7.54561232,2.224e-05,true,,,0x05
"I2C","data",7.54563792,2.224e-05,true,,,0x2C
"I2C","data",7.54566384,2.224e-05,true,,,0xD9
"I2C","data",7.54568944,2.224e-05,true,,,0xD1
"I2C","data",7.5457152,2.224e-05,true,,,0x05
"I2C","data",7.5457408,2.224e-05,true,,,0x2D
"I2C","data",7.5457664,2.224e-05,true,,,0x03
"I2C","data",7.54579232,2.224e-05,true,,,0xD2
"I2C","data",7.54581792,2.224e-05,true,,,0x49
"I2C","data",7.54584368,2.24e-05,true,,,0x79
"I2C","data",7.54586928,2.24e-05,true,,,0x08
"I2C","data",7.54589488,2.24e-05,true,,,0x18
"I2C","data",7.5459208,2.224e-05,true,,,0x40
"I2C","data",7.5459464,2.224e-05,true,,,0x1E
"I2C","data",7.54597216,2.24e-05,true,,,0xB0
"I2C","data",7.54599776,2.24e-05,true,,,0x70
"I2C","data",7.54602336,2.24e-05,true,,,0x01
"I2C","data",7.54604928,2.224e-05,true,,,0x2C
"I2C","data",7.54607488,2.224e-05,true,,,0x09
"I2C","data",7.5461008,2.224e-05,true,,,0xD0
"I2C","data",7.5461264,2.224e-05,true,,,0x02
"I2C","data",7.546152,2.224e-05,true,,,0x2C
"I2C","data",7.54617776,2.224e-05,true,,,0x10
"I2C","data",7.54620336,2.224e-05,true,,,0xD0
"I2C","data",7.54622928,2.224e-05,true,,,0x03
"I2C","data",7.54625488,2.224e-05,true,,,0x2C
"I2C","data",7.54628048,2.224e-05,true,,,0x14
"I2C","data",7.54630624,2.24e-05,true,,,0xD0
"I2C","data",7.54633184,2.24e-05,true,,,0x04
"I2C","data",7.54635776,2.224e-05,true,,,0x2C
"I2C","data",7.54638336,2.224e-05,true,,,0x01
"I2C","data",7.54640896,2.224e-05,true,,,0xD0
"I2C","data",7.54643456,2.224e-05,true,,,0x05
"I2C","data",7.54646032,2.24e-05,true,,,0x2C
"I2C","data",7.54648656,2.224e-05,true,,,0x0E
"I2C","data",7.54651216,2.224e-05,true,,,0xD1
"I2C","data",7.54653776,2.224e-05,true,,,0xB5
"I2C","data",7.54656352,2.224e-05,true,,,0x21
"I2C","data",7.54658912,2.224e-05,true,,,0x09
"I2C","data",7.54661504,2.224e-05,true,,,0xE0
"I2C","data",7.54664064,2.224e-05,true,,,0x00
"I2C","data",7.54666624,2.224e-05,true,,,0x98
"I2C","data",7.546692,2.24e-05,true,,,0x00
"I2C","data",7.5467176,2.24e-05,true,,,0x21
"I2C","data",7.54674352,2.224e-05,true,,,0xC1
"I2C","data",7.54676912,2.224e-05,true,,,0x74
"I2C","data",7.54679472,2.224e-05,true,,,0x01
"I2C","data",7.54682048,2.24e-05,true,,,0x98
"I2C","data",7.54684608,2.24e-05,true,,,0x40
"I2C","data",7.546872,2.224e-05,true,,,0x04
"I2C","data",7.5468976,2.224e-05,true,,,0x80
"I2C","data",7.5469232,2.224e-05,true,,,0x0F
"I2C","data",7.54694912,2.224e-05,true,,,0xF8
"I2C","data",7.54697472,2.224e-05,true,,,0x72
"I2C","data",7.54700048,2.224e-05,true,,,0xB2
"I2C","data",7.54702608,2.224e-05,true,,,0x21
"I2C","data",7.54705168,2.224e-05,true,,,0x00
"I2C","data",7.5470776,2.224e-05,true,,,0xE0
"I2C","data",7.5471032,2.224e-05,true,,,0xB3
"I2C","data",7.54712896,2.24e-05,true,,,0x21
"I2C","data",7.54715456,2.24e-05,true,,,0x04
"I2C","data",7.54718016,2.24e-05,true,,,0x98
"I2C","data",7.54720608,2.224e-05,true,,,0x00
"I2C","data",7.54723168,2.224e-05,true,,,0xF0
"I2C","data",7.54725744,2.24e-05,true,,,0x8E
"I2C","data",7.54728304,2.24e-05,true,,,0xF9
"I2C","data",7.54730864,2.24e-05,true,,,0x05
"I2C","data",7.54733456,2.224e-05,true,,,0xB0
"I2C","data",7.54736016,2.224e-05,true,,,0xF0
"I2C","data",7.54738608,2.224e-05,true,,,0xBD
"I2C","data",7.54741168,2.224e-05,true,,,0xB4
"I2C","data",7.54743744,2.224e-05,true,,,0x21
"I2C","data",7.54746336,2.224e-05,true,,,0xF8
"I2C","data",7.54748896,2.224e-05,true,,,0xE7
"I2C","data",7.54751472,2.24e-05,true,,,0x4C
"I2C","data",7.5475408,2.24e-05,true,,,0x4C
"I2C","data",7.5475664,2.24e-05,true,,,0x04
"I2C","data",7.547592,2.24e-05,true,,,0x20
"I2C","data",7.54761792,2.224e-05,true,,,0x90
"I2C","data",7.54764352,2.224e-05,true,,,0x12
"I2C","data",7.54766944,2.224e-05,true,,,0x04
"I2C","data",7.54769504,2.224e-05,true,,,0x20
"I2C","data",7.54772064,2.224e-05,true,,,0x4C
"I2C","data",7.5477464,2.224e-05,true,,,0x05
"I2C","data",7.547772,2.224e-05,true,,,0x00
"I2C","data",7.54779792,2.224e-05,true,,,0x00
"I2C","data",7.54782352,2.224e-05,true,,,0xD0
"I2C","data",7.54784912,2.224e-05,true,,,0x20
"I2C","data",7.54787488,2.24e-05,true,,,0x04
"I2C","data",7.54790048,2.24e-05,true,,,0x20
"I2C","data",7.5479264,2.224e-05,true,,,0x08
"I2C","data",7.547952,2.224e-05,true,,,0x00
"I2C","data",7.5479776,2.224e-05,true,,,0x04
"I2C","data",7.54800336,2.24e-05,true,,,0x20
"I2C","data",7.54802896,2.24e-05,true,,,0x03
"I2C","data",7.54805488,2.224e-05,true,,,0xB4
"I2C","data",7.54808048,2.224e-05,true,,,0x01
"I2C","data",7.54810608,2.224e-05,true,,,0x48
"I2C","data",7.548132,2.224e-05,true,,,0x01
"I2C","data",7.5481576,2.224e-05,true,,,0x90
"I2C","data",7.54818336,2.224e-05,true,,,0x01
"I2C","data",7.54820896,2.224e-05,true,,,0xBD
"I2C","data",7.54823456,2.224e-05,true,,,0xC3
"I2C","data",7.54826048,2.224e-05,true,,,0x0C
"I2C","data",7.54828608,2.224e-05,true,,,0x02
"I2C","data",7.54831184,2.24e-05,true,,,0x00
"I2C","data",7.54833744,2.24e-05,true,,,0x03
"I2C","data",7.54836304,2.24e-05,true,,,0xB4
"I2C","data",7.54838896,2.224e-05,true,,,0x01
"I2C","data",7.54841456,2.224e-05,true,,,0x48
"I2C","data",7.54844064,2.224e-05,true,,,0x01
"I2C","data",7.54846624,2.224e-05,true,,,0x90
"I2C","data",7.54849184,2.224e-05,true,,,0x01
"I2C","data",7.54851776,2.224e-05,true,,,0xBD
"I2C","data",7.54854336,2.224e-05,true,,,0xD1
"I2C","data",7.54856912,2.224e-05,true,,,0x4C
"I2C","data",7.54859472,2.224e-05,true,,,0x02
"I2C","data",7.54862032,2.224e-05,true,,,0x00
"I2C","data",7.54864624,2.224e-05,true,,,0x03
"I2C","data",7.54867184,2.224e-05,true,,,0xB4
"I2C","data",7.5486976,2.24e-05,true,,,0x01
"I2C","data",7.5487232,2.24e-05,true,,,0x48
"I2C","data",7.5487488,2.24e-05,true,,,0x01
"I2C","data",7.54877472,2.224e-05,true,,,0x90
"I2C","data",7.54880032,2.224e-05,true,,,0x01
"I2C","data",7.54882608,2.24e-05,true,,,0xBD
"I2C","data",7.54885168,2.24e-05,true,,,0x5D
"I2C","data",7.54887728,2.24e-05,true,,,0x10
"I2C","data",7.5489032,2.224e-05,true,,,0x02
"I2C","data",7.5489288,2.224e-05,true,,,0x00
"I2C","data",7.54895472,2.224e-05,true,,,0x03
"I2C","data",7.54898032,2.224e-05,true,,,0xB4
"I2C","data",7.54900592,2.224e-05,true,,,0x01
"I2C","data",7.54903168,2.224e-05,true,,,0x48
"I2C","data",7.54905728,2.224e-05,true,,,0x01
"I2C","data",7.5490832,2.224e-05,true,,,0x90
"I2C","data",7.5491088,2.224e-05,true,,,0x01
"I2C","data",7.5491344,2.224e-05,true,,,0xBD
"I2C","data",7.54916016,2.24e-05,true,,,0x83
"I2C","data",7.54918576,2.24e-05,true,,,0x2B
"I2C","data",7.54921168,2.224e-05,true,,,0x02
"I2C","data",7.54923728,2.224e-05,true,,,0x00
"I2C","data",7.54926288,2.224e-05,true,,,0x03
"I2C","data",7.54928864,2.24e-05,true,,,0xB4
"I2C","data",7.54931424,2.24e-05,true,,,0x01
"I2C","data",7.54934016,2.224e-05,true,,,0x48
"I2C","data",7.54936576,2.224e-05,true,,,0x01
"I2C","data",7.54939136,2.224e-05,true,,,0x90
"I2C","data",7.54941728,2.224e-05,true,,,0x01
"I2C","data",7.54944304,2.224e-05,true,,,0xBD
"I2C","data",7.54946896,2.224e-05,true,,,0xFD
"I2C","data",7.54949456,2.224e-05,true,,,0x0F
"I2C","data",7.54952016,2.224e-05,true,,,0x02
"I2C","data",7.54954592,2.224e-05,true,,,0x00
"I2C","data",7.54957152,2.224e-05,true,,,0x03
"I2C","data",7.54959744,2.224e-05,true,,,0xB4
"I2C","data",7.54962304,2.224e-05,true,,,0x01
"I2C","data",7.54964864,2.224e-05,true,,,0x48
"I2C","data",7.5496744,2.24e-05,true,,,0x01
"I2C","data",7.5497,2.24e-05,true,,,0x90
"I2C","data",7.54972592,2.224e-05,true,,,0x01
"I2C","data",7.54975152,2.224e-05,true,,,0xBD
"I2C","data",7.54977712,2.224e-05,true,,,0xA7
"I2C","data",7.54980304,2.224e-05,true,,,0x2B
"I2C","data",7.54982864,2.224e-05,true,,,0x02
"I2C","data",7.5498544,2.224e-05,true,,,0x00
"I2C","data",7.54988,2.224e-05,true,,,0x03
"I2C","data",7.5499056,2.224e-05,true,,,0xB4
"I2C","data",7.54993152,2.224e-05,true,,,0x01
"I2C","data",7.54995712,2.224e-05,true,,,0x48
"I2C","data",7.54998288,2.224e-05,true,,,0x01
"I2C","data",7.55000848,2.224e-05,true,,,0x90
"I2C","data",7.55003408,2.224e-05,true,,,0x01
"I2C","data",7.55006,2.224e-05,true,,,0xBD
"I2C","data",7.5500856,2.224e-05,true,,,0x85
"I2C","data",7.55011136,2.24e-05,true,,,0x4C
"I2C","data",7.55013696,2.24e-05,true,,,0x02
"I2C","data",7.55016256,2.24e-05,true,,,0x00
"I2C","data",7.55018848,2.224e-05,true,,,0x03
"I2C","data",7.55021408,2.224e-05,true,,,0xB4
"I2C","data",7.55024,2.224e-05,true,,,0x01
"I2C","data",7.5502656,2.224e-05,true,,,0x48
"I2C","data",7.5502912,2.224e-05,true,,,0x01
"I2C","data",7.55031696,2.224e-05,true,,,0x90
"I2C","data",7.55034256,2.224e-05,true,,,0x01
"I2C","data",7.55036848,2.224e-05,true,,,0xBD
"I2C","data",7.55039408,2.224e-05,true,,,0x33
"I2C","data",7.55041968,2.224e-05,true,,,0x49
"I2C","data",7.55044544,2.224e-05,true,,,0x02
"I2C","data",7.55047136,2.224e-05,true,,,0x00
"I2C","data",7.55049744,2.224e-05,true,,,0x03
"I2C","data",7.55052304,2.224e-05,true,,,0xB4
"I2C","data",7.55054864,2.224e-05,true,,,0x01
"I2C","data",7.55057456,2.224e-05,true,,,0x48
"I2C","data",7.5506,2.24e-05,true,,,0x01
"I2C","data",7.55062592,2.224e-05,true,,,0x90
"I2C","data",7.55065152,2.224e-05,true,,,0x01
"I2C","data",7.55067712,2.224e-05,true,,,0xBD
"I2C","data",7.55070304,2.224e-05,true,,,0xD1
"I2C","data",7.55072864,2.224e-05,true,,,0x2B
"I2C","data",7.5507544,2.224e-05,true,,,0x02
"I2C","data",7.55078,2.224e-05,true,,,0x00
"I2C","data",7.5508056,2.224e-05,true,,,0x03
"I2C","data",7.55083152,2.224e-05,true,,,0xB4
"I2C","data",7.55085712,2.224e-05,true,,,0x01
"I2C","data",7.55088288,2.24e-05,true,,,0x48
"I2C","data",7.55090848,2.24e-05,true,,,0x01
"I2C","data",7.55093408,2.24e-05,true,,,0x90
"I2C","data",7.55096,2.224e-05,true,,,0x01
"I2C","data",7.5509856,2.224e-05,true,,,0xBD
"I2C","data",7.55101136,2.24e-05,true,,,0x53
"I2C","data",7.55103696,2.24e-05,true,,,0x2B
"I2C","data",7.55106256,2.24e-05,true,,,0x02
"I2C","data",7.55108848,2.224e-05,true,,,0x00
"I2C","data",7.55111408,2.224e-05,true,,,0x03
"I2C","data",7.55114,2.224e-05,true,,,0xB4
"I2C","data",7.5511656,2.224e-05,true,,,0x01
"I2C","data",7.5511912,2.224e-05,true,,,0x48
"I2C","data",7.55121696,2.224e-05,true,,,0x01
"I2C","data",7.55124256,2.224e-05,true,,,0x90
"I2C","data",7.55126848,2.224e-05,true,,,0x01
"I2C","data",7.55129408,2.224e-05,true,,,0xBD
"I2C","data",7.55131968,2.224e-05,true,,,0x35
"I2C","data",7.55134544,2.24e-05,true,,,0x2D
"I2C","data",7.55137104,2.24e-05,true,,,0x02
"I2C","data",7.55139696,2.224e-05,true,,,0x00
"I2C","data",7.55142256,2.224e-05,true,,,0x03
"I2C","data",7.55144832,2.24e-05,true,,,0xB4
"I2C","data",7.55147424,2.224e-05,true,,,0x01
"I2C","data",7.55149984,2.224e-05,true,,,0x48
"I2C","data",7.55152576,2.224e-05,true,,,0x01
"I2C","data",7.55155184,2.224e-05,true,,,0x90
"I2C","data",7.55157744,2.224e-05,true,,,0x01
"I2C","data",7.55160304,2.224e-05,true,,,0xBD
"I2C","data",7.5516288,2.24e-05,true,,,0xAF
"I2C","data",7.5516544,2.24e-05,true,,,0xF9
"I2C","data",7.55168032,2.224e-05,true,,,0x01
"I2C","data",7.55170592,2.224e-05,true,,,0x00
"I2C","data",7.55173152,2.224e-05,true,,,0x03
"I2C","data",7.55175728,2.24e-05,true,,,0xB4
"I2C","data",7.55178288,2.24e-05,true,,,0x01
"I2C","data",7.5518088,2.224e-05,true,,,0x48
"I2C","data",7.5518344,2.224e-05,true,,,0x01
"I2C","data",7.55186,2.224e-05,true,,,0x90
"I2C","data",7.55188592,2.224e-05,true,,,0x01
"I2C","data",7.55191152,2.224e-05,true,,,0xBD
"I2C","data",7.55193728,2.224e-05,true,,,0x4D
"I2C","data",7.55196288,2.224e-05,true,,,0x39
"I2C","data",7.55198848,2.224e-05,true,,,0x02
"I2C","data",7.5520144,2.224e-05,true,,,0x00
"I2C","data",7.55204,2.224e-05,true,,,0x03
"I2C","data",7.55206576,2.24e-05,true,,,0xB4
"I2C","data",7.55209136,2.24e-05,true,,,0x01
"I2C","data",7.55211696,2.24e-05,true,,,0x48
"I2C","data",7.55214288,2.224e-05,true,,,0x01
"I2C","data",7.55216848,2.224e-05,true,,,0x90
"I2C","data",7.55219424,2.24e-05,true,,,0x01
"I2C","data",7.55221984,2.24e-05,true,,,0xBD
"I2C","data",7.55224544,2.24e-05,true,,,0x25
"I2C","data",7.55227136,2.224e-05,true,,,0x03
"I2C","data",7.55229696,2.224e-05,true,,,0x00
"I2C","data",7.55232288,2.224e-05,true,,,0x00
"I2C","data",7.55234848,2.224e-05,true,,,0x03
"I2C","data",7.55237408,2.224e-05,true,,,0xB4
"I2C","data",7.55239984,2.224e-05,true,,,0x01
"I2C","data",7.55243104,2.224e-05,true,,,0x48
"I2C","data",7.55245664,2.224e-05,true,,,0x01
"I2C","data",7.55248224,2.224e-05,true,,,0x90
"I2C","data",7.552508,2.224e-05,true,,,0x01
"I2C","data",7.5525336,2.224e-05,true,,,0xBD
"I2C","data",7.55255952,2.224e-05,true,,,0x0F
"I2C","data",7.55258512,2.224e-05,true,,,0x24
"I2C","data",7.55261072,2.224e-05,true,,,0x02
"I2C","data",7.55263648,2.24e-05,true,,,0x00
"I2C","data",7.55266208,2.24e-05,true,,,0x03
"I2C","data",7.552688,2.224e-05,true,,,0xB4
"I2C","data",7.5527136,2.224e-05,true,,,0x01
"I2C","data",7.5527392,2.224e-05,true,,,0x48
"I2C","data",7.55276496,2.24e-05,true,,,0x01
"I2C","data",7.55279056,2.24e-05,true,,,0x90
"I2C","data",7.55281648,2.224e-05,true,,,0x01
"I2C","data",7.55284208,2.224e-05,true,,,0xBD
"I2C","data",7.55286768,2.224e-05,true,,,0x69
"I2C","data",7.5528936,2.224e-05,true,,,0x24
"I2C","data",7.5529192,2.224e-05,true,,,0x02
"I2C","data",7.55294496,2.224e-05,true,,,0x00
"I2C","data",7.55297056,2.224e-05,true,,,0x03
"I2C","data",7.55299616,2.224e-05,true,,,0xB4
"I2C","data",7.55302208,2.224e-05,true,,,0x01
"I2C","data",7.55304768,2.224e-05,true,,,0x48
"I2C","data",7.55307344,2.224e-05,true,,,0x01
"I2C","data",7.55309904,2.224e-05,true,,,0x90
"I2C","data",7.55312464,2.24e-05,true,,,0x01
"I2C","data",7.55315056,2.224e-05,t