name,type,start_time,duration,"ack","address","read","data"
"I2C","start",7.32113872,1.6e-07,,,,
"I2C","address",7.32114176,2.24e-05,true,0x20,false,
"I2C","data",7.3211656,2.24e-05,true,,,0x09
"I2C","data",7.3211912,2.24e-05,true,,,0x06
"I2C","data",7.32121712,2.224e-05,true,,,0x40
"I2C","data",7.32124272,2.224e-05,true,,,0x26
"I2C","data",7.32126848,2.24e-05,true,,,0x00
"I2C","data",7.32129408,2.24e-05,true,,,0x00
"I2C","data",7.32131968,2.24e-05,true,,,0x35
"I2C","data",7.3213456,2.224e-05,true,,,0x31
"I2C","stop",7.32137056,1.6e-07,,,,
"I2C","start",7.32138464,1.6e-07,,,,
"I2C","address",7.32138768,2.384e-05,true,0x20,false,
"I2C","data",7.32141312,2.224e-05,true,,,0x08
"I2C","data",7.32143872,2.224e-05,true,,,0x04
"I2C","data",7.32146464,2.224e-05,true,,,0x50
"I2C","data",7.32149024,2.224e-05,true,,,0x42
"I2C","data",7.321516,2.224e-05,true,,,0x4D
"I2C","data",7.3215416,2.224e-05,true,,,0x73
"I2C","stop",7.32156656,1.6e-07,,,,
"I2C","start",7.32158048,1.6e-07,,,,
"I2C","address",7.32158352,8.288e-05,true,0x20,false,
"I2C","data",7.321668,2.224e-05,true,,,0x08
"I2C","start",7.32169488,1.6e-07,,,,
"I2C","address",7.32169808,2.224e-05,true,0x20,true,
"I2C","data",7.32201568,2.224e-05,true,,,0x04
"I2C","data",7.32207376,2.224e-05,true,,,0x50
"I2C","data",7.32212256,2.224e-05,true,,,0x42
"I2C","data",7.32217136,2.224e-05,false,,,0x4D
"I2C","stop",7.32219632,1.6e-07,,,,
"I2C","start",7.32221056,1.6e-07,,,,
"I2C","address",7.32221376,2.224e-05,true,0x20,false,
"I2C","data",7.3222376,2.224e-05,true,,,0x08
"I2C","start",7.32226416,1.60000001e-07,,,,
"I2C","address",7.32226736,2.224e-05,true,0x20,true,
"I2C","data",7.3225568,2.224e-05,true,,,0x04
"I2C","data",7.3226056,2.224e-05,true,,,0x50
"I2C","data",7.32265424,2.24e-05,true,,,0x42
"I2C","data",7.32270304,2.224e-05,false,,,0x4D
"I2C","stop",7.322728,1.6e-07,,,,
"I2C","start",7.3227424,1.6e-07,,,,
"I2C","address",7.32274544,2.224e-05,true,0x20,false,
"I2C","data",7.32276928,2.224e-05,true,,,0x08
"I2C","start",7.322796,1.6e-07,,,,
"I2C","address",7.32279904,2.224e-05,true,0x20,true,
"I2C","data",7.3230832,2.224e-05,true,,,0x04
"I2C","data",7.323132,2.224e-05,true,,,0x50
"I2C","data",7.32318064,2.224e-05,true,,,0x42
"I2C","data",7.32322928,2.224e-05,false,,,0x4D
"I2C","stop",7.32325424,1.6e-07,,,,
"I2C","start",7.32326832,1.60000001e-07,,,,
"I2C","address",7.32327136,2.24e-05,true,0x20,false,
"I2C","data",7.32329536,2.224e-05,true,,,0x08
"I2C","start",7.32332192,1.60000001e-07,,,,
"I2C","address",7.32332512,2.224e-05,true,0x20,true,
"I2C","data",7.32348864,2.224e-05,true,,,0x04
"I2C","data",7.32353728,2.224e-05,true,,,0x50
"I2C","data",7.32358608,2.224e-05,true,,,0x42
"I2C","data",7.32363472,2.24e-05,false,,,0x4D
"I2C","stop",7.32365968,1.60000001e-07,,,,
"I2C","start",7.32367392,1.6e-07,,,,
"I2C","address",7.32367696,2.224e-05,true,0x20,false,
"I2C","data",7.3237008,2.224e-05,true,,,0x08
"I2C","start",7.32372752,1.6e-07,,,,
"I2C","address",7.32373056,2.224e-05,true,0x20,true,
"I2C","data",7.32390048,2.224e-05,true,,,0x04
"I2C","data",7.32395952,2.224e-05,true,,,0x00
"I2C","data",7.32400816,2.224e-05,true,,,0x00
"I2C","data",7.32406624,2.24e-05,false,,,0x00
"I2C","stop",7.3240912,1.6e-07,,,,
"I2C","start",7.3241056,1.60000001e-07,,,,
"I2C","address",7.32410864,2.24e-05,true,0x20,false,
"I2C","data",7.32413248,2.24e-05,true,,,0x09
"I2C","start",7.3241592,1.60000001e-07,,,,
"I2C","address",7.32416224,2.24e-05,true,0x20,true,
"I2C","data",7.3243472,2.224e-05,true,,,0x40
"I2C","data",7.3244032,2.224e-05,true,,,0x00
"I2C","data",7.32446128,2.224e-05,true,,,0x00
"I2C","data",7.32451008,2.224e-05,false,,,0x00
"I2C","stop",7.32453504,1.6e-07,,,,
"I2C","start",7.32554752,1.6e-07,,,,
"I2C","address",7.32555056,2.224e-05,true,0x35,false,
"I2C","data",7.3255744,2.224e-05,true,,,0x01
"I2C","data",7.3256,2.224e-05,true,,,0x00
"I2C","data",7.32562576,2.24e-05,true,,,0xE0
"I2C","data",7.32565152,2.224e-05,true,,,0xAC
"I2C","data",7.32567728,2.224e-05,true,,,0xFE
"I2C","data",7.32570288,2.224e-05,true,,,0xFF
"I2C","data",7.32572848,2.224e-05,true,,,0xFF
"I2C","data",7.3257544,2.224e-05,true,,,0xFF
"I2C","data",7.32578,2.224e-05,true,,,0x80
"I2C","data",7.32580576,2.224e-05,true,,,0x04
"I2C","data",7.32583136,2.224e-05,true,,,0x00
"I2C","data",7.32585696,2.224e-05,true,,,0x00
"I2C","data",7.32588288,2.224e-05,true,,,0xC0
"I2C","data",7.32590848,2.224e-05,true,,,0x21
"I2C","data",7.32593424,2.24e-05,true,,,0x00
"I2C","data",7.32595984,2.24e-05,true,,,0x00
"I2C","data",7.32598544,2.24e-05,true,,,0x73
"I2C","data",7.32601136,2.224e-05,true,,,0x4E
"I2C","data",7.32603696,2.224e-05,true,,,0xFF
"I2C","data",7.32606272,2.24e-05,true,,,0xC0
"I2C","data",7.32608832,2.24e-05,true,,,0x00
"I2C","data",7.32611392,2.24e-05,true,,,0x00
"I2C","data",7.32613984,2.224e-05,true,,,0x00
"I2C","data",7.32616544,2.224e-05,true,,,0x00
"I2C","data",7.32619136,2.224e-05,true,,,0xFF
"I2C","data",7.32621696,2.224e-05,true,,,0xFF
"I2C","data",7.32624256,2.224e-05,true,,,0xFF
"I2C","data",7.32626832,2.224e-05,true,,,0xFF
"I2C","data",7.32629392,2.224e-05,true,,,0xFF
"I2C","data",7.32631984,2.224e-05,true,,,0xFF
"I2C","data",7.32634544,2.224e-05,true,,,0xFF
"I2C","data",7.32637104,2.224e-05,true,,,0xFF
"I2C","data",7.3263968,2.24e-05,true,,,0xFF
"I2C","data",7.3264224,2.24e-05,true,,,0xFF
"I2C","data",7.32644848,2.24e-05,true,,,0xFF
"I2C","data",7.32647408,2.24e-05,true,,,0xFF
"I2C","data",7.32649968,2.24e-05,true,,,0xFF
"I2C","data",7.3265256,2.224e-05,true,,,0xFF
"I2C","data",7.3265512,2.224e-05,true,,,0xFF
"I2C","data",7.32657712,2.224e-05,true,,,0xFF
"I2C","data",7.32660272,2.224e-05,true,,,0xFF
"I2C","data",7.32662832,2.224e-05,true,,,0xFF
"I2C","data",7.32665408,2.224e-05,true,,,0xFF
"I2C","data",7.32667968,2.224e-05,true,,,0xFF
"I2C","data",7.3267056,2.224e-05,true,,,0xFF
"I2C","data",7.3267312,2.224e-05,true,,,0xFF
"I2C","data",7.3267568,2.224e-05,true,,,0xFF
"I2C","data",7.32678256,2.24e-05,true,,,0xFF
"I2C","data",7.32680816,2.24e-05,true,,,0xFF
"I2C","data",7.32683408,2.224e-05,true,,,0xFF
"I2C","data",7.32685968,2.224e-05,true,,,0xFF
"I2C","data",7.32688528,2.224e-05,true,,,0xFF
"I2C","data",7.32691104,2.24e-05,true,,,0x01
"I2C","data",7.32693664,2.24e-05,true,,,0x11
"I2C","data",7.32696256,2.224e-05,true,,,0x09
"I2C","data",7.32698816,2.224e-05,true,,,0xF8
"I2C","data",7.32701376,2.224e-05,true,,,0xFF
"I2C","data",7.32703968,2.224e-05,true,,,0xFF
"I2C","data",7.32706528,2.224e-05,true,,,0xFF
"I2C","data",7.32709104,2.224e-05,true,,,0xFF
"I2C","data",7.32711664,2.224e-05,true,,,0xFF
"I2C","data",7.32714224,2.224e-05,true,,,0xFF
"I2C","data",7.32716816,2.224e-05,true,,,0xFF
"I2C","data",7.32719376,2.224e-05,true,,,0xFF
"I2C","data",7.32721952,2.24e-05,true,,,0xFF
"I2C","data",7.32724512,2.24e-05,true,,,0xFF
"I2C","data",7.32727072,2.24e-05,true,,,0xFF
"I2C","data",7.32729664,2.224e-05,true,,,0xFF
"I2C","data",7.32732224,2.224e-05,true,,,0x00
"I2C","data",7.327348,2.24e-05,true,,,0x04
"I2C","data",7.3273736,2.24e-05,true,,,0x00
"I2C","data",7.3273992,2.24e-05,true,,,0x00
"I2C","data",7.32742512,2.224e-05,true,,,0x80
"I2C","data",7.32745104,2.224e-05,true,,,0x00
"I2C","data",7.3274768,2.224e-05,true,,,0x00
"I2C","data",7.32750288,2.24e-05,true,,,0x00
"I2C","data",7.32752848,2.24e-05,true,,,0xFF
"I2C","data",7.32755408,2.24e-05,true,,,0xFF
"I2C","data",7.32758,2.224e-05,true,,,0xFF
"I2C","data",7.3276056,2.224e-05,true,,,0xFF
"I2C","data",7.32763136,2.24e-05,true,,,0xFF
"I2C","data",7.32765696,2.24e-05,true,,,0xFF
"I2C","data",7.32768256,2.24e-05,true,,,0xFF
"I2C","data",7.32770848,2.224e-05,true,,,0xFF
"I2C","data",7.32773408,2.224e-05,true,,,0xFF
"I2C","data",7.32776,2.224e-05,true,,,0xFF
"I2C","data",7.3277856,2.224e-05,true,,,0xFF
"I2C","data",7.3278112,2.224e-05,true,,,0xFF
"I2C","data",7.32783696,2.224e-05,true,,,0xFF
"I2C","data",7.32786256,2.224e-05,true,,,0xFF
"I2C","data",7.32788848,2.224e-05,true,,,0xFF
"I2C","data",7.32791408,2.224e-05,true,,,0xFF
"I2C","data",7.32793968,2.224e-05,true,,,0xFF
"I2C","data",7.32796544,2.24e-05,true,,,0xFF
"I2C","data",7.32799104,2.24e-05,true,,,0xFF
"I2C","data",7.32801696,2.224e-05,true,,,0xFF
"I2C","data",7.32804256,2.224e-05,true,,,0xFF
"I2C","data",7.32806816,2.224e-05,true,,,0xFF
"I2C","data",7.32809392,2.24e-05,true,,,0xFF
"I2C","data",7.32811952,2.24e-05,true,,,0xFF
"I2C","data",7.32814544,2.224e-05,true,,,0xFF
"I2C","data",7.32817104,2.224e-05,true,,,0xFF
"I2C","data",7.32819664,2.224e-05,true,,,0xFF
"I2C","data",7.32822256,2.224e-05,true,,,0xFF
"I2C","data",7.32824816,2.224e-05,true,,,0xFF
"I2C","data",7.32827392,2.224e-05,true,,,0xFF
"I2C","data",7.32829952,2.224e-05,true,,,0xFF
"I2C","data",7.32832512,2.224e-05,true,,,0xFF
"I2C","data",7.32835104,2.224e-05,true,,,0xFF
"I2C","data",7.32837664,2.224e-05,true,,,0xFF
"I2C","data",7.3284024,2.24e-05,true,,,0xFF
"I2C","data",7.32843328,2.224e-05,true,,,0xFF
"I2C","data",7.3284592,2.224e-05,true,,,0xFF
"I2C","data",7.3284848,2.224e-05,true,,,0xFF
"I2C","data",7.32851056,2.224e-05,true,,,0xFF
"I2C","data",7.32853616,2.224e-05,true,,,0xFF
"I2C","data",7.32856176,2.224e-05,true,,,0xFF
"I2C","data",7.32858768,2.224e-05,true,,,0xFF
"I2C","data",7.32861328,2.224e-05,true,,,0xFF
"I2C","data",7.32863904,2.24e-05,true,,,0xFF
"I2C","data",7.32866464,2.24e-05,true,,,0xFF
"I2C","data",7.32869024,2.24e-05,true,,,0xFF
"I2C","data",7.32871616,2.224e-05,true,,,0xFF
"I2C","data",7.32874176,2.224e-05,true,,,0xFF
"I2C","data",7.32876768,2.224e-05,true,,,0xFF
"I2C","data",7.32879328,2.224e-05,true,,,0xFF
"I2C","data",7.32881888,2.224e-05,true,,,0xFF
"I2C","data",7.32884464,2.224e-05,true,,,0xFF
"I2C","data",7.32887024,2.224e-05,true,,,0x01
"I2C","data",7.32889616,2.224e-05,true,,,0x00
"I2C","data",7.32892176,2.224e-05,true,,,0x7C
"I2C","data",7.32894736,2.224e-05,true,,,0x03
"I2C","data",7.32897312,2.224e-05,true,,,0x16
"I2C","data",7.32899872,2.224e-05,true,,,0x14
"I2C","data",7.32902464,2.224e-05,true,,,0xE0
"I2C","data",7.32905024,2.224e-05,true,,,0x4B
"I2C","data",7.32907584,2.224e-05,true,,,0x00
"I2C","data",7.3291016,2.24e-05,true,,,0x00
"I2C","data",7.3291272,2.24e-05,true,,,0x00
"I2C","data",7.32915312,2.224e-05,true,,,0x00
"I2C","data",7.32917872,2.224e-05,true,,,0x00
"I2C","data",7.32920432,2.224e-05,true,,,0x00
"I2C","data",7.32923024,2.224e-05,true,,,0x00
"I2C","data",7.32925584,2.224e-05,true,,,0x00
"I2C","data",7.3292816,2.224e-05,true,,,0x30
"I2C","data",7.3293072,2.224e-05,true,,,0x78
"I2C","data",7.3293328,2.224e-05,true,,,0x31
"I2C","data",7.32935872,2.224e-05,true,,,0x20
"I2C","data",7.32938432,2.224e-05,true,,,0xFA
"I2C","data",7.32941008,2.224e-05,true,,,0xF7
"I2C","data",7.329436,2.224e-05,true,,,0x32
"I2C","data",7.3294616,2.224e-05,true,,,0x00
"I2C","data",7.32948736,2.24e-05,true,,,0x1A
"I2C","data",7.32951296,2.24e-05,true,,,0x00
"I2C","data",7.32953888,2.224e-05,true,,,0x0F
"I2C","data",7.32956448,2.224e-05,true,,,0x06
"I2C","data",7.32959008,2.224e-05,true,,,0x00
"I2C","data",7.32961584,2.24e-05,true,,,0x07
"I2C","data",7.32964144,2.24e-05,true,,,0x01
"I2C","data",7.32966736,2.224e-05,true,,,0x00
"I2C","data",7.32969296,2.224e-05,true,,,0x00
"I2C","data",7.32971856,2.224e-05,true,,,0x00
"I2C","data",7.32974448,2.224e-05,true,,,0x00
"I2C","data",7.32977008,2.224e-05,true,,,0x00
"I2C","data",7.32979584,2.224e-05,true,,,0x00
"I2C","data",7.32982144,2.224e-05,true,,,0x00
"I2C","data",7.32984704,2.224e-05,true,,,0x0F
"I2C","data",7.32987296,2.224e-05,true,,,0x97
"I2C","data",7.32989856,2.224e-05,true,,,0x00
"I2C","data",7.32992432,2.24e-05,true,,,0x04
"I2C","data",7.32994992,2.24e-05,true,,,0x0A
"I2C","data",7.32997552,2.24e-05,true,,,0x01
"I2C","data",7.33000144,2.224e-05,true,,,0x01
"I2C","data",7.33002704,2.224e-05,true,,,0x1F
"I2C","data",7.3300528,2.24e-05,true,,,0x35
"I2C","data",7.3300784,2.24e-05,true,,,0x0F
"I2C","data",7.330104,2.24e-05,true,,,0x95
"I2C","data",7.33012992,2.224e-05,true,,,0x00
"I2C","data",7.33015552,2.224e-05,true,,,0x14
"I2C","data",7.33018144,2.224e-05,true,,,0x10
"I2C","data",7.33020704,2.224e-05,true,,,0x27
"I2C","data",7.33023264,2.224e-05,true,,,0x00
"I2C","data",7.3302584,2.224e-05,true,,,0x00
"I2C","data",7.330284,2.224e-05,true,,,0xA0
"I2C","data",7.33030992,2.224e-05,true,,,0x25
"I2C","data",7.33033552,2.224e-05,true,,,0x26
"I2C","data",7.33036112,2.224e-05,true,,,0x00
"I2C","data",7.33038688,2.24e-05,true,,,0x40
"I2C","data",7.33041248,2.24e-05,true,,,0x9C
"I2C","data",7.3304384,2.224e-05,true,,,0x00
"I2C","data",7.330464,2.224e-05,true,,,0x00
"I2C","data",7.33048976,2.24e-05,true,,,0x00
"I2C","data",7.33051536,2.24e-05,true,,,0x00
"I2C","data",7.33054128,2.224e-05,true,,,0x00
"I2C","data",7.33056736,2.224e-05,true,,,0x00
"I2C","data",7.33059296,2.224e-05,true,,,0x08
"I2C","data",7.33061856,2.224e-05,true,,,0x0B
"I2C","data",7.33064448,2.224e-05,true,,,0x08
"I2C","data",7.33067008,2.224e-05,true,,,0x07
"I2C","data",7.33069584,2.24e-05,true,,,0x00
"I2C","data",7.33072144,2.24e-05,true,,,0x0F
"I2C","data",7.33074704,2.24e-05,true,,,0x16
"I2C","data",7.33077296,2.224e-05,true,,,0x00
"I2C","data",7.33079856,2.224e-05,true,,,0x0A
"I2C","data",7.33082432,2.24e-05,true,,,0x0A
"I2C","data",7.33084992,2.24e-05,true,,,0x38
"I2C","data",7.33087552,2.24e-05,true,,,0x30
"I2C","data",7.33090144,2.224e-05,true,,,0xCD
"I2C","data",7.33092704,2.224e-05,true,,,0x00
"I2C","data",7.33095296,2.224e-05,true,,,0x00
"I2C","data",7.33097856,2.224e-05,true,,,0x00
"I2C","data",7.33100416,2.224e-05,true,,,0x0F
"I2C","data",7.33102992,2.224e-05,true,,,0x00
"I2C","data",7.33105552,2.224e-05,true,,,0x00
"I2C","data",7.33108144,2.224e-05,true,,,0x03
"I2C","data",7.33110704,2.224e-05,true,,,0x0F
"I2C","data",7.33113264,2.224e-05,true,,,0x17
"I2C","data",7.3311584,2.24e-05,true,,,0x00
"I2C","data",7.331184,2.24e-05,true,,,0x0A
"I2C","data",7.33120992,2.224e-05,true,,,0x08
"I2C","data",7.33123552,2.224e-05,true,,,0x04
"I2C","data",7.33126112,2.224e-05,true,,,0x00
"I2C","data",7.33128688,2.24e-05,true,,,0x02
"I2C","data",7.33131248,2.24e-05,true,,,0x00
"I2C","data",7.3313384,2.224e-05,true,,,0x00
"I2C","data",7.331364,2.224e-05,true,,,0x00
"I2C","data",7.3313896,2.224e-05,true,,,0x00
"I2C","data",7.33141552,2.224e-05,true,,,0x00
"I2C","data",7.33144128,2.224e-05,true,,,0x00
"I2C","data",7.3314672,2.224e-05,true,,,0x00
"I2C","data",7.33149328,2.224e-05,true,,,0x0F
"I2C","data",7.33151888,2.224e-05,true,,,0x23
"I2C","data",7.33154448,2.224e-05,true,,,0x00
"I2C","data",7.33157024,2.24e-05,true,,,0x03
"I2C","data",7.33159584,2.24e-05,true,,,0x00
"I2C","data",7.33162176,2.224e-05,true,,,0xE0
"I2C","data",7.33164736,2.224e-05,true,,,0x01
"I2C","data",7.33167296,2.224e-05,true,,,0x00
"I2C","data",7.33169888,2.224e-05,true,,,0x0F
"I2C","data",7.33172448,2.224e-05,true,,,0x27
"I2C","data",7.33175024,2.224e-05,true,,,0x00
"I2C","data",7.33177584,2.224e-05,true,,,0x09
"I2C","data",7.33180144,2.224e-05,true,,,0x01
"I2C","data",7.33182736,2.224e-05,true,,,0x81
"I2C","data",7.33185296,2.224e-05,true,,,0xC1
"I2C","data",7.33187872,2.24e-05,true,,,0x8C
"I2C","data",7.33190432,2.24e-05,true,,,0x19
"I2C","data",7.33192992,2.24e-05,true,,,0x07
"I2C","data",7.33195584,2.224e-05,true,,,0x1A
"I2C","data",7.33198144,2.224e-05,true,,,0x00
"I2C","data",7.3320072,2.24e-05,true,,,0x50
"I2C","data",7.3320328,2.24e-05,true,,,0x51
"I2C","data",7.3320584,2.24e-05,true,,,0x0F
"I2C","data",7.33208432,2.224e-05,true,,,0x28
"I2C","data",7.33210992,2.224e-05,true,,,0x00
"I2C","data",7.33213584,2.224e-05,true,,,0x0F
"I2C","data",7.33216144,2.224e-05,true,,,0x01
"I2C","data",7.33218704,2.224e-05,true,,,0x48
"I2C","data",7.3322128,2.224e-05,true,,,0x23
"I2C","data",7.3322384,2.224e-05,true,,,0x00
"I2C","data",7.33226432,2.224e-05,true,,,0x00
"I2C","data",7.33228992,2.224e-05,true,,,0x00
"I2C","data",7.33231552,2.224e-05,true,,,0x00
"I2C","data",7.33234128,2.24e-05,true,,,0x00
"I2C","data",7.33236688,2.24e-05,true,,,0x00
"I2C","data",7.3323928,2.224e-05,true,,,0x00
"I2C","data",7.3324184,2.224e-05,true,,,0x00
"I2C","data",7.33244416,2.24e-05,true,,,0x00
"I2C","data",7.33247008,2.224e-05,true,,,0x00
"I2C","data",7.33249568,2.224e-05,true,,,0x00
"I2C","data",7.3325216,2.224e-05,true,,,0x00
"I2C","data",7.33254768,2.224e-05,true,,,0x00
"I2C","data",7.33257328,2.224e-05,true,,,0x0F
"I2C","data",7.33259888,2.224e-05,true,,,0x29
"I2C","data",7.33262464,2.224e-05,true,,,0x00
"I2C","data",7.33265024,2.224e-05,true,,,0x03
"I2C","data",7.33267616,2.224e-05,true,,,0x41
"I2C","data",7.33270176,2.224e-05,true,,,0xC0
"I2C","data",7.33272736,2.224e-05,true,,,0xC1
"I2C","data",7.33275312,2.24e-05,true,,,0x1B
"I2C","data",7.33277872,2.24e-05,true,,,0x0F
"I2C","data",7.33280464,2.224e-05,true,,,0x2B
"I2C","data",7.33283024,2.224e-05,true,,,0x00
"I2C","data",7.33285584,2.224e-05,true,,,0x07
"I2C","data",7.33288176,2.224e-05,true,,,0x00
"I2C","data",7.33290736,2.224e-05,true,,,0x03
"I2C","data",7.33293312,2.224e-05,true,,,0x00
"I2C","data",7.33295872,2.224e-05,true,,,0x0C
"I2C","data",7.33298432,2.224e-05,true,,,0x00
"I2C","data",7.33301024,2.224e-05,true,,,0x00
"I2C","data",7.33303584,2.224e-05,true,,,0x00
"I2C","data",7.3330616,2.224e-05,true,,,0x00
"I2C","data",7.3330872,2.224e-05,true,,,0x0F
"I2C","data",7.3331128,2.224e-05,true,,,0x32
"I2C","data",7.33313872,2.224e-05,true,,,0x00
"I2C","data",7.33316432,2.224e-05,true,,,0x3E
"I2C","data",7.33319008,2.24e-05,true,,,0x07
"I2C","data",7.33321568,2.24e-05,true,,,0xA8
"I2C","data",7.33324128,2.24e-05,true,,,0x2A
"I2C","data",7.3332672,2.224e-05,true,,,0x2C
"I2C","data",7.3332928,2.224e-05,true,,,0x91
"I2C","data",7.33331872,2.224e-05,true,,,0x01
"I2C","data",7.33334432,2.224e-05,true,,,0x26
"I2C","data",7.33336992,2.224e-05,true,,,0x2C
"I2C","data",7.33339568,2.224e-05,true,,,0xD1
"I2C","data",7.33342128,2.224e-05,true,,,0x02
"I2C","data",7.33344736,2.224e-05,true,,,0x00
"I2C","data",7.33347296,2.224e-05,true,,,0x2C
"I2C","data",7.33349856,2.224e-05,true,,,0xB1
"I2C","data",7.33352448,2.224e-05,true,,,0x04
"I2C","data",7.33355008,2.224e-05,true,,,0x00
"I2C","data",7.33357584,2.24e-05,true,,,0x2C
"I2C","data",7.33360144,2.24e-05,true,,,0x41
"I2C","data",7.33362704,2.24e-05,true,,,0x06
"I2C","data",7.33365296,2.224e-05,true,,,0x00
"I2C","data",7.33367856,2.224e-05,true,,,0x3C
"I2C","data",7.33370448,2.224e-05,true,,,0x32
"I2C","data",7.33373008,2.224e-05,true,,,0xDC
"I2C","data",7.33375568,2.224e-05,true,,,0xC0
"I2C","data",7.33378144,2.224e-05,true,,,0x3C
"I2C","data",7.33380704,2.224e-05,true,,,0x32
"I2C","data",7.33383296,2.224e-05,true,,,0x40
"I2C","data",7.33385856,2.224e-05,true,,,0xC1
"I2C","data",7.33388416,2.224e-05,true,,,0x3C
"I2C","data",7.33390992,2.224e-05,true,,,0x32
"I2C","data",7.33393552,2.224e-05,true,,,0xA4
"I2C","data",7.33396144,2.224e-05,true,,,0xC1
"I2C","data",7.33398704,2.224e-05,true,,,0x00
"I2C","data",7.33401264,2.224e-05,true,,,0x00
"I2C","data",7.3340384,2.24e-05,true,,,0x00
"I2C","data",7.334064,2.24e-05,true,,,0x00
"I2C","data",7.33408992,2.224e-05,true,,,0x00
"I2C","data",7.33411552,2.224e-05,true,,,0x00
"I2C","data",7.33414112,2.224e-05,true,,,0x00
"I2C","data",7.33416704,2.224e-05,true,,,0x00
"I2C","data",7.33419248,2.24e-05,true,,,0x00
"I2C","data",7.3342184,2.224e-05,true,,,0x00
"I2C","data",7.334244,2.224e-05,true,,,0x00
"I2C","data",7.3342696,2.224e-05,true,,,0x00
"I2C","data",7.33429552,2.224e-05,true,,,0x00
"I2C","data",7.33432112,2.224e-05,true,,,0x00
"I2C","data",7.33434688,2.224e-05,true,,,0x00
"I2C","data",7.33437248,2.224e-05,true,,,0x00
"I2C","data",7.33439808,2.224e-05,true,,,0x00
"I2C","data",7.334424,2.224e-05,true,,,0x00
"I2C","data",7.33444976,2.24e-05,true,,,0x00
"I2C","data",7.33447568,2.224e-05,true,,,0x00
"I2C","data",7.33450128,2.224e-05,true,,,0x00
"I2C","data",7.33452688,2.224e-05,true,,,0x00
"I2C","data",7.33455264,2.24e-05,true,,,0x00
"I2C","data",7.33457824,2.24e-05,true,,,0x00
"I2C","data",7.33460416,2.224e-05,true,,,0xAA
"I2C","data",7.33462976,2.224e-05,true,,,0x0A
"I2C","data",7.33465536,2.224e-05,true,,,0x00
"I2C","data",7.33468128,2.224e-05,true,,,0x00
"I2C","data",7.33470688,2.224e-05,true,,,0x00
"I2C","data",7.33473264,2.224e-05,true,,,0x00
